 (1667235408.678009)  vcan0  18FE59FE   [8]  57 EA 11 0B 6C 24 8D 55 :: ASC3(RelativeLevelFrontAxleLeft: 2799.1000000000004 mm, RelativeLevelFrontAxleRight: -2916.7 mm, RelativeLevelRearAxleLeft: -2267.6 mm, RelativeLevelRearAxleRight: -1009.9000000000001 mm)
 (1667235409.678282)  vcan0  0C09FEFE   [8]  91 2B 8B 52 48 3A 5B 0F :: SRASI(StaticRollAngle: 20 deg, StaticRollAngleStatus: 3)
 (1667235410.678482)  vcan0  0CD2FEFE   [8]  57 60 AC 18 5E C9 36 4C :: ASC2(Atmttrtnhlpldtrnsfr: 3, KneelingRequestLeftSide: 1, KneelingRequestRightSide: 1, KneelingControlModeRequest: 1, NominalLevelRequestFrontAxle: 0, NominalLevelRequestRearAxle: 6, LevelControlModeRequest: 12, LiftAxle1PositionCommand: 2, LiftAxle2PositionCommand: 2, DamperStiffnessRequestFrontAxle: 9.600000000000001 %, DamperStiffnessRequestRearAxle: 37.6 %, DmprStffnssRqstLftTgAxl: 80.4 %, KneelingCommandFrontAxle: 2, KneelingCommandRearAxle: 1, Prohibitairsuspensioncontrol: 3, AllwLvlCntrlDrngBrkngCmmnd: 0, SpdDpndntLvlCntrlRqst: 0, PrhtAtmtArSspnsnCntrl: 3, Memorylevelrequest: 4)
 (1667235411.678718)  vcan0  18FEAEFE   [8]  E1 66 43 4C 26 C3 EA 63 :: AIR1(PneumaticSupplyPressure: 1800 kPa, ParkingandorTrailerAirPressure: 816 kPa, ServiceBrakeCircuit1AirPressure: 536 kPa, ServiceBrakeCircuit2AirPressure: 608 kPa, AxlrEqpmntSpplPrssr: 304 kPa, AirSuspensionSupplyPressure: 1560 kPa, AirCompressorStatus: 2, PwrtrnCrtArSpplPrssr: 792 kPa)
 (1667235412.679319)  vcan0  18FE4EFE   [8]  1B 43 32 26 EF 7F D6 41 :: DC1(Positionofdoors: 11, RampWheelChairLiftPosition: 1, Status2ofdoors: 0)
 (1667235413.679706)  vcan0  18FEA6FE   [8]  3B AF 42 6B E9 AA 95 41 :: IMT1(EngnTrhrgr1BstPrssr: 5607.375 kPa, EngnTrhrgr2BstPrssr: 3432.25 kPa, EngnTrhrgr3BstPrssr: 5469.125 kPa, EngnTrhrgr4BstPrssr: 2098.625 kPa)
 (1667235414.680038)  vcan0  18FEC0FE   [8]  C5 31 98 1F 11 48 62 56 :: SERV(ServiceComponentIdentificationA: 197 ID, ServiceDistance: 34170 km, ServiceComponentIdentificationB: 31 ID, ServiceDelayCalendarTimeBased: -108 weeks, ServiceComponentIdentificationC: 72 ID, SrvDlOprtnlTmBsd: -10013 h)
 (1667235415.680542)  vcan0  18FE9CFE   [8]  78 49 A6 3E 6B B5 16 6A :: MBT3(EngineMainBearing9Temperature: 314.75 degC, EngineMainBearing10Temperature: 228.1875 degC, EngineMainBearing11Temperature: 1178.34375 degC, EngineMainBearing12Temperature: 575.6875 degC)
 (1667235416.680837)  vcan0  0CF015FE   [8]  D1 90 A0 0D BD 0A 56 67 :: RGTACRP(RqstdGnrtrTtlACRtvPwr: -1771373359 VA, RqstdGnrtrOvrllPwrFtr: -0.83221435546875, RqstdGnrtrOvrllPwrFtrLggng: 2)
 (1667235417.681332)  vcan0  18FE68FE   [8]  F6 2B 6A 24 59 21 F5 0F :: VF(HydraulicTemperature: 206 degC, HdrlOlFltrRstrtnSwth: 3, WinchOilPressureSwitch: 2, HydraulicOilLevel: 42.400000000000006 %)
 (1667235418.681862)  vcan0  0C01FEFE   [8]  06 7A D8 28 B1 0B 07 1B :: TC1(TrnsmssnGrShftInhtRqst: 2, TrnsmssnTrqCnvrtrLkpRqst: 1, DisengageDrivelineRequest: 0, TrnsmssnRvrsGrShftInhtRqst: 0, RequestedPercentClutchSlip: 48.800000000000004 %, TransmissionRequestedGear: 91 gear value, DsnggDffrntlLkRqstFrntAxl1: 0, DsnggDffrntlLkRqstFrntAxl2: 2, DsnggDffrntlLkRqstRrAxl1: 2, DsnggDffrntlLkRqstRrAxl2: 0, DsnggDffrntlLkRqstCntrl: 1, DsnggDffrntlLkRqstCntrlFrnt: 0, DsnggDffrntlLkRqstCntrlRr: 3, TrnsmssnLdRdtnInhtRqst: 2, TransmissionMode1: 3, TransmissionMode2: 2, TransmissionMode3: 0, TransmissionMode4: 0, TrnsmssnAtNtrlMnlRtrnRqst: 3, TransmissionRequestedLaunchGear: 1, TrnsmssnShftSltrDsplMdSwth: 0, TransmissionMode5: 3, TransmissionMode6: 2, TransmissionMode7: 1, TransmissionMode8: 0)
 (1667235419.682414)  vcan0  0CD1FEFE   [8]  02 84 7A 20 42 37 92 6D :: ASC6(LevelPresetFrontAxleLeft: 179.4000000000001 mm, LevelPresetFrontAxleRight: -2368.6 mm, LevelPresetRearAxleLeft: -1785.3999999999999 mm, LevelPresetRearAxleRight: -395.0 mm)
 (1667235420.682668)  vcan0  18FED5FE   [8]  68 51 EC 1F 9A 97 3E 06 :: AS(AlternatorSpeed: 10420.0 rpm, Alternator1Status: 0, Alternator2Status: 3, Alternator3Status: 2, Alternator4Status: 3)
 (1667235421.683138)  vcan0  0CF00DFE   [8]  02 5C 46 70 7B FE 81 52 :: LOI(BladeControlModeSwitch: 2, DesiredGradeOffsetSwitch: 0, BladeAutoModeCommand: 12, LftBldCntrlMdOprtrCntrl: 5, RghtBldCntrlMdOprtrCntrl: 6, LftDsrdBldOffstOprtrCntrl: 4, RghtDsrdBldOffstOprtrCntrl: 0, SdshftBldCntrlMdOprtrCntrl: 7, SdshftDsrdBldOffstOprtrCntrl: 11, StElvtnSnsr1RfrnElvtn: 3, StElvtnSnsr2RfrnElvtn: 1)
 (1667235422.683524)  vcan0  18FE9DFE   [8]  87 5B 2E 35 97 41 B4 78 :: MBT2(EngineMainBearing5Temperature: 459.21875 degC, EngineMainBearing6Temperature: 152.4375 degC, EngineMainBearing7Temperature: 251.71875 degC, EngineMainBearing8Temperature: 692.625 degC)
 (1667235423.683876)  vcan0  18FE4AFE   [8]  FE 57 CC 2B D2 F0 F6 63 :: ETC7(TrnsmssnCrrntRngDsplBlnkStt: 2, TransmissionServiceIndicator: 3, TrnsmssnRqstdRngDsplBlnkStt: 3, TrnsmssnRqstdRngDsplFlshStt: 3, TrnsmssnRdfrBrkRls: 3, ActiveShiftConsoleIndicator: 1, TransmissionEngineCrankEnable: 1, TrnsmssnShftInhtIndtr: 1, TransmissionMode4Indicator: 0, TransmissionMode3Indicator: 3, TransmissionMode2Indicator: 0, TransmissionMode1Indicator: 3, TrnsmssnRqstdGrFdk: -82 gear value, TransmissionMode5Indicator: 2, TransmissionMode6Indicator: 0, TransmissionMode7Indicator: 1, TransmissionMode8Indicator: 3, TrnsmssnRvrsGrShftInhtStts: 0, TransmissionWarningIndicator: 0, TransmissionMode9Indicator: 3, TransmissionMode10Indicator: 3, TrnsmssnArSpplPrssrIndtr: 6, TrnsmssnAtNtrlMnlRtrnStt: 6, TransmissionManualModeIndicator: 3)
 (1667235424.684228)  vcan0  0C09FEFE   [8]  EA 0C 76 41 97 22 8F 03 :: SRASI(StaticRollAngle: 109 deg, StaticRollAngleStatus: 4)
 (1667235425.684748)  vcan0  18FEC1FE   [8]  BC 3F 21 56 0F 6C 35 42 :: VDHR(TtlVhlDstnHghRsltn: 7225097900 m, TripDistanceHighResolution: 5553986635 m)
 (1667235426.685216)  vcan0  18FE51FE   [8]  1B 98 70 2A E1 FC D5 4F :: ACC2(ACCusagedemand: 3, RequestedACCDistanceMode: 0)
 (1667235427.685797)  vcan0  08F062FE   [8]  6F 2B EF 61 D7 28 40 74 :: ETC12(TrnsmssnHdrsttLp1Prssr: 11119 kPa, TrnsmssnHdrsttLp2Prssr: 25071 kPa, TrnsmssnDrtnlOtptShftSpd: -21672 rpm, TrnsmssnIntrmdtShftSpd: 3720.0 rpm)
 (1667235428.686291)  vcan0  18FE98FE   [8]  88 A3 85 22 DD A2 18 1D :: TCI4(EngnTrhrgr1TrnIntkTmprtr: 1035.25 degC, EngnTrhrgr2TrnIntkTmprtr: 3.15625 degC, EngnTrhrgr3TrnIntkTmprtr: 1029.90625 degC, EngnTrhrgr4TrnIntkTmprtr: -40.25 degC)
 (1667235429.686863)  vcan0  00F02BFE   [8]  0D 40 A9 38 DF 26 93 3D :: CN(CrashType: 65 bit-mapped, CrashCounter: 13 count, CrashChecksum: 3 count)
 (1667235430.687372)  vcan0  0C1DFEFE   [8]  DB 16 28 5E 48 78 7F 5D :: EIC(EngineTimingAdvance: -154.2890625 deg)
 (1667235431.687884)  vcan0  18FEC0FE   [8]  08 B7 DD 4F 4A D4 C5 4D :: SERV(ServiceComponentIdentificationA: 8 ID, ServiceDistance: 123160 km, ServiceComponentIdentificationB: 79 ID, ServiceDelayCalendarTimeBased: -51 weeks, ServiceComponentIdentificationC: 212 ID, SrvDlOprtnlTmBsd: -12218 h)
 (1667235432.688428)  vcan0  18FE51FE   [8]  5B 1A 7E 25 D1 2F F4 02 :: ACC2(ACCusagedemand: 3, RequestedACCDistanceMode: 2)
 (1667235433.688764)  vcan0  18FE98FE   [8]  9D FD F4 3C CF 87 C0 2E :: TCI4(EngnTrhrgr1TrnIntkTmprtr: 1755.90625 degC, EngnTrhrgr2TrnIntkTmprtr: 214.625 degC, EngnTrhrgr3TrnIntkTmprtr: 813.46875 degC, EngnTrhrgr4TrnIntkTmprtr: 101.0 degC)
 (1667235434.689166)  vcan0  18FE9AFE   [8]  C9 8B 01 16 B9 94 36 70 :: TCI2(EngnTrhrgr1CmprssrIntkTmprtr: 845.28125 degC, EngnTrhrgr2CmprssrIntkTmprtr: -96.96875 degC, EngnTrhrgr3CmprssrIntkTmprtr: 916.78125 degC, EngnTrhrgr4CmprssrIntkTmprtr: 624.6875 degC)
 (1667235435.689616)  vcan0  18FE70FE   [8]  06 62 70 45 75 D4 57 46 :: CVW(PoweredVehicleWeight: 250940 kg, GrossCombinationVehicleWeight: 177760 kg)
 (1667235436.690029)  vcan0  18FE6DFE   [8]  AE ED F5 5E 91 6C C8 70 :: HTR(AxlrHtrOtptClntTmprtr: 134 degC, AxlrHtrInptArTmprtr: 197 degC, AxlrHtrOtptPwrPrnt: 98.0 %, AuxiliaryHeaterMode: 14, AuxiliaryHeaterWaterPumpStatus: 1, CabVentilation: 0, EngineHeatingZone: 1, CabHeatingZone: 2, ADRCompliantHeaterInstallation: 0)
 (1667265834.337873)  vcan0  0C08FEFE   [8]  EB D1 64 3D B3 36 88 00 :: AUXIO5(AuxiliaryIOChannel6: 53739 count, AuxiliaryIOChannel5: 15716 count, AuxiliaryIOChannel4: 14003 count, AuxiliaryIOChannel3: 136 count)
 (1667265835.338609)  vcan0  04F032FE   [8]  A8 AA D4 26 5C EC 4B 42 :: LDISP(MeasuredLinearDisplacement: 4368.8 mm, LnrDsplmntSnsrSnsrFgrfMrt: 0)
 (1667265836.339335)  vcan0  04F031FE   [8]  B2 9F D4 66 2D 4C DE 59 :: WAND(WandAngle: 17.763999999999996 deg, WandSensorFigureofMerit: 0)
 (1667265837.340180)  vcan0  18FE99FE   [8]  35 43 3C 72 DA 04 1F 35 :: TCI3(EngnTrhrgr1CmprssrIntkPrssr: -115.5859375 kPa, EngnTrhrgr2CmprssrIntkPrssr: -21.53125 kPa, EngnTrhrgr3CmprssrIntkPrssr: -240.296875 kPa, EngnTrhrgr4CmprssrIntkPrssr: -143.7578125 kPa)
 (1667265838.340818)  vcan0  0C0DFEFE   [8]  05 BE DC 08 08 98 9C 56 :: TC2(TransmissionMode9: 1, TransmissionMode10: 1)
 (1667265839.341593)  vcan0  18FE4AFE   [8]  59 15 60 78 2D 3B AB 3C :: ETC7(TrnsmssnCrrntRngDsplBlnkStt: 1, TransmissionServiceIndicator: 2, TrnsmssnRqstdRngDsplBlnkStt: 1, TrnsmssnRqstdRngDsplFlshStt: 1, TrnsmssnRdfrBrkRls: 1, ActiveShiftConsoleIndicator: 1, TransmissionEngineCrankEnable: 1, TrnsmssnShftInhtIndtr: 0, TransmissionMode4Indicator: 0, TransmissionMode3Indicator: 0, TransmissionMode2Indicator: 2, TransmissionMode1Indicator: 1, TrnsmssnRqstdGrFdk: -5 gear value, TransmissionMode5Indicator: 1, TransmissionMode6Indicator: 3, TransmissionMode7Indicator: 2, TransmissionMode8Indicator: 0, TrnsmssnRvrsGrShftInhtStts: 3, TransmissionWarningIndicator: 2, TransmissionMode9Indicator: 3, TransmissionMode10Indicator: 0, TrnsmssnArSpplPrssrIndtr: 3, TrnsmssnAtNtrlMnlRtrnStt: 5, TransmissionManualModeIndicator: 2)
 (1667265840.342233)  vcan0  18FED6FE   [8]  1C 2C 10 22 23 FC FC 29 :: HSI1(HrdSstmPrttnOvrrdSwth: 0, HrdSstmPrplsnClntLvlSwth: 3, HrdSstmPwrEltrnsClntLvlSwth: 1, HrdSstmOffBrdChrgrCnntnStts: 0, HrdSstmRgnrtvBrkngDslSwth: 0, HrdSstmBrkPdlRgnrtvBrkngDslSwth: 3, HrdSstmPrplsnDslSwth: 2, HybridSystemShutdownSwitch: 0, HrdSstmCstngRgnrtvBrkngLvlSltr: 6.4 %, PwrEltrnsClntFllSwth: 2, PrplsnMtrClntFllSwth: 0)
 (1667265841.342987)  vcan0  18FE58FE   [8]  31 54 DC 20 51 36 C9 70 :: ASC4(BellowPressureFrontAxleLeft: 2155.3 kPa, BellowPressureFrontAxleRight: 841.2 kPa, BellowPressureRearAxleLeft: 1390.5 kPa, BellowPressureRearAxleRight: 2887.3 kPa)
 (1667265842.343254)  vcan0  0C04FEFE   [8]  07 E4 40 78 72 A2 93 77 :: XBR(ExternalAccelerationDemand: 12.81641796875 m/(s*s), XBREBIMode: 0, XBRPriority: 0, XBRControlMode: 0, XBRurgency: 48.0 %, XBRMessageCounter: 7 count, XBRMessageChecksum: 7 count)
 (1667265843.343802)  vcan0  18FE6DFE   [8]  9D 9E 46 18 13 2D EB 67 :: HTR(AxlrHtrOtptClntTmprtr: 117 degC, AxlrHtrInptArTmprtr: 118 degC, AxlrHtrOtptPwrPrnt: 28.0 %, AuxiliaryHeaterMode: 8, AuxiliaryHeaterWaterPumpStatus: 3, CabVentilation: 0, EngineHeatingZone: 1, CabHeatingZone: 0, ADRCompliantHeaterInstallation: 1)
 (1667265844.344072)  vcan0  0CF016FE   [8]  19 26 7C 15 FE FE 4F 25 :: CCS(EngineCylinder1CombustionStatus: 1, EngineCylinder2CombustionStatus: 2, EngineCylinder3CombustionStatus: 1, EngineCylinder4CombustionStatus: 0, EngineCylinder5CombustionStatus: 2, EngineCylinder6CombustionStatus: 1, EngineCylinder7CombustionStatus: 2, EngineCylinder8CombustionStatus: 0, EngineCylinder9CombustionStatus: 0, EngnClndr10CmstnStts: 3, EngnClndr11CmstnStts: 3, EngnClndr12CmstnStts: 1, EngnClndr13CmstnStts: 1, EngnClndr14CmstnStts: 1, EngnClndr15CmstnStts: 1, EngnClndr16CmstnStts: 0, EngnClndr17CmstnStts: 2, EngnClndr18CmstnStts: 3, EngnClndr19CmstnStts: 3, EngnClndr20CmstnStts: 3, EngnClndr21CmstnStts: 2, EngnClndr22CmstnStts: 3, EngnClndr23CmstnStts: 3, EngnClndr24CmstnStts: 3)
 (1667265845.347855)  vcan0  18FE68FE   [8]  8B 95 40 2B A6 A9 24 4C :: VF(HydraulicTemperature: 99 degC, HdrlOlFltrRstrtnSwth: 1, WinchOilPressureSwitch: 1, HydraulicOilLevel: 25.6 %)
 (1667265846.348647)  vcan0  0C1BFEFE   [8]  4D 25 54 06 58 49 F9 32 :: HVES1C1(HVES1HghVltgBsCnntCmmnd: 1, HVES1PowerDownCommand: 3, HVES1HghVltgBsAtvIsltnTstCmmnd: 0, HVES1HghVltgBsPssvIsltnTstCmmnd: 1, HVES1CellBalancingCommand: 1, HVES1EnlIntrnlChrgrCmmnd: 1, HVES1OperationConsent: 2, HVES1HVtBsHSdRsstCtRqst: 0, HVES1HghVltgBsLwSdRsstrCnntRqst: 0)
 (1667265847.350686)  vcan0  18FE56FE   [8]  ED 03 F6 11 8D 8C 35 25 :: AT1T1I1(Aftrtrtmnt1DslExhstFldTnkVlm: 94.80000000000001 %, Atttt1DsExstFdTTpt1: -37 degC, Aftrtrtmnt1DslExhstFldTnkLvl: 459.8 mm, Atttt1DsExstFdTLvVPFMI: 13 binary, AttttDsExstFdTLwLvIdt: 4, Atttt1DsExstFdT1TptPFMI: 12 binary, AftrtrtmntSCROprtrIndmntSvrt: 4, Aftrtrtmnt1DslExhstFldTnkHtr: 21.200000000000003 %, Atttt1DsExstFdT1HtPFMI: 5 binary)
 (1667265848.352008)  vcan0  18FEA6FE   [8]  BC E0 94 26 93 4A 12 2E :: IMT1(EngnTrhrgr1BstPrssr: 7191.5 kPa, EngnTrhrgr2BstPrssr: 1234.5 kPa, EngnTrhrgr3BstPrssr: 2386.375 kPa, EngnTrhrgr4BstPrssr: 1474.25 kPa)
 (1667265849.353184)  vcan0  0C0DFEFE   [8]  BF 0B 84 27 EC 5F 72 26 :: TC2(TransmissionMode9: 3, TransmissionMode10: 3)
 (1667265850.353510)  vcan0  18FE96FE   [8]  4E B2 BC 7B 08 8C 82 48 :: TCW(EngnTrhrgrWstgtAttr1Pstn: 31.200000000000003 %, EngnTrhrgrWstgtAttr2Pstn: 71.2 %, EngnTrhrgrWstgtAttr3Pstn: 75.2 %, EngnTrhrgrWstgtAttr4Pstn: 49.2 %, EngnTrhrgrWstgtAttrCntrlArPrssr: 32 kPa, EngnTrhrgrWstgtAttr1DsrdPstn: 56.0 %, EngnTrhrgrWstgtAttr1PrlmnrFMI: 2 binary, EngnTrhrgrWstgtAttr1TmprtrStts: 4, EngnTrhrgrWstgtAttr2DsrdPstn: 28.8 %)
 (1667265851.354487)  vcan0  18FE5BFE   [8]  9C C7 1E 78 3A E0 5E 69 :: FLI2(LaneTrackingStatusRightSide: 3, LaneTrackingStatusLeftSide: 1, LnDprtrIndtnEnlStts: 2, DriverAlertnessLevel: 79.60000000000001 %, DrvrAlrtnssWrnngSstmStt: 6, LeftWheelLaneDepartureDistance: -5 cm, RightWheelLaneDepartureDistance: -67 cm, LaneDepartureWarningSystemState: 14, ForwardLaneImagerStatus: 5)
 (1667265852.354640)  vcan0  0CF018FE   [8]  77 94 A7 3B 41 C4 9F 61 :: KL2(EngineCylinder9KnockLevel: 119 %, EngineCylinder10KnockLevel: 148 %, EngineCylinder11KnockLevel: 167 %, EngineCylinder12KnockLevel: 59 %, EngineCylinder13KnockLevel: 65 %, EngineCylinder14KnockLevel: 196 %, EngineCylinder15KnockLevel: 159 %, EngineCylinder16KnockLevel: 97 %)
 (1667265853.355584)  vcan0  18FE4CFE   [8]  AE 8F EB 1C DF 62 E6 79 :: ML(RearBlackOutMarkerSelect: 2, FrontBlackOutMarkerLampSelect: 3, ConvoyLampSelect: 2, ConvoyDrivingLampSelect: 2, BlackOutBrakeStopLampSelect: 3, NightVisionIlluminatorSelect: 0, BlackOutWorkLampSelect: 0, OprtrsBlkOtIntnstSltn: 48.400000000000006 %)
 (1667265854.355971)  vcan0  18FE6DFE   [8]  CE CB C5 1F F8 88 62 0F :: HTR(AxlrHtrOtptClntTmprtr: 166 degC, AxlrHtrInptArTmprtr: 163 degC, AxlrHtrOtptPwrPrnt: 78.80000000000001 %, AuxiliaryHeaterMode: 15, AuxiliaryHeaterWaterPumpStatus: 0, CabVentilation: 2, EngineHeatingZone: 3, CabHeatingZone: 3, ADRCompliantHeaterInstallation: 0)
 (1667265855.356639)  vcan0  0CD1FEFE   [8]  A2 3E 28 23 83 1E A3 3A :: ASC6(LevelPresetFrontAxleLeft: -1596.6 mm, LevelPresetFrontAxleRight: -2300.0 mm, LevelPresetRearAxleLeft: -2418.9 mm, LevelPresetRearAxleRight: -1698.8999999999999 mm)
 (1667265856.357005)  vcan0  18FE54FE   [8]  D2 9D D6 68 D0 43 F7 40 :: ECT1(ELwLtTsdMxRPME: 6720 rpm, EHLtTsdMCtsERPM: 5024 rpm, ELwLtTsdMxTqE: 89 %, EHLtTsdMCtsTqE: -21 %, EngineMaximumContinuousRPM: 6656 rpm, EngineMinimumContinuousRPM: 2144 rpm, EngineMaximumContinuousTorque: 122 %, EngineMinimumContinuousTorque: -61 %)
 (1667265857.357302)  vcan0  18FE4BFE   [8]  2F 49 63 08 BD 47 ED 52 :: TCFG2(TransmissionTorqueLimit: 18735 Nm, TransmissionReferenceTorque: 2147 Nm, TrnsmssnCmmntnsFlrIdlTrqLmt: 64 %)
 (1667265858.357896)  vcan0  0C1BFEFE   [8]  66 F9 0E 5D 7A 28 82 79 :: HVES1C1(HVES1HghVltgBsCnntCmmnd: 2, HVES1PowerDownCommand: 1, HVES1HghVltgBsAtvIsltnTstCmmnd: 2, HVES1HghVltgBsPssvIsltnTstCmmnd: 1, HVES1CellBalancingCommand: 1, HVES1EnlIntrnlChrgrCmmnd: 2, HVES1OperationConsent: 3, HVES1HVtBsHSdRsstCtRqst: 3, HVES1HghVltgBsLwSdRsstrCnntRqst: 2)
 (1667265859.358075)  vcan0  18FE68FE   [8]  A5 41 57 08 39 34 06 21 :: VF(HydraulicTemperature: 125 degC, HdrlOlFltrRstrtnSwth: 1, WinchOilPressureSwitch: 0, HydraulicOilLevel: 34.800000000000004 %)
 (1667268369.225462)  vcan0  08F062FE   [8]  CA E2 FB 25 63 23 D5 12 :: ETC12(TrnsmssnHdrsttLp1Prssr: 58058 kPa, TrnsmssnHdrsttLp2Prssr: 9723 kPa, TrnsmssnDrtnlOtptShftSpd: -23068 rpm, TrnsmssnIntrmdtShftSpd: 602.625 rpm)
 (1667268370.225811)  vcan0  18FEADFE   [8]  11 88 73 6B 48 C1 D1 2B :: EBC3(BApptPssHRFtAxLtW: 85 kPa, BApptPssHRFtAxRtW: 680 kPa, BApptPssHRRAx1LtW: 575 kPa, BApptPssHRRAx1RtW: 535 kPa, BApptPssHRRAx2LtW: 360 kPa, BApptPssHRRAx2RtW: 965 kPa, BApptPssHRRAx3LtW: 1045 kPa, BApptPssHRRAx3RtW: 215 kPa)
 (1667268371.226094)  vcan0  18FEA0FE   [8]  42 DA C0 32 05 D0 51 46 :: EPT4(EngnExhstGsPrt13Tmprtr: 1473.0625 degC, EngnExhstGsPrt14Tmprtr: 133.0 degC, EngnExhstGsPrt15Tmprtr: 1391.15625 degC, EngnExhstGsPrt16Tmprtr: 289.53125 degC)
 (1667268372.226770)  vcan0  0CD2FEFE   [8]  D7 D4 76 1C EE BC 9D 6F :: ASC2(Atmttrtnhlpldtrnsfr: 3, KneelingRequestLeftSide: 1, KneelingRequestRightSide: 1, KneelingControlModeRequest: 3, NominalLevelRequestFrontAxle: 4, NominalLevelRequestRearAxle: 13, LevelControlModeRequest: 6, LiftAxle1PositionCommand: 3, LiftAxle2PositionCommand: 1, DamperStiffnessRequestFrontAxle: 11.200000000000001 %, DamperStiffnessRequestRearAxle: 95.2 %, DmprStffnssRqstLftTgAxl: 75.2 %, KneelingCommandFrontAxle: 1, KneelingCommandRearAxle: 3, Prohibitairsuspensioncontrol: 1, AllwLvlCntrlDrngBrkngCmmnd: 2, SpdDpndntLvlCntrlRqst: 3, PrhtAtmtArSspnsnCntrl: 3, Memorylevelrequest: 6)
 (1667268373.227509)  vcan0  18FEA6FE   [8]  FB 99 7C 1B 7A AD 4C 6C :: IMT1(EngnTrhrgr1BstPrssr: 4927.375 kPa, EngnTrhrgr2BstPrssr: 879.5 kPa, EngnTrhrgr3BstPrssr: 5551.25 kPa, EngnTrhrgr4BstPrssr: 3465.5 kPa)
 (1667268374.227709)  vcan0  0CF002FE   [8]  41 A0 49 7F B9 F3 37 3F :: ETC1(TransmissionDrivelineEngaged: 1, TrnsmssnTrqCnvrtrLkpEnggd: 0, TransmissionShiftInProcess: 0, TrnsmssnTrqCnvrtrLkpTrnstnnPrss: 1, Transmission1OutputShaftSpeed: 2356.0 rpm, PercentClutchSlip: 50.800000000000004 %, EngineMomentaryOverspeedEnable: 1, ProgressiveShiftDisable: 2, MmntrEngnMxmmPwrEnl: 3, Transmission1InputShaftSpeed: 1790.375 rpm, SAddssCtDvTsssCt: 63 SA)
 (1667268375.228446)  vcan0  18FE4FFE   [8]  10 EF F8 58 13 22 92 61 :: VDC1(VDCInformationSignal: 0, VDCFullyOperational: 0, VDCbrakelightrequest: 1, ROPEngineControlactive: 3, ROPBrakeControlactive: 3, YCEngineControlactive: 2, YCBrakeControlactive: 3, TrailerVDCActive: 0)
 (1667268376.228537)  vcan0  0CF004FE   [8]  A9 07 FB 2B 77 96 EF 14 :: EEC1(EngineTorqueMode: 9, AtlEngnPrntTrqFrtnl: 1.25 %, DrvrsDmndEngnPrntTrq: -118 %, ActualEnginePercentTorque: 126 %, EngineSpeed: 3813.375 rpm, SrAddrssfCntrllngDvfrEngnCntrl: 150 SA, EngineStarterMode: 15, EngineDemandPercentTorque: -105 %)
 (1667268377.229216)  vcan0  04F031FE   [8]  4E 46 93 09 A1 B8 B8 71 :: WAND(WandAngle: -28.003999999999998 deg, WandSensorFigureofMerit: 3)
 (1667268378.229648)  vcan0  18FEBFFE   [8]  7D FF F7 56 E7 47 E4 01 :: EBC2(FrontAxleSpeed: 255.48828125 km/h, RelativeSpeedFrontAxleLeftWheel: 7.625 km/h, RltvSpdFrntAxlRghtWhl: -2.4375 km/h, RelativeSpeedRearAxle1LeftWheel: 6.625 km/h, RltvSpdRrAxl1RghtWhl: -3.375 km/h, RelativeSpeedRearAxle2LeftWheel: 6.4375 km/h, RltvSpdRrAxl2RghtWhl: -7.75 km/h)
 (1667268379.230039)  vcan0  18FE99FE   [8]  22 0D B6 15 B2 2A E0 27 :: TCI3(EngnTrhrgr1CmprssrIntkPrssr: -223.734375 kPa, EngnTrhrgr2CmprssrIntkPrssr: -206.578125 kPa, EngnTrhrgr3CmprssrIntkPrssr: -164.609375 kPa, EngnTrhrgr4CmprssrIntkPrssr: -170.25 kPa)
 (1667268380.230441)  vcan0  0C1EFEFE   [8]  BB 90 43 07 C3 B2 53 13 :: ALTC(AltrntrStpntVltgCmmnd: 37.051 V, AltrntrExttnMxmmCrrntLmt: 16.75 A, AlternatorTorqueRampTimeCommand: 0.7000000000000001 s, AltrntrTrqRmpMxmmSpdCmmnd: 6240 rpm)
 (1667268381.230934)  vcan0  18FE54FE   [8]  80 59 78 43 05 8D 14 46 :: ECT1(ELwLtTsdMxRPME: 4096 rpm, EHLtTsdMCtsERPM: 2848 rpm, ELwLtTsdMxTqE: -5 %, EHLtTsdMCtsTqE: -58 %, EngineMaximumContinuousRPM: 160 rpm, EngineMinimumContinuousRPM: 4512 rpm, EngineMaximumContinuousTorque: -105 %, EngineMinimumContinuousTorque: -55 %)
 (1667268382.231632)  vcan0  0CF016FE   [8]  26 B3 10 41 DC 61 8B 62 :: CCS(EngineCylinder1CombustionStatus: 2, EngineCylinder2CombustionStatus: 1, EngineCylinder3CombustionStatus: 2, EngineCylinder4CombustionStatus: 0, EngineCylinder5CombustionStatus: 3, EngineCylinder6CombustionStatus: 0, EngineCylinder7CombustionStatus: 3, EngineCylinder8CombustionStatus: 2, EngineCylinder9CombustionStatus: 0, EngnClndr10CmstnStts: 0, EngnClndr11CmstnStts: 1, EngnClndr12CmstnStts: 0, EngnClndr13CmstnStts: 1, EngnClndr14CmstnStts: 0, EngnClndr15CmstnStts: 0, EngnClndr16CmstnStts: 1, EngnClndr17CmstnStts: 0, EngnClndr18CmstnStts: 3, EngnClndr19CmstnStts: 1, EngnClndr20CmstnStts: 3, EngnClndr21CmstnStts: 1, EngnClndr22CmstnStts: 0, EngnClndr23CmstnStts: 2, EngnClndr24CmstnStts: 1)
 (1667268383.233105)  vcan0  18FED5FE   [8]  EE ED 96 69 D7 FB 07 7E :: AS(AlternatorSpeed: 30455.0 rpm, Alternator1Status: 2, Alternator2Status: 1, Alternator3Status: 1, Alternator4Status: 2)
 (1667268384.233520)  vcan0  0CF003FE   [8]  45 22 D4 46 19 9C 51 7D :: EEC2(AcceleratorPedal1LowIdleSwitch: 1, AcceleratorPedalKickdownSwitch: 1, RoadSpeedLimitStatus: 0, AcceleratorPedal2LowIdleSwitch: 1, AcceleratorPedalPosition1: 13.600000000000001 %, EnginePercentLoadAtCurrentSpeed: 212 %, RemoteAcceleratorPedalPosition: 28.0 %, AcceleratorPedal2Position: 10.0 %, VhlAlrtnRtLmtStts: 0, MmntrEngnMxmmPwrEnlFdk: 3, DPFThermalManagementActive: 1, SCRThermalManagementActive: 2, AtlMxmmAvllEngnPrntTrq: 32.4 %, EstimatedPumpingPercentTorque: 0 %)
 (1667268385.234195)  vcan0  0C1DFEFE   [8]  5B A3 29 19 29 8B 4A 56 :: EIC(EngineTimingAdvance: 126.7109375 deg)
 (1667268386.235338)  vcan0  18FEA0FE   [8]  94 F6 24 78 D2 92 45 02 :: EPT4(EngnExhstGsPrt13Tmprtr: 1699.625 degC, EngnExhstGsPrt14Tmprtr: 688.125 degC, EngnExhstGsPrt15Tmprtr: 901.5625 degC, EngnExhstGsPrt16Tmprtr: -254.84375 degC)
 (1667268387.236168)  vcan0  0C09FEFE   [8]  E6 AD 67 30 20 D9 D8 0B :: SRASI(StaticRollAngle: 105 deg, StaticRollAngleStatus: 5)
 (1667268388.236659)  vcan0  18FE96FE   [8]  E1 22 76 66 9D D8 D0 62 :: TCW(EngnTrhrgrWstgtAttr1Pstn: 90.0 %, EngnTrhrgrWstgtAttr2Pstn: 13.600000000000001 %, EngnTrhrgrWstgtAttr3Pstn: 47.2 %, EngnTrhrgrWstgtAttr4Pstn: 40.800000000000004 %, EngnTrhrgrWstgtAttrCntrlArPrssr: 628 kPa, EngnTrhrgrWstgtAttr1DsrdPstn: 86.4 %, EngnTrhrgrWstgtAttr1PrlmnrFMI: 16 binary, EngnTrhrgrWstgtAttr1TmprtrStts: 6, EngnTrhrgrWstgtAttr2DsrdPstn: 39.2 %)
 (1667268389.236971)  vcan0  18FE69FE   [8]  61 A6 9D 4B C0 E5 86 78 :: ET3(EngnIntkMnfld1TmprtrHghRsltn: 1058.03125 degC, EngnClntTmprtrHghRsltn: 331.90625 degC, EngnIntkVlvAttnSstmOlTmprtr: 1565.0 degC, EngnChrgArClr1OtltTmprtr: 691.1875 degC)
 (1667268390.237215)  vcan0  0CD2FEFE   [8]  44 4D 9A 43 7B 76 CA 7F :: ASC2(Atmttrtnhlpldtrnsfr: 0, KneelingRequestLeftSide: 1, KneelingRequestRightSide: 0, KneelingControlModeRequest: 1, NominalLevelRequestFrontAxle: 13, NominalLevelRequestRearAxle: 4, LevelControlModeRequest: 10, LiftAxle1PositionCommand: 1, LiftAxle2PositionCommand: 2, DamperStiffnessRequestFrontAxle: 26.8 %, DamperStiffnessRequestRearAxle: 49.2 %, DmprStffnssRqstLftTgAxl: 47.2 %, KneelingCommandFrontAxle: 2, KneelingCommandRearAxle: 2, Prohibitairsuspensioncontrol: 0, AllwLvlCntrlDrngBrkngCmmnd: 3, SpdDpndntLvlCntrlRqst: 3, PrhtAtmtArSspnsnCntrl: 3, Memorylevelrequest: 7)
 (1667268391.237685)  vcan0  18FE8DFE   [8]  70 B5 68 67 FB CF 42 43 :: VEP2(BatteryPotentialPowerInput2: 2322.4 V, ECUPowerOutputSupplyVoltage1: 1323.6000000000001 V, ECUPowerOutputSupplyVoltage2: 2662.15 V, ECUPowerOutputSupplyVoltage3: 860.9000000000001 V)
 (1667268392.238493)  vcan0  18FED6FE   [8]  A0 ED 88 51 21 83 53 04 :: HSI1(HrdSstmPrttnOvrrdSwth: 0, HrdSstmPrplsnClntLvlSwth: 0, HrdSstmPwrEltrnsClntLvlSwth: 2, HrdSstmOffBrdChrgrCnntnStts: 2, HrdSstmRgnrtvBrkngDslSwth: 1, HrdSstmBrkPdlRgnrtvBrkngDslSwth: 3, HrdSstmPrplsnDslSwth: 2, HybridSystemShutdownSwitch: 3, HrdSstmCstngRgnrtvBrkngLvlSltr: 54.400000000000006 %, PwrEltrnsClntFllSwth: 1, PrplsnMtrClntFllSwth: 0)
 (1667268445.280245)  vcan0  0CF016FE   [8]  DD 24 14 32 01 77 A1 28 :: CCS(EngineCylinder1CombustionStatus: 1, EngineCylinder2CombustionStatus: 3, EngineCylinder3CombustionStatus: 1, EngineCylinder4CombustionStatus: 3, EngineCylinder5CombustionStatus: 0, EngineCylinder6CombustionStatus: 1, EngineCylinder7CombustionStatus: 2, EngineCylinder8CombustionStatus: 0, EngineCylinder9CombustionStatus: 0, EngnClndr10CmstnStts: 1, EngnClndr11CmstnStts: 1, EngnClndr12CmstnStts: 0, EngnClndr13CmstnStts: 2, EngnClndr14CmstnStts: 0, EngnClndr15CmstnStts: 3, EngnClndr16CmstnStts: 0, EngnClndr17CmstnStts: 1, EngnClndr18CmstnStts: 0, EngnClndr19CmstnStts: 0, EngnClndr20CmstnStts: 0, EngnClndr21CmstnStts: 3, EngnClndr22CmstnStts: 1, EngnClndr23CmstnStts: 3, EngnClndr24CmstnStts: 1)
 (1667268446.280757)  vcan0  0C0BFEFE   [8]  01 F3 30 64 F6 7D B9 24 :: AEBS2(DvtvtddAdvdEBSst: 1, AEBS2messageCounter: 4 count, AEBS2messagechecksum: 2 count)
 (1667268447.281140)  vcan0  08F02DFE   [8]  75 99 8B 00 C1 66 1D 33 :: ACCS(LtrlAlrtnExtnddRng: 72.85000000000002 m/(s*s), LngtdnlAlrtnExtnddRng: -318.61 m/(s*s), VrtlAlrtnExtnddRng: -56.94999999999999 m/(s*s), LtrlAlrtnFgrfMrtExtnddRng: 1, LngtdnlAlrtnFgrfMrtExtnddRng: 3, VrtlAlrtnFgrfMrtExtnddRng: 1, SpptVTsssRpttRtAtSs: 0)
 (1667268448.282443)  vcan0  18FE53FE   [8]  68 27 63 49 9C 6C 4B 39 :: RTC1(LwLmtThrshldfrMxmmRPMfrmRtrdr: 3328 rpm, HLtTsdMCtsRPMRtd: 1248 rpm, LwLmtThrshldfrMxmmTrqfrmRtrdr: -26 %, HLtTsdMCtsTqRtd: -52 %, MaximumContinuousRetarderSpeed: 4992 rpm, MinimumContinuousRetarderSpeed: 3456 rpm, MaximumContinuousRetarderTorque: -50 %, MinimumContinuousRetarderTorque: -68 %)
 (1667268449.282873)  vcan0  0C99FEFE   [8]  49 22 BA 03 9B 47 3E 77 :: JLCM(Joystick1Lamp1Command: 1, Joystick1Lamp2Command: 2, Joystick1Lamp3Command: 0, Joystick1Lamp4Command: 1, Joystick1Lamp5Command: 2, Joystick1Lamp6Command: 0, Joystick1Lamp7Command: 2, Joystick1Lamp8Command: 0, Joystick1Lamp9Command: 2, Joystick1Lamp10Command: 2, Joystick2Lamp1Command: 3, Joystick2Lamp2Command: 2, Joystick2Lamp3Command: 3, Joystick2Lamp4Command: 0, Joystick2Lamp5Command: 0, Joystick2Lamp6Command: 0, Joystick2Lamp7Command: 3, Joystick2Lamp8Command: 2, Joystick2Lamp9Command: 1, Joystick2Lamp10Command: 2, Joystick3Lamp1Command: 3, Joystick3Lamp2Command: 1, Joystick3Lamp3Command: 0, Joystick3Lamp4Command: 1, Joystick3Lamp5Command: 2, Joystick3Lamp6Command: 3, Joystick3Lamp7Command: 3, Joystick3Lamp8Command: 0, Joystick3Lamp9Command: 3, Joystick3Lamp10Command: 1)
 (1667268450.283203)  vcan0  0CF002FE   [8]  D2 83 41 54 12 B0 35 1D :: ETC1(TransmissionDrivelineEngaged: 2, TrnsmssnTrqCnvrtrLkpEnggd: 0, TransmissionShiftInProcess: 1, TrnsmssnTrqCnvrtrLkpTrnstnnPrss: 3, Transmission1OutputShaftSpeed: 2096.375 rpm, PercentClutchSlip: 33.6 %, EngineMomentaryOverspeedEnable: 2, ProgressiveShiftDisable: 0, MmntrEngnMxmmPwrEnl: 1, Transmission1InputShaftSpeed: 1718.0 rpm, SAddssCtDvTsssCt: 29 SA)
 (1667268451.283808)  vcan0  18FEA6FE   [8]  73 5E E1 67 B8 C7 05 5A :: IMT1(EngnTrhrgr1BstPrssr: 3022.375 kPa, EngnTrhrgr2BstPrssr: 3324.125 kPa, EngnTrhrgr3BstPrssr: 6391.0 kPa, EngnTrhrgr4BstPrssr: 2880.625 kPa)
 (1667268452.284420)  vcan0  0CF004FE   [8]  03 CF DB 5F 4D F9 30 69 :: EEC1(EngineTorqueMode: 3, AtlEngnPrntTrqFrtnl: 0.0 %, DrvrsDmndEngnPrntTrq: 82 %, ActualEnginePercentTorque: 94 %, EngineSpeed: 2475.875 rpm, SrAddrssfCntrllngDvfrEngnCntrl: 249 SA, EngineStarterMode: 0, EngineDemandPercentTorque: -20 %)
 (1667268453.284775)  vcan0  18FE59FE   [8]  E6 A3 58 25 2E A8 44 64 :: ASC3(RelativeLevelFrontAxleLeft: 995.8000000000002 mm, RelativeLevelFrontAxleRight: -2244.0 mm, RelativeLevelRearAxleLeft: 1105.4000000000005 mm, RelativeLevelRearAxleRight: -633.1999999999998 mm)
 (1667268454.286917)  vcan0  0C1EFEFE   [8]  CA F1 79 0E 1A 63 89 18 :: ALTC(AltrntrStpntVltgCmmnd: 61.898 V, AltrntrExttnMxmmCrrntLmt: 30.25 A, AlternatorTorqueRampTimeCommand: 1.4000000000000001 s, AltrntrTrqRmpMxmmSpdCmmnd: 832 rpm)
 (1667268455.287171)  vcan0  18FE97FE   [8]  2B 8B B7 2E F7 87 9D 4A :: TCI5(EngnTrhrgr1TrnOtltTmprtr: 840.34375 degC, EngnTrhrgr2TrnOtltTmprtr: 100.71875 degC, EngnTrhrgr3TrnOtltTmprtr: 814.71875 degC, EngnTrhrgr4TrnOtltTmprtr: 323.90625 degC)
 (1667268456.287265)  vcan0  0C0DFEFE   [8]  29 FD 8B 18 F8 7A CE 2E :: TC2(TransmissionMode9: 1, TransmissionMode10: 2)
 (1667268457.287676)  vcan0  18FE4FFE   [8]  0D A8 B5 15 6D 14 5A 2F :: VDC1(VDCInformationSignal: 1, VDCFullyOperational: 3, VDCbrakelightrequest: 0, ROPEngineControlactive: 0, ROPBrakeControlactive: 2, YCEngineControlactive: 2, YCBrakeControlactive: 2, TrailerVDCActive: 1)
 (1667268458.288653)  vcan0  0CF002FE   [8]  D7 AB E0 3C D5 3B BD 78 :: ETC1(TransmissionDrivelineEngaged: 3, TrnsmssnTrqCnvrtrLkpEnggd: 1, TransmissionShiftInProcess: 1, TrnsmssnTrqCnvrtrLkpTrnstnnPrss: 3, Transmission1OutputShaftSpeed: 7189.375 rpm, PercentClutchSlip: 24.0 %, EngineMomentaryOverspeedEnable: 1, ProgressiveShiftDisable: 1, MmntrEngnMxmmPwrEnl: 1, Transmission1InputShaftSpeed: 6055.375 rpm, SAddssCtDvTsssCt: 120 SA)
 (1667268459.288951)  vcan0  18FE69FE   [8]  BC F7 7D 60 1F 5E 77 7C :: ET3(EngnIntkMnfld1TmprtrHghRsltn: 1708.875 degC, EngnClntTmprtrHghRsltn: 498.90625 degC, EngnIntkVlvAttnSstmOlTmprtr: 479.96875 degC, EngnChrgArClr1OtltTmprtr: 722.71875 degC)
 (1667268460.289829)  vcan0  0CF015FE   [8]  03 84 44 44 F1 E1 B8 50 :: RGTACRP(RqstdGnrtrTtlACRtvPwr: -854659069 VA, RqstdGnrtrOvrllPwrFtr: 2.53033447265625, RqstdGnrtrOvrllPwrFtrLggng: 0)
 (1667268461.289981)  vcan0  0C1CFEFE   [8]  BB 05 BE 08 64 40 9A 38 :: TC3(TransmissionOverrideControlMode: 3, TrnsmssnOvrrdCntrlMdPrrt: 2, MessageCounter: 11 count, TrnsmssnRqstdOtptShftSpd: 4129.5 rpm, TrnsmssnRqstdTrqTrqLmt: -117 %, MessageChecksum: 56 count)
 (1667268462.290221)  vcan0  18FE8FFE   [8]  44 96 20 64 68 0F 76 18 :: SP2(EngnExtrnlShtdwnArSpplPrssr: 19234.0 kPa)
 (1667268463.290456)  vcan0  08FE6EFE   [8]  A4 7B 0A 53 4E B3 CE 3D :: HRW(FrontAxleLeftWheelSpeed: 123.640625 km/h, Frontaxlerightwheelspeed: 83.0390625 km/h, Rearaxleleftwheelspeed: 179.3046875 km/h, Rearaxlerightwheelspeed: 61.8046875 km/h)
 (1667268464.290985)  vcan0  0CD1FEFE   [8]  67 CB C9 31 19 A5 48 4C :: ASC6(LevelPresetFrontAxleLeft: 2007.1000000000004 mm, LevelPresetFrontAxleRight: -1925.5 mm, LevelPresetRearAxleLeft: 1026.5 mm, LevelPresetRearAxleRight: -1247.1999999999998 mm)
 (1667268465.291602)  vcan0  18FE59FE   [8]  E5 03 65 11 44 30 00 7B :: ASC3(RelativeLevelFrontAxleLeft: -3100.3 mm, RelativeLevelFrontAxleRight: -2754.7 mm, RelativeLevelRearAxleLeft: -1964.3999999999999 mm, RelativeLevelRearAxleRight: -51.19999999999982 mm)
 (1667268466.291921)  vcan0  0CD2FEFE   [8]  65 B3 A1 19 6D 2D 8C 13 :: ASC2(Atmttrtnhlpldtrnsfr: 1, KneelingRequestLeftSide: 1, KneelingRequestRightSide: 2, KneelingControlModeRequest: 1, NominalLevelRequestFrontAxle: 3, NominalLevelRequestRearAxle: 11, LevelControlModeRequest: 1, LiftAxle1PositionCommand: 2, LiftAxle2PositionCommand: 2, DamperStiffnessRequestFrontAxle: 10.0 %, DamperStiffnessRequestRearAxle: 43.6 %, DmprStffnssRqstLftTgAxl: 18.0 %, KneelingCommandFrontAxle: 0, KneelingCommandRearAxle: 3, Prohibitairsuspensioncontrol: 0, AllwLvlCntrlDrngBrkngCmmnd: 2, SpdDpndntLvlCntrlRqst: 3, PrhtAtmtArSspnsnCntrl: 0, Memorylevelrequest: 1)
 (1667268467.293827)  vcan0  0C0DFEFE   [8]  DB E0 97 46 7A D5 41 29 :: TC2(TransmissionMode9: 3, TransmissionMode10: 2)
 (1667268468.295837)  vcan0  0CF00DFE   [8]  12 75 AB 26 51 81 22 66 :: LOI(BladeControlModeSwitch: 2, DesiredGradeOffsetSwitch: 1, BladeAutoModeCommand: 5, LftBldCntrlMdOprtrCntrl: 7, RghtBldCntrlMdOprtrCntrl: 11, LftDsrdBldOffstOprtrCntrl: 10, RghtDsrdBldOffstOprtrCntrl: 6, SdshftBldCntrlMdOprtrCntrl: 2, SdshftDsrdBldOffstOprtrCntrl: 1, StElvtnSnsr1RfrnElvtn: 1, StElvtnSnsr2RfrnElvtn: 1)
 (1667268469.298348)  vcan0  04F032FE   [8]  E6 75 0A 40 0D 79 A0 46 :: LDISP(MeasuredLinearDisplacement: 3018.2000000000003 mm, LnrDsplmntSnsrSnsrFgrfMrt: 2)
 (1667268522.331074)  vcan0  18FE67FE   [8]  18 10 78 6C 0F 6B 3C 02 :: CCC(AxlrHtrMxmmOtptPwr: 8240 W)
 (1667268523.331477)  vcan0  18FEBFFE   [8]  CB 91 E2 38 E2 76 EA 21 :: EBC2(FrontAxleSpeed: 145.79296875 km/h, RelativeSpeedFrontAxleLeftWheel: 6.3125 km/h, RltvSpdFrntAxlRghtWhl: -4.3125 km/h, RelativeSpeedRearAxle1LeftWheel: 6.3125 km/h, RltvSpdRrAxl1RghtWhl: -0.4375 km/h, RelativeSpeedRearAxle2LeftWheel: 6.8125 km/h, RltvSpdRrAxl2RghtWhl: -5.75 km/h)
 (1667268524.331864)  vcan0  18FE6DFE   [8]  52 7B 2A 3C 7E 8F F3 03 :: HTR(AxlrHtrOtptClntTmprtr: 42 degC, AxlrHtrInptArTmprtr: 83 degC, AxlrHtrOtptPwrPrnt: 16.8 %, AuxiliaryHeaterMode: 12, AuxiliaryHeaterWaterPumpStatus: 2, CabVentilation: 3, EngineHeatingZone: 3, CabHeatingZone: 1, ADRCompliantHeaterInstallation: 3)
 (1667268525.332337)  vcan0  0CF018FE   [8]  C1 35 00 31 E1 D7 F1 43 :: KL2(EngineCylinder9KnockLevel: 193 %, EngineCylinder10KnockLevel: 53 %, EngineCylinder11KnockLevel: 0 %, EngineCylinder12KnockLevel: 49 %, EngineCylinder13KnockLevel: 225 %, EngineCylinder14KnockLevel: 215 %, EngineCylinder15KnockLevel: 241 %, EngineCylinder16KnockLevel: 67 %)
 (1667268526.332686)  vcan0  08F02CFE   [8]  BE E5 09 4C D5 3C F1 4B :: MSI2(MagnetForwardCurrent: 58814 A, MagnetReverseCurrent: 9 A, MaterialLiftSwitch: 0, MaterialDropSwitch: 3, GnrtrCrrntBstAtvStts: 0, MaterialLiftActiveStatus: 1, MaterialDropActiveStatus: 1, LiftRelayControl: 1, DropRelayControl: 1, MagnetGeneratorControl: 3)
 (1667268527.333017)  vcan0  18FE6BFE   [8]  7B 4F E0 49 7F A5 22 07 :: DI(Driver1identification: 123 ASCII, Driver2identification: 79 ASCII)
 (1667268528.333476)  vcan0  08F02CFE   [8]  24 6E AD 16 56 51 1B 28 :: MSI2(MagnetForwardCurrent: 28196 A, MagnetReverseCurrent: 173 A, MaterialLiftSwitch: 2, MaterialDropSwitch: 1, GnrtrCrrntBstAtvStts: 1, MaterialLiftActiveStatus: 0, MaterialDropActiveStatus: 2, LiftRelayControl: 1, DropRelayControl: 1, MagnetGeneratorControl: 1)
 (1667268529.333872)  vcan0  18FEADFE   [8]  1B EC 62 3C 92 0B 56 18 :: EBC3(BApptPssHRFtAxLtW: 135 kPa, BApptPssHRFtAxRtW: 1180 kPa, BApptPssHRRAx1LtW: 490 kPa, BApptPssHRRAx1RtW: 300 kPa, BApptPssHRRAx2LtW: 730 kPa, BApptPssHRRAx2RtW: 55 kPa, BApptPssHRRAx3LtW: 430 kPa, BApptPssHRRAx3RtW: 120 kPa)
 (1667268530.334240)  vcan0  18FEA6FE   [8]  4F 10 9C 77 F1 DF D6 4D :: IMT1(EngnTrhrgr1BstPrssr: 521.875 kPa, EngnTrhrgr2BstPrssr: 3827.5 kPa, EngnTrhrgr3BstPrssr: 7166.125 kPa, EngnTrhrgr4BstPrssr: 2490.75 kPa)
 (1667268531.334621)  vcan0  18FE70FE   [8]  74 21 8A 0C 87 48 6F 67 :: CVW(PoweredVehicleWeight: 85640 kg, GrossCombinationVehicleWeight: 32100 kg)
 (1667268532.335221)  vcan0  0CF004FE   [8]  96 87 88 6C A0 58 E7 53 :: EEC1(EngineTorqueMode: 6, AtlEngnPrntTrqFrtnl: 1.125 %, DrvrsDmndEngnPrntTrq: 10 %, ActualEnginePercentTorque: 11 %, EngineSpeed: 5133.5 rpm, SrAddrssfCntrllngDvfrEngnCntrl: 88 SA, EngineStarterMode: 7, EngineDemandPercentTorque: -42 %)
 (1667268533.338139)  vcan0  0CF003FE   [8]  81 A4 2B 5A 6B EA C9 0C :: EEC2(AcceleratorPedal1LowIdleSwitch: 1, AcceleratorPedalKickdownSwitch: 0, RoadSpeedLimitStatus: 0, AcceleratorPedal2LowIdleSwitch: 2, AcceleratorPedalPosition1: 65.60000000000001 %, EnginePercentLoadAtCurrentSpeed: 43 %, RemoteAcceleratorPedalPosition: 36.0 %, AcceleratorPedal2Position: 42.800000000000004 %, VhlAlrtnRtLmtStts: 2, MmntrEngnMxmmPwrEnlFdk: 2, DPFThermalManagementActive: 2, SCRThermalManagementActive: 3, AtlMxmmAvllEngnPrntTrq: 80.4 %, EstimatedPumpingPercentTorque: -113 %)
 (1667268534.338635)  vcan0  18FE53FE   [8]  38 23 A3 13 BD 65 F4 48 :: RTC1(LwLmtThrshldfrMxmmRPMfrmRtrdr: 1792 rpm, HLtTsdMCtsRPMRtd: 1120 rpm, LwLmtThrshldfrMxmmTrqfrmRtrdr: 38 %, HLtTsdMCtsTqRtd: -106 %, MaximumContinuousRetarderSpeed: 6048 rpm, MinimumContinuousRetarderSpeed: 3232 rpm, MaximumContinuousRetarderTorque: 119 %, MinimumContinuousRetarderTorque: -53 %)
 (1667268535.339014)  vcan0  18FEAEFE   [8]  09 78 79 74 7F 9B F4 79 :: AIR1(PneumaticSupplyPressure: 72 kPa, ParkingandorTrailerAirPressure: 960 kPa, ServiceBrakeCircuit1AirPressure: 968 kPa, ServiceBrakeCircuit2AirPressure: 928 kPa, AxlrEqpmntSpplPrssr: 1016 kPa, AirSuspensionSupplyPressure: 1240 kPa, AirCompressorStatus: 0, PwrtrnCrtArSpplPrssr: 968 kPa)
 (1667268536.339841)  vcan0  0CF00AFE   [8]  ED F2 FE 63 3D 81 FE 45 :: EGF1(EngnExhstGsRrltn1MssFlwRt: 3109.4500000000003 kg/h, EngineIntakeAirMassFlowRate: 1279.9 kg/h, EngnExhstGsRrltn2MssFlwRt: 1654.25 kg/h)
 (1667268537.340819)  vcan0  18FE59FE   [8]  03 29 38 7E B8 D0 DE 0F :: ASC3(RelativeLevelFrontAxleLeft: -2150.1 mm, RelativeLevelFrontAxleRight: 31.200000000000273 mm, RelativeLevelRearAxleLeft: 2143.2000000000007 mm, RelativeLevelRearAxleRight: -2793.8 mm)
 (1667268538.341598)  vcan0  0CF014FE   [8]  F7 01 C5 2F DD 3E 8C 26 :: BI(RelativeBladeHeight: -3149.7 mm, BladeRotationAngle: -104.4609375 deg, RtvBdHtdBdRttAMstLt: 110.5 ms, RltvBldHghtFgrfMrt: 2, BladeRotationAngleFigureofMerit: 3)
 (1667268539.341985)  vcan0  08F062FE   [8]  FF 30 04 2C F8 2A EF 62 :: ETC12(TrnsmssnHdrsttLp1Prssr: 12543 kPa, TrnsmssnHdrsttLp2Prssr: 11268 kPa, TrnsmssnDrtnlOtptShftSpd: -21127 rpm, TrnsmssnIntrmdtShftSpd: 3165.875 rpm)
 (1667268540.342063)  vcan0  08FE6EFE   [8]  B7 F5 10 54 47 3B 8B 5A :: HRW(FrontAxleLeftWheelSpeed: 245.71484375 km/h, Frontaxlerightwheelspeed: 84.0625 km/h, Rearaxleleftwheelspeed: 59.27734375 km/h, Rearaxlerightwheelspeed: 90.54296875 km/h)
 (1667268541.342750)  vcan0  0CF004FE   [8]  BF 3C F6 1D BB 5C 15 67 :: EEC1(EngineTorqueMode: 15, AtlEngnPrntTrqFrtnl: 1.375 %, DrvrsDmndEngnPrntTrq: -65 %, ActualEnginePercentTorque: 121 %, EngineSpeed: 5987.625 rpm, SrAddrssfCntrllngDvfrEngnCntrl: 92 SA, EngineStarterMode: 5, EngineDemandPercentTorque: -22 %)
 (1667268542.343600)  vcan0  18FE5BFE   [8]  58 96 E9 07 52 E4 9D 53 :: FLI2(LaneTrackingStatusRightSide: 2, LaneTrackingStatusLeftSide: 1, LnDprtrIndtnEnlStts: 1, DriverAlertnessLevel: 60.0 %, DrvrAlrtnssWrnngSstmStt: 1, LeftWheelLaneDepartureDistance: -118 cm, RightWheelLaneDepartureDistance: -43 cm, LaneDepartureWarningSystemState: 13, ForwardLaneImagerStatus: 9)
 (1667268543.344339)  vcan0  00F02BFE   [8]  01 5B 19 74 D3 88 C9 2D :: CN(CrashType: 5 bit-mapped, CrashCounter: 13 count, CrashChecksum: 2 count)
 (1667268544.344488)  vcan0  18FE94FE   [8]  8B 96 33 02 0C AC 6C 41 :: EAC(EngineAuxiliaryCoolantPressure: 556 kPa, EngnAxlrClntTmprtr: 110 degC, SeaWaterPumpOutletPressure: 102 kPa, EngnClntPrssr1ExtnddRng: 8 kPa, EngnClntPrssr2ExtnddRng: 48 kPa, EngnClntPmpClntOtltPrssr: 344 kPa)
 (1667268545.344605)  vcan0  18FEAEFE   [8]  94 61 41 14 15 24 E6 35 :: AIR1(PneumaticSupplyPressure: 1184 kPa, ParkingandorTrailerAirPressure: 776 kPa, ServiceBrakeCircuit1AirPressure: 520 kPa, ServiceBrakeCircuit2AirPressure: 160 kPa, AxlrEqpmntSpplPrssr: 168 kPa, AirSuspensionSupplyPressure: 288 kPa, AirCompressorStatus: 2, PwrtrnCrtArSpplPrssr: 424 kPa)
 (1667268546.344891)  vcan0  18FEADFE   [8]  7E 04 41 6A 02 17 E5 19 :: EBC3(BApptPssHRFtAxLtW: 630 kPa, BApptPssHRFtAxRtW: 20 kPa, BApptPssHRRAx1LtW: 325 kPa, BApptPssHRRAx1RtW: 530 kPa, BApptPssHRRAx2LtW: 10 kPa, BApptPssHRRAx2RtW: 115 kPa, BApptPssHRRAx3LtW: 1145 kPa, BApptPssHRRAx3RtW: 125 kPa)
 (1667268547.345420)  vcan0  18FE4EFE   [8]  3D E4 31 0C 06 40 1D 18 :: DC1(Positionofdoors: 13, RampWheelChairLiftPosition: 3, Status2ofdoors: 0)
 (1667268548.345543)  vcan0  18FE97FE   [8]  7C 69 45 35 FD 41 E2 47 :: TCI5(EngnTrhrgr1TrnOtltTmprtr: 570.875 degC, EngnTrhrgr2TrnOtltTmprtr: 153.15625 degC, EngnTrhrgr3TrnOtltTmprtr: 254.90625 degC, EngnTrhrgr4TrnOtltTmprtr: 302.0625 degC)
 (1667268549.346310)  vcan0  18FE54FE   [8]  11 40 74 06 FC 72 E6 73 :: ECT1(ELwLtTsdMxRPME: 544 rpm, EHLtTsdMCtsERPM: 2048 rpm, ELwLtTsdMxTqE: -9 %, EHLtTsdMCtsTqE: -119 %, EngineMaximumContinuousRPM: 8064 rpm, EngineMinimumContinuousRPM: 3648 rpm, EngineMaximumContinuousTorque: 105 %, EngineMinimumContinuousTorque: -10 %)
 (1667268550.346959)  vcan0  18FE9DFE   [8]  38 22 F9 6F B3 68 F7 47 :: MBT2(EngineMainBearing5Temperature: 0.75 degC, EngineMainBearing6Temperature: 622.78125 degC, EngineMainBearing7Temperature: 564.59375 degC, EngineMainBearing8Temperature: 302.71875 degC)
 (1667268663.426202)  vcan0  0CF003FE   [8]  82 60 F3 20 9B B3 E1 7B :: EEC2(AcceleratorPedal1LowIdleSwitch: 2, AcceleratorPedalKickdownSwitch: 0, RoadSpeedLimitStatus: 0, AcceleratorPedal2LowIdleSwitch: 2, AcceleratorPedalPosition1: 38.400000000000006 %, EnginePercentLoadAtCurrentSpeed: 243 %, RemoteAcceleratorPedalPosition: 12.8 %, AcceleratorPedal2Position: 62.0 %, VhlAlrtnRtLmtStts: 3, MmntrEngnMxmmPwrEnlFdk: 0, DPFThermalManagementActive: 3, SCRThermalManagementActive: 2, AtlMxmmAvllEngnPrntTrq: 90.0 %, EstimatedPumpingPercentTorque: -2 %)
 (1667268664.426394)  vcan0  0CF00DFE   [8]  2D 81 E8 70 EC 5E 87 01 :: LOI(BladeControlModeSwitch: 13, DesiredGradeOffsetSwitch: 2, BladeAutoModeCommand: 1, LftBldCntrlMdOprtrCntrl: 8, RghtBldCntrlMdOprtrCntrl: 8, LftDsrdBldOffstOprtrCntrl: 14, RghtDsrdBldOffstOprtrCntrl: 0, SdshftBldCntrlMdOprtrCntrl: 7, SdshftDsrdBldOffstOprtrCntrl: 12, StElvtnSnsr1RfrnElvtn: 2, StElvtnSnsr2RfrnElvtn: 3)
 (1667268665.426983)  vcan0  0CF013FE   [8]  8C 44 E2 02 E6 D2 4D 5D :: SSI(PitchAngle: -28.903999999999996 deg, RollAngle: -62.524 deg, PitchRate: 43.980000000000004 deg/s, PitchAngleFigureofMerit: 1, RollAngleFigureofMerit: 3, PitchRateFigureofMerit: 0, PitchandRollCompensated: 1, RollandPitchMeasurementLatency: 46.5 ms)
 (1667268666.427330)  vcan0  0C1CFEFE   [8]  86 B8 44 11 49 85 61 5A :: TC3(TransmissionOverrideControlMode: 2, TrnsmssnOvrrdCntrlMdPrrt: 1, MessageCounter: 8 count, TrnsmssnRqstdOtptShftSpd: -3633.75 rpm, TrnsmssnRqstdTrqTrqLmt: -108 %, MessageChecksum: 90 count)
 (1667268667.427670)  vcan0  18FE6BFE   [8]  A4 C8 9F 56 C1 9A 73 00 :: DI(Driver1identification: 164 ASCII, Driver2identification: 200 ASCII)
 (1667268668.428145)  vcan0  18FE68FE   [8]  3B 0F 18 77 47 33 15 7E :: VF(HydraulicTemperature: 19 degC, HdrlOlFltrRstrtnSwth: 3, WinchOilPressureSwitch: 3, HydraulicOilLevel: 9.600000000000001 %)
 (1667268669.428536)  vcan0  0CF002FE   [8]  AC F1 55 15 46 4B F2 3C :: ETC1(TransmissionDrivelineEngaged: 0, TrnsmssnTrqCnvrtrLkpEnggd: 3, TransmissionShiftInProcess: 2, TrnsmssnTrqCnvrtrLkpTrnstnnPrss: 2, Transmission1OutputShaftSpeed: 2750.125 rpm, PercentClutchSlip: 8.4 %, EngineMomentaryOverspeedEnable: 2, ProgressiveShiftDisable: 1, MmntrEngnMxmmPwrEnl: 0, Transmission1InputShaftSpeed: 7753.375 rpm, SAddssCtDvTsssCt: 60 SA)
 (1667268670.428628)  vcan0  18FE6AFE   [8]  C9 B1 3F 2B C6 D2 15 7B :: EFS(EngineOilLevelRemoteReservoir: 80.4 %, EngnFlSpplPmpIntkAsltPrssr: 354 kPa, EngnFlFltrstnsdDffrntlPrssr: 126 kPa, EngineWasteOilReservoirLevel: 17.2 %, EngineOilFilterOutletPressure: 792 kPa, EngineOilPrimingPumpSwitch: 2, EngineOilPrimingState: 0, EngineOilPreHeatedState: 1, EngineCoolantPreheatedState: 3, EngineVentilationStatus: 5, FuelPumpPrimerStatus: 2, EngnFlSpplPmpIntkPrssr: 246 kPa)
 (1667268671.429339)  vcan0  0CF003FE   [8]  62 2E 45 25 FA 04 64 45 :: EEC2(AcceleratorPedal1LowIdleSwitch: 2, AcceleratorPedalKickdownSwitch: 0, RoadSpeedLimitStatus: 2, AcceleratorPedal2LowIdleSwitch: 1, AcceleratorPedalPosition1: 18.400000000000002 %, EnginePercentLoadAtCurrentSpeed: 69 %, RemoteAcceleratorPedalPosition: 14.8 %, AcceleratorPedal2Position: 100.0 %, VhlAlrtnRtLmtStts: 0, MmntrEngnMxmmPwrEnlFdk: 1, DPFThermalManagementActive: 0, SCRThermalManagementActive: 0, AtlMxmmAvllEngnPrntTrq: 40.0 %, EstimatedPumpingPercentTorque: -56 %)
 (1667268672.429591)  vcan0  08F02CFE   [8]  8C C3 45 28 F1 65 81 45 :: MSI2(MagnetForwardCurrent: 50060 A, MagnetReverseCurrent: 69 A, MaterialLiftSwitch: 0, MaterialDropSwitch: 2, GnrtrCrrntBstAtvStts: 2, MaterialLiftActiveStatus: 0, MaterialDropActiveStatus: 1, LiftRelayControl: 0, DropRelayControl: 3, MagnetGeneratorControl: 3)
 (1667268673.430155)  vcan0  18FE96FE   [8]  74 AE 63 1A 73 C6 74 66 :: TCW(EngnTrhrgrWstgtAttr1Pstn: 46.400000000000006 %, EngnTrhrgrWstgtAttr2Pstn: 69.60000000000001 %, EngnTrhrgrWstgtAttr3Pstn: 39.6 %, EngnTrhrgrWstgtAttr4Pstn: 10.4 %, EngnTrhrgrWstgtAttrCntrlArPrssr: 460 kPa, EngnTrhrgrWstgtAttr1DsrdPstn: 79.2 %, EngnTrhrgrWstgtAttr1PrlmnrFMI: 20 binary, EngnTrhrgrWstgtAttr1TmprtrStts: 3, EngnTrhrgrWstgtAttr2DsrdPstn: 40.800000000000004 %)
 (1667268674.430389)  vcan0  18FE51FE   [8]  C0 62 41 5D A1 47 5D 57 :: ACC2(ACCusagedemand: 0, RequestedACCDistanceMode: 6)
 (1667268675.430665)  vcan0  18FE4CFE   [8]  BD 61 E1 44 2D 8C 3F 5A :: ML(RearBlackOutMarkerSelect: 1, FrontBlackOutMarkerLampSelect: 3, ConvoyLampSelect: 3, ConvoyDrivingLampSelect: 2, BlackOutBrakeStopLampSelect: 3, NightVisionIlluminatorSelect: 0, BlackOutWorkLampSelect: 1, OprtrsBlkOtIntnstSltn: 36.0 %)
 (1667268676.431539)  vcan0  18FE8FFE   [8]  AE 76 65 62 B4 44 84 6B :: SP2(EngnExtrnlShtdwnArSpplPrssr: 15191.0 kPa)
 (1667268677.432537)  vcan0  08F02DFE   [8]  45 40 BE 1E 58 0D 24 42 :: ACCS(LtrlAlrtnExtnddRng: -155.47 m/(s*s), LngtdnlAlrtnExtnddRng: -241.3 m/(s*s), VrtlAlrtnExtnddRng: -285.84 m/(s*s), LtrlAlrtnFgrfMrtExtnddRng: 0, LngtdnlAlrtnFgrfMrtExtnddRng: 1, VrtlAlrtnFgrfMrtExtnddRng: 2, SpptVTsssRpttRtAtSs: 0)
 (1667268678.432592)  vcan0  0CD1FEFE   [8]  B8 2F A8 41 93 1C 3C 39 :: ASC6(LevelPresetFrontAxleLeft: -1978.3999999999999 mm, LevelPresetFrontAxleRight: -1519.1999999999998 mm, LevelPresetRearAxleLeft: -2468.5 mm, LevelPresetRearAxleRight: -1734.8 mm)
 (1667268679.433348)  vcan0  0C09FEFE   [8]  1F 88 A0 39 3F 0E 92 4E :: SRASI(StaticRollAngle: -94 deg, StaticRollAngleStatus: 0)
 (1667268680.433731)  vcan0  18FE4AFE   [8]  A4 50 59 63 08 C0 D1 79 :: ETC7(TrnsmssnCrrntRngDsplBlnkStt: 0, TransmissionServiceIndicator: 1, TrnsmssnRqstdRngDsplBlnkStt: 2, TrnsmssnRqstdRngDsplFlshStt: 2, TrnsmssnRdfrBrkRls: 0, ActiveShiftConsoleIndicator: 0, TransmissionEngineCrankEnable: 1, TrnsmssnShftInhtIndtr: 1, TransmissionMode4Indicator: 1, TransmissionMode3Indicator: 2, TransmissionMode2Indicator: 1, TransmissionMode1Indicator: 1, TrnsmssnRqstdGrFdk: -26 gear value, TransmissionMode5Indicator: 0, TransmissionMode6Indicator: 2, TransmissionMode7Indicator: 0, TransmissionMode8Indicator: 0, TrnsmssnRvrsGrShftInhtStts: 0, TransmissionWarningIndicator: 0, TransmissionMode9Indicator: 0, TransmissionMode10Indicator: 3, TrnsmssnArSpplPrssrIndtr: 1, TrnsmssnAtNtrlMnlRtrnStt: 2, TransmissionManualModeIndicator: 3)
 (1667268681.434144)  vcan0  0C00FEFE   [8]  CC EE B9 4C 6B EE 16 1F :: TSC1(EngineOverrideControlMode: 0, EngnRqstdSpdCntrlCndtns: 3, OverrideControlModePriority: 0, EngineRequestedSpeedSpeedLimit: 5949.75 rpm, EngnRqstdTrqTrqLmt: -49 %, TSC1TransmissionRate: 3, TSC1ControlPurpose: 13, EngineRequestedTorqueFractional: 1.75 %, MessageCounter: 15 count, MessageChecksum: 1 count)
 (1667268682.434401)  vcan0  0C1DFEFE   [8]  DF 13 1F 0F F7 B1 5C 47 :: EIC(EngineTimingAdvance: -160.2578125 deg)
 (1667268683.434646)  vcan0  08F02CFE   [8]  AC 20 B6 7B 6B 60 C0 61 :: MSI2(MagnetForwardCurrent: 8364 A, MagnetReverseCurrent: 182 A, MaterialLiftSwitch: 3, MaterialDropSwitch: 2, GnrtrCrrntBstAtvStts: 3, MaterialLiftActiveStatus: 1, MaterialDropActiveStatus: 3, LiftRelayControl: 2, DropRelayControl: 2, MagnetGeneratorControl: 1)
 (1667268684.434883)  vcan0  08FE6EFE   [8]  15 E1 2E 64 2B C3 01 3F :: HRW(FrontAxleLeftWheelSpeed: 225.08203125 km/h, Frontaxlerightwheelspeed: 100.1796875 km/h, Rearaxleleftwheelspeed: 195.16796875 km/h, Rearaxlerightwheelspeed: 63.00390625 km/h)
 (1667268685.435568)  vcan0  18FE70FE   [8]  69 00 2F 4E E8 24 E3 03 :: CVW(PoweredVehicleWeight: 1050 kg, GrossCombinationVehicleWeight: 200150 kg)
 (1667268686.436115)  vcan0  18FEA0FE   [8]  A4 F2 7C 15 96 9B 48 66 :: EPT4(EngnExhstGsPrt13Tmprtr: 1668.125 degC, EngnExhstGsPrt14Tmprtr: -101.125 degC, EngnExhstGsPrt15Tmprtr: 971.6875 degC, EngnExhstGsPrt16Tmprtr: 545.25 degC)
 (1667268687.436464)  vcan0  18FEAEFE   [8]  28 6A 2C 37 DB DB 06 05 :: AIR1(PneumaticSupplyPressure: 320 kPa, ParkingandorTrailerAirPressure: 848 kPa, ServiceBrakeCircuit1AirPressure: 352 kPa, ServiceBrakeCircuit2AirPressure: 440 kPa, AxlrEqpmntSpplPrssr: 1752 kPa, AirSuspensionSupplyPressure: 1752 kPa, AirCompressorStatus: 2, PwrtrnCrtArSpplPrssr: 40 kPa)
 (1667268669.428536)  vcan0  0CF002FE   [8]  AC F1 55 15 46 4B F2 3C :: ETC1(TransmissionDrivelineEngaged: 0, TrnsmssnTrqCnvrtrLkpEnggd: 3, TransmissionShiftInProcess: 2, TrnsmssnTrqCnvrtrLkpTrnstnnPrss: 2, Transmission1OutputShaftSpeed: 2750.125 rpm, PercentClutchSlip: 8.4 %, EngineMomentaryOverspeedEnable: 2, ProgressiveShiftDisable: 1, MmntrEngnMxmmPwrEnl: 0, Transmission1InputShaftSpeed: 7753.375 rpm, SAddssCtDvTsssCt: 60 SA)
 (1667268670.428628)  vcan0  18FE6AFE   [8]  C9 B1 3F 2B C6 D2 15 7B :: EFS(EngineOilLevelRemoteReservoir: 80.4 %, EngnFlSpplPmpIntkAsltPrssr: 354 kPa, EngnFlFltrstnsdDffrntlPrssr: 126 kPa, EngineWasteOilReservoirLevel: 17.2 %, EngineOilFilterOutletPressure: 792 kPa, EngineOilPrimingPumpSwitch: 2, EngineOilPrimingState: 0, EngineOilPreHeatedState: 1, EngineCoolantPreheatedState: 3, EngineVentilationStatus: 5, FuelPumpPrimerStatus: 2, EngnFlSpplPmpIntkPrssr: 246 kPa)
 (1667268671.429339)  vcan0  0CF003FE   [8]  62 2E 45 25 FA 04 64 45 :: EEC2(AcceleratorPedal1LowIdleSwitch: 2, AcceleratorPedalKickdownSwitch: 0, RoadSpeedLimitStatus: 2, AcceleratorPedal2LowIdleSwitch: 1, AcceleratorPedalPosition1: 18.400000000000002 %, EnginePercentLoadAtCurrentSpeed: 69 %, RemoteAcceleratorPedalPosition: 14.8 %, AcceleratorPedal2Position: 100.0 %, VhlAlrtnRtLmtStts: 0, MmntrEngnMxmmPwrEnlFdk: 1, DPFThermalManagementActive: 0, SCRThermalManagementActive: 0, AtlMxmmAvllEngnPrntTrq: 40.0 %, EstimatedPumpingPercentTorque: -56 %)
 (1667268672.429591)  vcan0  08F02CFE   [8]  8C C3 45 28 F1 65 81 45 :: MSI2(MagnetForwardCurrent: 50060 A, MagnetReverseCurrent: 69 A, MaterialLiftSwitch: 0, MaterialDropSwitch: 2, GnrtrCrrntBstAtvStts: 2, MaterialLiftActiveStatus: 0, MaterialDropActiveStatus: 1, LiftRelayControl: 0, DropRelayControl: 3, MagnetGeneratorControl: 3)
 (1667268673.430155)  vcan0  18FE96FE   [8]  74 AE 63 1A 73 C6 74 66 :: TCW(EngnTrhrgrWstgtAttr1Pstn: 46.400000000000006 %, EngnTrhrgrWstgtAttr2Pstn: 69.60000000000001 %, EngnTrhrgrWstgtAttr3Pstn: 39.6 %, EngnTrhrgrWstgtAttr4Pstn: 10.4 %, EngnTrhrgrWstgtAttrCntrlArPrssr: 460 kPa, EngnTrhrgrWstgtAttr1DsrdPstn: 79.2 %, EngnTrhrgrWstgtAttr1PrlmnrFMI: 20 binary, EngnTrhrgrWstgtAttr1TmprtrStts: 3, EngnTrhrgrWstgtAttr2DsrdPstn: 40.800000000000004 %)
 (1667268674.430389)  vcan0  18FE51FE   [8]  C0 62 41 5D A1 47 5D 57 :: ACC2(ACCusagedemand: 0, RequestedACCDistanceMode: 6)
 (1667268675.430665)  vcan0  18FE4CFE   [8]  BD 61 E1 44 2D 8C 3F 5A :: ML(RearBlackOutMarkerSelect: 1, FrontBlackOutMarkerLampSelect: 3, ConvoyLampSelect: 3, ConvoyDrivingLampSelect: 2, BlackOutBrakeStopLampSelect: 3, NightVisionIlluminatorSelect: 0, BlackOutWorkLampSelect: 1, OprtrsBlkOtIntnstSltn: 36.0 %)
 (1667268676.431539)  vcan0  18FE8FFE   [8]  AE 76 65 62 B4 44 84 6B :: SP2(EngnExtrnlShtdwnArSpplPrssr: 15191.0 kPa)
 (1667268677.432537)  vcan0  08F02DFE   [8]  45 40 BE 1E 58 0D 24 42 :: ACCS(LtrlAlrtnExtnddRng: -155.47 m/(s*s), LngtdnlAlrtnExtnddRng: -241.3 m/(s*s), VrtlAlrtnExtnddRng: -285.84 m/(s*s), LtrlAlrtnFgrfMrtExtnddRng: 0, LngtdnlAlrtnFgrfMrtExtnddRng: 1, VrtlAlrtnFgrfMrtExtnddRng: 2, SpptVTsssRpttRtAtSs: 0)
 (1667268678.432592)  vcan0  0CD1FEFE   [8]  B8 2F A8 41 93 1C 3C 39 :: ASC6(LevelPresetFrontAxleLeft: -1978.3999999999999 mm, LevelPresetFrontAxleRight: -1519.1999999999998 mm, LevelPresetRearAxleLeft: -2468.5 mm, LevelPresetRearAxleRight: -1734.8 mm)
 (1667268679.433348)  vcan0  0C09FEFE   [8]  1F 88 A0 39 3F 0E 92 4E :: SRASI(StaticRollAngle: -94 deg, StaticRollAngleStatus: 0)
 (1667268680.433731)  vcan0  18FE4AFE   [8]  A4 50 59 63 08 C0 D1 79 :: ETC7(TrnsmssnCrrntRngDsplBlnkStt: 0, TransmissionServiceIndicator: 1, TrnsmssnRqstdRngDsplBlnkStt: 2, TrnsmssnRqstdRngDsplFlshStt: 2, TrnsmssnRdfrBrkRls: 0, ActiveShiftConsoleIndicator: 0, TransmissionEngineCrankEnable: 1, TrnsmssnShftInhtIndtr: 1, TransmissionMode4Indicator: 1, TransmissionMode3Indicator: 2, TransmissionMode2Indicator: 1, TransmissionMode1Indicator: 1, TrnsmssnRqstdGrFdk: -26 gear value, TransmissionMode5Indicator: 0, TransmissionMode6Indicator: 2, TransmissionMode7Indicator: 0, TransmissionMode8Indicator: 0, TrnsmssnRvrsGrShftInhtStts: 0, TransmissionWarningIndicator: 0, TransmissionMode9Indicator: 0, TransmissionMode10Indicator: 3, TrnsmssnArSpplPrssrIndtr: 1, TrnsmssnAtNtrlMnlRtrnStt: 2, TransmissionManualModeIndicator: 3)
 (1667268681.434144)  vcan0  0C00FEFE   [8]  CC EE B9 4C 6B EE 16 1F :: TSC1(EngineOverrideControlMode: 0, EngnRqstdSpdCntrlCndtns: 3, OverrideControlModePriority: 0, EngineRequestedSpeedSpeedLimit: 5949.75 rpm, EngnRqstdTrqTrqLmt: -49 %, TSC1TransmissionRate: 3, TSC1ControlPurpose: 13, EngineRequestedTorqueFractional: 1.75 %, MessageCounter: 15 count, MessageChecksum: 1 count)
 (1667268682.434401)  vcan0  0C1DFEFE   [8]  DF 13 1F 0F F7 B1 5C 47 :: EIC(EngineTimingAdvance: -160.2578125 deg)
 (1667268683.434646)  vcan0  08F02CFE   [8]  AC 20 B6 7B 6B 60 C0 61 :: MSI2(MagnetForwardCurrent: 8364 A, MagnetReverseCurrent: 182 A, MaterialLiftSwitch: 3, MaterialDropSwitch: 2, GnrtrCrrntBstAtvStts: 3, MaterialLiftActiveStatus: 1, MaterialDropActiveStatus: 3, LiftRelayControl: 2, DropRelayControl: 2, MagnetGeneratorControl: 1)
 (1667268684.434883)  vcan0  08FE6EFE   [8]  15 E1 2E 64 2B C3 01 3F :: HRW(FrontAxleLeftWheelSpeed: 225.08203125 km/h, Frontaxlerightwheelspeed: 100.1796875 km/h, Rearaxleleftwheelspeed: 195.16796875 km/h, Rearaxlerightwheelspeed: 63.00390625 km/h)
 (1667268685.435568)  vcan0  18FE70FE   [8]  69 00 2F 4E E8 24 E3 03 :: CVW(PoweredVehicleWeight: 1050 kg, GrossCombinationVehicleWeight: 200150 kg)
 (1667268686.436115)  vcan0  18FEA0FE   [8]  A4 F2 7C 15 96 9B 48 66 :: EPT4(EngnExhstGsPrt13Tmprtr: 1668.125 degC, EngnExhstGsPrt14Tmprtr: -101.125 degC, EngnExhstGsPrt15Tmprtr: 971.6875 degC, EngnExhstGsPrt16Tmprtr: 545.25 degC)
 (1667268687.436464)  vcan0  18FEAEFE   [8]  28 6A 2C 37 DB DB 06 05 :: AIR1(PneumaticSupplyPressure: 320 kPa, ParkingandorTrailerAirPressure: 848 kPa, ServiceBrakeCircuit1AirPressure: 352 kPa, ServiceBrakeCircuit2AirPressure: 440 kPa, AxlrEqpmntSpplPrssr: 1752 kPa, AirSuspensionSupplyPressure: 1752 kPa, AirCompressorStatus: 2, PwrtrnCrtArSpplPrssr: 40 kPa)
 (1667268688.436991)  vcan0  18FE4AFE   [8]  6D 7C 4F 59 93 0B AF 46 :: ETC7(TrnsmssnCrrntRngDsplBlnkStt: 1, TransmissionServiceIndicator: 3, TrnsmssnRqstdRngDsplBlnkStt: 2, TrnsmssnRqstdRngDsplFlshStt: 1, TrnsmssnRdfrBrkRls: 0, ActiveShiftConsoleIndicator: 3, TransmissionEngineCrankEnable: 3, TrnsmssnShftInhtIndtr: 1, TransmissionMode4Indicator: 3, TransmissionMode3Indicator: 3, TransmissionMode2Indicator: 0, TransmissionMode1Indicator: 1, TrnsmssnRqstdGrFdk: -36 gear value, TransmissionMode5Indicator: 3, TransmissionMode6Indicator: 0, TransmissionMode7Indicator: 1, TransmissionMode8Indicator: 2, TrnsmssnRvrsGrShftInhtStts: 3, TransmissionWarningIndicator: 2, TransmissionMode9Indicator: 0, TransmissionMode10Indicator: 0, TrnsmssnArSpplPrssrIndtr: 7, TrnsmssnAtNtrlMnlRtrnStt: 5, TransmissionManualModeIndicator: 2)
 (1667268689.437701)  vcan0  0CD1FEFE   [8]  F9 C1 87 79 B2 93 4F 00 :: ASC6(LevelPresetFrontAxleLeft: 1765.7000000000007 mm, LevelPresetFrontAxleRight: -88.89999999999964 mm, LevelPresetRearAxleLeft: 581.0 mm, LevelPresetRearAxleRight: -3192.1 mm)
 (1667268690.437978)  vcan0  08F062FE   [8]  CB 52 B2 56 56 E4 A8 63 :: ETC12(TrnsmssnHdrsttLp1Prssr: 21195 kPa, TrnsmssnHdrsttLp2Prssr: 22194 kPa, TrnsmssnDrtnlOtptShftSpd: 26327 rpm, TrnsmssnIntrmdtShftSpd: 3189.0 rpm)
 (1667268691.438059)  vcan0  18FEC1FE   [8]  63 B6 F2 2E 22 D3 62 30 :: VDHR(TtlVhlDstnHghRsltn: 3938291695 m, TripDistanceHighResolution: 4058914730 m)
 (1667268692.438450)  vcan0  18FE51FE   [8]  F6 1E 97 4C 01 E7 81 3F :: ACC2(ACCusagedemand: 2, RequestedACCDistanceMode: 7)
 (1667268693.438883)  vcan0  18FED6FE   [8]  79 ED BC 2F AE 07 38 3B :: HSI1(HrdSstmPrttnOvrrdSwth: 1, HrdSstmPrplsnClntLvlSwth: 2, HrdSstmPwrEltrnsClntLvlSwth: 3, HrdSstmOffBrdChrgrCnntnStts: 1, HrdSstmRgnrtvBrkngDslSwth: 1, HrdSstmBrkPdlRgnrtvBrkngDslSwth: 3, HrdSstmPrplsnDslSwth: 2, HybridSystemShutdownSwitch: 3, HrdSstmCstngRgnrtvBrkngLvlSltr: 75.2 %, PwrEltrnsClntFllSwth: 3, PrplsnMtrClntFllSwth: 3)
 (1667268677.432537)  vcan0  08F02DFE   [8]  45 40 BE 1E 58 0D 24 42 :: ACCS(LtrlAlrtnExtnddRng: -155.47 m/(s*s), LngtdnlAlrtnExtnddRng: -241.3 m/(s*s), VrtlAlrtnExtnddRng: -285.84 m/(s*s), LtrlAlrtnFgrfMrtExtnddRng: 0, LngtdnlAlrtnFgrfMrtExtnddRng: 1, VrtlAlrtnFgrfMrtExtnddRng: 2, SpptVTsssRpttRtAtSs: 0)
 (1667268678.432592)  vcan0  0CD1FEFE   [8]  B8 2F A8 41 93 1C 3C 39 :: ASC6(LevelPresetFrontAxleLeft: -1978.3999999999999 mm, LevelPresetFrontAxleRight: -1519.1999999999998 mm, LevelPresetRearAxleLeft: -2468.5 mm, LevelPresetRearAxleRight: -1734.8 mm)
 (1667268679.433348)  vcan0  0C09FEFE   [8]  1F 88 A0 39 3F 0E 92 4E :: SRASI(StaticRollAngle: -94 deg, StaticRollAngleStatus: 0)
 (1667268680.433731)  vcan0  18FE4AFE   [8]  A4 50 59 63 08 C0 D1 79 :: ETC7(TrnsmssnCrrntRngDsplBlnkStt: 0, TransmissionServiceIndicator: 1, TrnsmssnRqstdRngDsplBlnkStt: 2, TrnsmssnRqstdRngDsplFlshStt: 2, TrnsmssnRdfrBrkRls: 0, ActiveShiftConsoleIndicator: 0, TransmissionEngineCrankEnable: 1, TrnsmssnShftInhtIndtr: 1, TransmissionMode4Indicator: 1, TransmissionMode3Indicator: 2, TransmissionMode2Indicator: 1, TransmissionMode1Indicator: 1, TrnsmssnRqstdGrFdk: -26 gear value, TransmissionMode5Indicator: 0, TransmissionMode6Indicator: 2, TransmissionMode7Indicator: 0, TransmissionMode8Indicator: 0, TrnsmssnRvrsGrShftInhtStts: 0, TransmissionWarningIndicator: 0, TransmissionMode9Indicator: 0, TransmissionMode10Indicator: 3, TrnsmssnArSpplPrssrIndtr: 1, TrnsmssnAtNtrlMnlRtrnStt: 2, TransmissionManualModeIndicator: 3)
 (1667268681.434144)  vcan0  0C00FEFE   [8]  CC EE B9 4C 6B EE 16 1F :: TSC1(EngineOverrideControlMode: 0, EngnRqstdSpdCntrlCndtns: 3, OverrideControlModePriority: 0, EngineRequestedSpeedSpeedLimit: 5949.75 rpm, EngnRqstdTrqTrqLmt: -49 %, TSC1TransmissionRate: 3, TSC1ControlPurpose: 13, EngineRequestedTorqueFractional: 1.75 %, MessageCounter: 15 count, MessageChecksum: 1 count)
 (1667268682.434401)  vcan0  0C1DFEFE   [8]  DF 13 1F 0F F7 B1 5C 47 :: EIC(EngineTimingAdvance: -160.2578125 deg)
 (1667268683.434646)  vcan0  08F02CFE   [8]  AC 20 B6 7B 6B 60 C0 61 :: MSI2(MagnetForwardCurrent: 8364 A, MagnetReverseCurrent: 182 A, MaterialLiftSwitch: 3, MaterialDropSwitch: 2, GnrtrCrrntBstAtvStts: 3, MaterialLiftActiveStatus: 1, MaterialDropActiveStatus: 3, LiftRelayControl: 2, DropRelayControl: 2, MagnetGeneratorControl: 1)
 (1667268684.434883)  vcan0  08FE6EFE   [8]  15 E1 2E 64 2B C3 01 3F :: HRW(FrontAxleLeftWheelSpeed: 225.08203125 km/h, Frontaxlerightwheelspeed: 100.1796875 km/h, Rearaxleleftwheelspeed: 195.16796875 km/h, Rearaxlerightwheelspeed: 63.00390625 km/h)
 (1667268685.435568)  vcan0  18FE70FE   [8]  69 00 2F 4E E8 24 E3 03 :: CVW(PoweredVehicleWeight: 1050 kg, GrossCombinationVehicleWeight: 200150 kg)
 (1667268686.436115)  vcan0  18FEA0FE   [8]  A4 F2 7C 15 96 9B 48 66 :: EPT4(EngnExhstGsPrt13Tmprtr: 1668.125 degC, EngnExhstGsPrt14Tmprtr: -101.125 degC, EngnExhstGsPrt15Tmprtr: 971.6875 degC, EngnExhstGsPrt16Tmprtr: 545.25 degC)
 (1667268687.436464)  vcan0  18FEAEFE   [8]  28 6A 2C 37 DB DB 06 05 :: AIR1(PneumaticSupplyPressure: 320 kPa, ParkingandorTrailerAirPressure: 848 kPa, ServiceBrakeCircuit1AirPressure: 352 kPa, ServiceBrakeCircuit2AirPressure: 440 kPa, AxlrEqpmntSpplPrssr: 1752 kPa, AirSuspensionSupplyPressure: 1752 kPa, AirCompressorStatus: 2, PwrtrnCrtArSpplPrssr: 40 kPa)
 (1667268688.436991)  vcan0  18FE4AFE   [8]  6D 7C 4F 59 93 0B AF 46 :: ETC7(TrnsmssnCrrntRngDsplBlnkStt: 1, TransmissionServiceIndicator: 3, TrnsmssnRqstdRngDsplBlnkStt: 2, TrnsmssnRqstdRngDsplFlshStt: 1, TrnsmssnRdfrBrkRls: 0, ActiveShiftConsoleIndicator: 3, TransmissionEngineCrankEnable: 3, TrnsmssnShftInhtIndtr: 1, TransmissionMode4Indicator: 3, TransmissionMode3Indicator: 3, TransmissionMode2Indicator: 0, TransmissionMode1Indicator: 1, TrnsmssnRqstdGrFdk: -36 gear value, TransmissionMode5Indicator: 3, TransmissionMode6Indicator: 0, TransmissionMode7Indicator: 1, TransmissionMode8Indicator: 2, TrnsmssnRvrsGrShftInhtStts: 3, TransmissionWarningIndicator: 2, TransmissionMode9Indicator: 0, TransmissionMode10Indicator: 0, TrnsmssnArSpplPrssrIndtr: 7, TrnsmssnAtNtrlMnlRtrnStt: 5, TransmissionManualModeIndicator: 2)
 (1667268689.437701)  vcan0  0CD1FEFE   [8]  F9 C1 87 79 B2 93 4F 00 :: ASC6(LevelPresetFrontAxleLeft: 1765.7000000000007 mm, LevelPresetFrontAxleRight: -88.89999999999964 mm, LevelPresetRearAxleLeft: 581.0 mm, LevelPresetRearAxleRight: -3192.1 mm)
 (1667268690.437978)  vcan0  08F062FE   [8]  CB 52 B2 56 56 E4 A8 63 :: ETC12(TrnsmssnHdrsttLp1Prssr: 21195 kPa, TrnsmssnHdrsttLp2Prssr: 22194 kPa, TrnsmssnDrtnlOtptShftSpd: 26327 rpm, TrnsmssnIntrmdtShftSpd: 3189.0 rpm)
 (1667268691.438059)  vcan0  18FEC1FE   [8]  63 B6 F2 2E 22 D3 62 30 :: VDHR(TtlVhlDstnHghRsltn: 3938291695 m, TripDistanceHighResolution: 4058914730 m)
 (1667268692.438450)  vcan0  18FE51FE   [8]  F6 1E 97 4C 01 E7 81 3F :: ACC2(ACCusagedemand: 2, RequestedACCDistanceMode: 7)
 (1667268693.438883)  vcan0  18FED6FE   [8]  79 ED BC 2F AE 07 38 3B :: HSI1(HrdSstmPrttnOvrrdSwth: 1, HrdSstmPrplsnClntLvlSwth: 2, HrdSstmPwrEltrnsClntLvlSwth: 3, HrdSstmOffBrdChrgrCnntnStts: 1, HrdSstmRgnrtvBrkngDslSwth: 1, HrdSstmBrkPdlRgnrtvBrkngDslSwth: 3, HrdSstmPrplsnDslSwth: 2, HybridSystemShutdownSwitch: 3, HrdSstmCstngRgnrtvBrkngLvlSltr: 75.2 %, PwrEltrnsClntFllSwth: 3, PrplsnMtrClntFllSwth: 3)
 (1667268694.439048)  vcan0  0CF00AFE   [8]  70 82 57 79 C3 E8 66 1F :: EGF1(EngnExhstGsRrltn1MssFlwRt: 1669.6000000000001 kg/h, EngineIntakeAirMassFlowRate: 1553.15 kg/h, EngnExhstGsRrltn2MssFlwRt: 2979.3500000000004 kg/h)
 (1667268695.439197)  vcan0  08F062FE   [8]  08 5F 4F 1A 2C E9 95 6D :: ETC12(TrnsmssnHdrsttLp1Prssr: 24328 kPa, TrnsmssnHdrsttLp2Prssr: 6735 kPa, TrnsmssnDrtnlOtptShftSpd: 27565 rpm, TrnsmssnIntrmdtShftSpd: 3506.625 rpm)
 (1667268696.439444)  vcan0  0C0AFEFE   [8]  CE C7 86 15 D0 DB 12 03 :: CCVS2(CruiseControlDisableCommand: 2, CruiseControlResumeCommand: 3, CruiseControlPauseCommand: 0, CruiseControlSetCommand: 3, IdleSpeedRequest: 4312.875 rpm, IdleControlEnableState: 1, IdleControlRequestActivation: 1, RemoteRoadSpeedLimitRequest: 208 km/h)
 (1667268697.440084)  vcan0  0C99FEFE   [8]  47 75 42 7C F8 45 3F 3A :: JLCM(Joystick1Lamp1Command: 3, Joystick1Lamp2Command: 1, Joystick1Lamp3Command: 0, Joystick1Lamp4Command: 1, Joystick1Lamp5Command: 1, Joystick1Lamp6Command: 1, Joystick1Lamp7Command: 3, Joystick1Lamp8Command: 1, Joystick1Lamp9Command: 2, Joystick1Lamp10Command: 0, Joystick2Lamp1Command: 0, Joystick2Lamp2Command: 1, Joystick2Lamp3Command: 0, Joystick2Lamp4Command: 3, Joystick2Lamp5Command: 3, Joystick2Lamp6Command: 1, Joystick2Lamp7Command: 0, Joystick2Lamp8Command: 2, Joystick2Lamp9Command: 3, Joystick2Lamp10Command: 3, Joystick3Lamp1Command: 1, Joystick3Lamp2Command: 1, Joystick3Lamp3Command: 0, Joystick3Lamp4Command: 1, Joystick3Lamp5Command: 3, Joystick3Lamp6Command: 3, Joystick3Lamp7Command: 3, Joystick3Lamp8Command: 0, Joystick3Lamp9Command: 2, Joystick3Lamp10Command: 2)
 (1667268698.440586)  vcan0  18FED6FE   [8]  19 30 22 25 65 C2 8E 13 :: HSI1(HrdSstmPrttnOvrrdSwth: 1, HrdSstmPrplsnClntLvlSwth: 2, HrdSstmPwrEltrnsClntLvlSwth: 1, HrdSstmOffBrdChrgrCnntnStts: 0, HrdSstmRgnrtvBrkngDslSwth: 0, HrdSstmBrkPdlRgnrtvBrkngDslSwth: 0, HrdSstmPrplsnDslSwth: 3, HybridSystemShutdownSwitch: 0, HrdSstmCstngRgnrtvBrkngLvlSltr: 13.600000000000001 %, PwrEltrnsClntFllSwth: 1, PrplsnMtrClntFllSwth: 1)
 (1667268699.441217)  vcan0  08F02CFE   [8]  7F 07 3E 07 5E 84 16 0D :: MSI2(MagnetForwardCurrent: 1919 A, MagnetReverseCurrent: 62 A, MaterialLiftSwitch: 3, MaterialDropSwitch: 1, GnrtrCrrntBstAtvStts: 0, MaterialLiftActiveStatus: 0, MaterialDropActiveStatus: 2, LiftRelayControl: 3, DropRelayControl: 1, MagnetGeneratorControl: 1)
 (1667268700.442184)  vcan0  18FE4EFE   [8]  24 ED EB 37 29 D7 C8 63 :: DC1(Positionofdoors: 4, RampWheelChairLiftPosition: 2, Status2ofdoors: 0)
 (1667268701.442256)  vcan0  18FEC0FE   [8]  D1 92 6B 62 8D 8D BB 12 :: SERV(ServiceComponentIdentificationA: 209 ID, ServiceDistance: -22945 km, ServiceComponentIdentificationB: 98 ID, ServiceDelayCalendarTimeBased: 16 weeks, ServiceComponentIdentificationC: 141 ID, SrvDlOprtnlTmBsd: -27332 h)
 (1667268750.472439)  vcan0  18FE4EFE   [8]  BD 43 FA 4F B4 18 9F 07 :: DC1(Positionofdoors: 13, RampWheelChairLiftPosition: 3, Status2ofdoors: 2)
 (1667268751.472845)  vcan0  18FE52FE   [8]  24 68 43 3A 26 CA AF 2F :: VEP3(AltrntrCrrntHghRngRsltn: -267.0 A, SLIBttr1NtCrrntHghRngRsltn: -854.25 A, SLIBattery2NetCurrent: 987.5 A)
 (1667268752.473203)  vcan0  18FE4CFE   [8]  3D F7 0A 59 70 B4 B9 16 :: ML(RearBlackOutMarkerSelect: 1, FrontBlackOutMarkerLampSelect: 3, ConvoyLampSelect: 3, ConvoyDrivingLampSelect: 0, BlackOutBrakeStopLampSelect: 0, NightVisionIlluminatorSelect: 1, BlackOutWorkLampSelect: 1, OprtrsBlkOtIntnstSltn: 8.8 %)
 (1667268753.473612)  vcan0  0CF016FE   [8]  42 B2 5D 7E 96 7E A5 07 :: CCS(EngineCylinder1CombustionStatus: 2, EngineCylinder2CombustionStatus: 0, EngineCylinder3CombustionStatus: 0, EngineCylinder4CombustionStatus: 1, EngineCylinder5CombustionStatus: 2, EngineCylinder6CombustionStatus: 0, EngineCylinder7CombustionStatus: 3, EngineCylinder8CombustionStatus: 2, EngineCylinder9CombustionStatus: 1, EngnClndr10CmstnStts: 3, EngnClndr11CmstnStts: 1, EngnClndr12CmstnStts: 1, EngnClndr13CmstnStts: 2, EngnClndr14CmstnStts: 3, EngnClndr15CmstnStts: 3, EngnClndr16CmstnStts: 1, EngnClndr17CmstnStts: 2, EngnClndr18CmstnStts: 1, EngnClndr19CmstnStts: 1, EngnClndr20CmstnStts: 2, EngnClndr21CmstnStts: 2, EngnClndr22CmstnStts: 3, EngnClndr23CmstnStts: 3, EngnClndr24CmstnStts: 1)
 (1667268754.474002)  vcan0  18FE54FE   [8]  91 F1 BF 33 59 EC 8F 73 :: ECT1(ELwLtTsdMxRPME: 4640 rpm, EHLtTsdMCtsERPM: 7712 rpm, ELwLtTsdMxTqE: 66 %, EHLtTsdMCtsTqE: -74 %, EngineMaximumContinuousRPM: 2848 rpm, EngineMinimumContinuousRPM: 7552 rpm, EngineMaximumContinuousTorque: 18 %, EngineMinimumContinuousTorque: -10 %)
 (1667268755.474165)  vcan0  18FED5FE   [8]  A8 3E 3D 49 A5 29 76 68 :: AS(AlternatorSpeed: 8020.0 rpm, Alternator1Status: 1, Alternator2Status: 3, Alternator3Status: 3, Alternator4Status: 0)
 (1667268756.474783)  vcan0  18FE9DFE   [8]  94 70 CF 5D C4 FE 48 27 :: MBT2(EngineMainBearing5Temperature: 627.625 degC, EngineMainBearing6Temperature: 477.46875 degC, EngineMainBearing7Temperature: 1765.125 degC, EngineMainBearing8Temperature: 41.25 degC)
 (1667268757.475192)  vcan0  18FED5FE   [8]  64 27 15 02 B9 ED 95 27 :: AS(AlternatorSpeed: 5042.0 rpm, Alternator1Status: 1, Alternator2Status: 1, Alternator3Status: 1, Alternator4Status: 0)
 (1667268758.475463)  vcan0  18FE69FE   [8]  6C 0F 8F 70 6E 2B 43 1E :: ET3(EngnIntkMnfld1TmprtrHghRsltn: -149.625 degC, EngnClntTmprtrHghRsltn: 627.46875 degC, EngnIntkVlvAttnSstmOlTmprtr: 74.4375 degC, EngnChrgArClr1OtltTmprtr: -30.90625 degC)
 (1667268759.475622)  vcan0  18FE4FFE   [8]  D5 99 1F 42 DD DE 8A 3E :: VDC1(VDCInformationSignal: 1, VDCFullyOperational: 1, VDCbrakelightrequest: 1, ROPEngineControlactive: 1, ROPBrakeControlactive: 2, YCEngineControlactive: 1, YCBrakeControlactive: 2, TrailerVDCActive: 3)
 (1667268760.475920)  vcan0  18FEC0FE   [8]  3A E5 AC 47 9A 22 85 0E :: SERV(ServiceComponentIdentificationA: 58 ID, ServiceDistance: 60670 km, ServiceComponentIdentificationB: 71 ID, ServiceDelayCalendarTimeBased: 29 weeks, ServiceComponentIdentificationC: 34 ID, SrvDlOprtnlTmBsd: -28410 h)
 (1667268761.476687)  vcan0  0C1BFEFE   [8]  D3 AD 00 6B BE 8A C8 48 :: HVES1C1(HVES1HghVltgBsCnntCmmnd: 3, HVES1PowerDownCommand: 0, HVES1HghVltgBsAtvIsltnTstCmmnd: 1, HVES1HghVltgBsPssvIsltnTstCmmnd: 3, HVES1CellBalancingCommand: 1, HVES1EnlIntrnlChrgrCmmnd: 3, HVES1OperationConsent: 2, HVES1HVtBsHSdRsstCtRqst: 2, HVES1HghVltgBsLwSdRsstrCnntRqst: 0)
 (1667268762.477107)  vcan0  18FE4FFE   [8]  B7 2A 94 47 FB 81 D3 21 :: VDC1(VDCInformationSignal: 3, VDCFullyOperational: 1, VDCbrakelightrequest: 3, ROPEngineControlactive: 2, ROPBrakeControlactive: 2, YCEngineControlactive: 2, YCBrakeControlactive: 0, TrailerVDCActive: 0)
 (1667268763.478180)  vcan0  18FE6BFE   [8]  F8 7D C7 25 3D 34 31 20 :: DI(Driver1identification: 248 ASCII, Driver2identification: 125 ASCII)
 (1667268764.478601)  vcan0  0C09FEFE   [8]  A3 4B 1B 22 CE 25 F1 53 :: SRASI(StaticRollAngle: 38 deg, StaticRollAngleStatus: 3)
 (1667268765.478866)  vcan0  18FE4EFE   [8]  C2 BD 5F 11 76 64 2E 1D :: DC1(Positionofdoors: 2, RampWheelChairLiftPosition: 0, Status2ofdoors: 3)
 (1667268766.478991)  vcan0  0C08FEFE   [8]  C5 9B 8C 14 0B D5 FD 7A :: AUXIO5(AuxiliaryIOChannel6: 39877 count, AuxiliaryIOChannel5: 5260 count, AuxiliaryIOChannel4: 54539 count, AuxiliaryIOChannel3: 31485 count)
 (1667268767.479340)  vcan0  18FED6FE   [8]  14 DF F7 0D 6F FC 12 7D :: HSI1(HrdSstmPrttnOvrrdSwth: 0, HrdSstmPrplsnClntLvlSwth: 1, HrdSstmPwrEltrnsClntLvlSwth: 1, HrdSstmOffBrdChrgrCnntnStts: 0, HrdSstmRgnrtvBrkngDslSwth: 3, HrdSstmBrkPdlRgnrtvBrkngDslSwth: 3, HrdSstmPrplsnDslSwth: 1, HybridSystemShutdownSwitch: 3, HrdSstmCstngRgnrtvBrkngLvlSltr: 98.80000000000001 %, PwrEltrnsClntFllSwth: 1, PrplsnMtrClntFllSwth: 3)
 (1667268768.479464)  vcan0  0CF003FE   [8]  38 53 83 2D DB 0B A2 6D :: EEC2(AcceleratorPedal1LowIdleSwitch: 0, AcceleratorPedalKickdownSwitch: 2, RoadSpeedLimitStatus: 3, AcceleratorPedal2LowIdleSwitch: 0, AcceleratorPedalPosition1: 33.2 %, EnginePercentLoadAtCurrentSpeed: 131 %, RemoteAcceleratorPedalPosition: 18.0 %, AcceleratorPedal2Position: 87.60000000000001 %, VhlAlrtnRtLmtStts: 3, MmntrEngnMxmmPwrEnlFdk: 2, DPFThermalManagementActive: 0, SCRThermalManagementActive: 0, AtlMxmmAvllEngnPrntTrq: 64.8 %, EstimatedPumpingPercentTorque: -16 %)
 (1667268769.479776)  vcan0  18FE6BFE   [8]  DF 6B A2 2F B0 A5 C1 2F :: DI(Driver1identification: 223 ASCII, Driver2identification: 107 ASCII)
 (1667268770.479848)  vcan0  0C1EFEFE   [8]  9B 56 20 70 EB 8A 6E 77 :: ALTC(AltrntrStpntVltgCmmnd: 22.171 V, AltrntrExttnMxmmCrrntLmt: 8.0 A, AlternatorTorqueRampTimeCommand: 11.200000000000001 s, AltrntrTrqRmpMxmmSpdCmmnd: 7520 rpm)
 (1667268771.479959)  vcan0  0CF013FE   [8]  0B 5A 3D 38 BE 38 6F 62 :: SSI(PitchAngle: -17.897999999999996 deg, RollAngle: -35.206 deg, PitchRate: -34.948 deg/s, PitchAngleFigureofMerit: 3, RollAngleFigureofMerit: 3, PitchRateFigureofMerit: 2, PitchandRollCompensated: 1, RollandPitchMeasurementLatency: 49.0 ms)
 (1667268772.480412)  vcan0  18FE90FE   [8]  A2 27 0A 30 76 63 03 2A :: unpack requires at least 264 bits to unpack (got 64)
 (1667268773.480693)  vcan0  18FEA4FE   [8]  A8 A9 90 3E 6E E1 CA 4F :: ET2(EngineOilTemperature2: 1084.25 degC, EngineECUTemperature: 227.5 degC, EngnExhstGsRrltn1DffrntlPrssr: 200.859375 kPa, EngnExhstGsRrltn1Tmprtr: 365.3125 degC)
 (1667268774.481354)  vcan0  0C1EFEFE   [8]  45 AA BC 54 11 2D E6 71 :: ALTC(AltrntrStpntVltgCmmnd: 43.589 V, AltrntrExttnMxmmCrrntLmt: 47.0 A, AlternatorTorqueRampTimeCommand: 8.4 s, AltrntrTrqRmpMxmmSpdCmmnd: 544 rpm)
 (1667268775.482609)  vcan0  0CF018FE   [8]  3A 97 78 5E D3 EA 45 03 :: KL2(EngineCylinder9KnockLevel: 58 %, EngineCylinder10KnockLevel: 151 %, EngineCylinder11KnockLevel: 120 %, EngineCylinder12KnockLevel: 94 %, EngineCylinder13KnockLevel: 211 %, EngineCylinder14KnockLevel: 234 %, EngineCylinder15KnockLevel: 69 %, EngineCylinder16KnockLevel: 3 %)
 (1667268776.483293)  vcan0  18FEADFE   [8]  D5 AD AA 50 99 86 D2 17 :: EBC3(BApptPssHRFtAxLtW: 1065 kPa, BApptPssHRFtAxRtW: 865 kPa, BApptPssHRRAx1LtW: 850 kPa, BApptPssHRRAx1RtW: 400 kPa, BApptPssHRRAx2LtW: 765 kPa, BApptPssHRRAx2RtW: 670 kPa, BApptPssHRRAx3LtW: 1050 kPa, BApptPssHRRAx3RtW: 115 kPa)
 (1667268777.484211)  vcan0  08F02CFE   [8]  35 C3 25 6A AD 65 CA 25 :: MSI2(MagnetForwardCurrent: 49973 A, MagnetReverseCurrent: 37 A, MaterialLiftSwitch: 2, MaterialDropSwitch: 2, GnrtrCrrntBstAtvStts: 2, MaterialLiftActiveStatus: 1, MaterialDropActiveStatus: 1, LiftRelayControl: 3, DropRelayControl: 2, MagnetGeneratorControl: 2)
 (1667268778.485281)  vcan0  18FE9CFE   [8]  4D C6 36 2B E5 B8 4D 53 :: MBT3(EngineMainBearing9Temperature: 1313.40625 degC, EngineMainBearing10Temperature: 72.6875 degC, EngineMainBearing11Temperature: 1206.15625 degC, EngineMainBearing12Temperature: 393.40625 degC)
 (1667268754.474002)  vcan0  18FE54FE   [8]  91 F1 BF 33 59 EC 8F 73 :: ECT1(ELwLtTsdMxRPME: 4640 rpm, EHLtTsdMCtsERPM: 7712 rpm, ELwLtTsdMxTqE: 66 %, EHLtTsdMCtsTqE: -74 %, EngineMaximumContinuousRPM: 2848 rpm, EngineMinimumContinuousRPM: 7552 rpm, EngineMaximumContinuousTorque: 18 %, EngineMinimumContinuousTorque: -10 %)
 (1667268755.474165)  vcan0  18FED5FE   [8]  A8 3E 3D 49 A5 29 76 68 :: AS(AlternatorSpeed: 8020.0 rpm, Alternator1Status: 1, Alternator2Status: 3, Alternator3Status: 3, Alternator4Status: 0)
 (1667268756.474783)  vcan0  18FE9DFE   [8]  94 70 CF 5D C4 FE 48 27 :: MBT2(EngineMainBearing5Temperature: 627.625 degC, EngineMainBearing6Temperature: 477.46875 degC, EngineMainBearing7Temperature: 1765.125 degC, EngineMainBearing8Temperature: 41.25 degC)
 (1667268757.475192)  vcan0  18FED5FE   [8]  64 27 15 02 B9 ED 95 27 :: AS(AlternatorSpeed: 5042.0 rpm, Alternator1Status: 1, Alternator2Status: 1, Alternator3Status: 1, Alternator4Status: 0)
 (1667268758.475463)  vcan0  18FE69FE   [8]  6C 0F 8F 70 6E 2B 43 1E :: ET3(EngnIntkMnfld1TmprtrHghRsltn: -149.625 degC, EngnClntTmprtrHghRsltn: 627.46875 degC, EngnIntkVlvAttnSstmOlTmprtr: 74.4375 degC, EngnChrgArClr1OtltTmprtr: -30.90625 degC)
 (1667268759.475622)  vcan0  18FE4FFE   [8]  D5 99 1F 42 DD DE 8A 3E :: VDC1(VDCInformationSignal: 1, VDCFullyOperational: 1, VDCbrakelightrequest: 1, ROPEngineControlactive: 1, ROPBrakeControlactive: 2, YCEngineControlactive: 1, YCBrakeControlactive: 2, TrailerVDCActive: 3)
 (1667268760.475920)  vcan0  18FEC0FE   [8]  3A E5 AC 47 9A 22 85 0E :: SERV(ServiceComponentIdentificationA: 58 ID, ServiceDistance: 60670 km, ServiceComponentIdentificationB: 71 ID, ServiceDelayCalendarTimeBased: 29 weeks, ServiceComponentIdentificationC: 34 ID, SrvDlOprtnlTmBsd: -28410 h)
 (1667268761.476687)  vcan0  0C1BFEFE   [8]  D3 AD 00 6B BE 8A C8 48 :: HVES1C1(HVES1HghVltgBsCnntCmmnd: 3, HVES1PowerDownCommand: 0, HVES1HghVltgBsAtvIsltnTstCmmnd: 1, HVES1HghVltgBsPssvIsltnTstCmmnd: 3, HVES1CellBalancingCommand: 1, HVES1EnlIntrnlChrgrCmmnd: 3, HVES1OperationConsent: 2, HVES1HVtBsHSdRsstCtRqst: 2, HVES1HghVltgBsLwSdRsstrCnntRqst: 0)
 (1667268762.477107)  vcan0  18FE4FFE   [8]  B7 2A 94 47 FB 81 D3 21 :: VDC1(VDCInformationSignal: 3, VDCFullyOperational: 1, VDCbrakelightrequest: 3, ROPEngineControlactive: 2, ROPBrakeControlactive: 2, YCEngineControlactive: 2, YCBrakeControlactive: 0, TrailerVDCActive: 0)
 (1667268763.478180)  vcan0  18FE6BFE   [8]  F8 7D C7 25 3D 34 31 20 :: DI(Driver1identification: 248 ASCII, Driver2identification: 125 ASCII)
 (1667268764.478601)  vcan0  0C09FEFE   [8]  A3 4B 1B 22 CE 25 F1 53 :: SRASI(StaticRollAngle: 38 deg, StaticRollAngleStatus: 3)
 (1667268765.478866)  vcan0  18FE4EFE   [8]  C2 BD 5F 11 76 64 2E 1D :: DC1(Positionofdoors: 2, RampWheelChairLiftPosition: 0, Status2ofdoors: 3)
 (1667268766.478991)  vcan0  0C08FEFE   [8]  C5 9B 8C 14 0B D5 FD 7A :: AUXIO5(AuxiliaryIOChannel6: 39877 count, AuxiliaryIOChannel5: 5260 count, AuxiliaryIOChannel4: 54539 count, AuxiliaryIOChannel3: 31485 count)
 (1667268767.479340)  vcan0  18FED6FE   [8]  14 DF F7 0D 6F FC 12 7D :: HSI1(HrdSstmPrttnOvrrdSwth: 0, HrdSstmPrplsnClntLvlSwth: 1, HrdSstmPwrEltrnsClntLvlSwth: 1, HrdSstmOffBrdChrgrCnntnStts: 0, HrdSstmRgnrtvBrkngDslSwth: 3, HrdSstmBrkPdlRgnrtvBrkngDslSwth: 3, HrdSstmPrplsnDslSwth: 1, HybridSystemShutdownSwitch: 3, HrdSstmCstngRgnrtvBrkngLvlSltr: 98.80000000000001 %, PwrEltrnsClntFllSwth: 1, PrplsnMtrClntFllSwth: 3)
 (1667268768.479464)  vcan0  0CF003FE   [8]  38 53 83 2D DB 0B A2 6D :: EEC2(AcceleratorPedal1LowIdleSwitch: 0, AcceleratorPedalKickdownSwitch: 2, RoadSpeedLimitStatus: 3, AcceleratorPedal2LowIdleSwitch: 0, AcceleratorPedalPosition1: 33.2 %, EnginePercentLoadAtCurrentSpeed: 131 %, RemoteAcceleratorPedalPosition: 18.0 %, AcceleratorPedal2Position: 87.60000000000001 %, VhlAlrtnRtLmtStts: 3, MmntrEngnMxmmPwrEnlFdk: 2, DPFThermalManagementActive: 0, SCRThermalManagementActive: 0, AtlMxmmAvllEngnPrntTrq: 64.8 %, EstimatedPumpingPercentTorque: -16 %)
 (1667268769.479776)  vcan0  18FE6BFE   [8]  DF 6B A2 2F B0 A5 C1 2F :: DI(Driver1identification: 223 ASCII, Driver2identification: 107 ASCII)
 (1667268770.479848)  vcan0  0C1EFEFE   [8]  9B 56 20 70 EB 8A 6E 77 :: ALTC(AltrntrStpntVltgCmmnd: 22.171 V, AltrntrExttnMxmmCrrntLmt: 8.0 A, AlternatorTorqueRampTimeCommand: 11.200000000000001 s, AltrntrTrqRmpMxmmSpdCmmnd: 7520 rpm)
 (1667268771.479959)  vcan0  0CF013FE   [8]  0B 5A 3D 38 BE 38 6F 62 :: SSI(PitchAngle: -17.897999999999996 deg, RollAngle: -35.206 deg, PitchRate: -34.948 deg/s, PitchAngleFigureofMerit: 3, RollAngleFigureofMerit: 3, PitchRateFigureofMerit: 2, PitchandRollCompensated: 1, RollandPitchMeasurementLatency: 49.0 ms)
 (1667268772.480412)  vcan0  18FE90FE   [8]  A2 27 0A 30 76 63 03 2A :: unpack requires at least 264 bits to unpack (got 64)
 (1667268773.480693)  vcan0  18FEA4FE   [8]  A8 A9 90 3E 6E E1 CA 4F :: ET2(EngineOilTemperature2: 1084.25 degC, EngineECUTemperature: 227.5 degC, EngnExhstGsRrltn1DffrntlPrssr: 200.859375 kPa, EngnExhstGsRrltn1Tmprtr: 365.3125 degC)
 (1667268774.481354)  vcan0  0C1EFEFE   [8]  45 AA BC 54 11 2D E6 71 :: ALTC(AltrntrStpntVltgCmmnd: 43.589 V, AltrntrExttnMxmmCrrntLmt: 47.0 A, AlternatorTorqueRampTimeCommand: 8.4 s, AltrntrTrqRmpMxmmSpdCmmnd: 544 rpm)
 (1667268775.482609)  vcan0  0CF018FE   [8]  3A 97 78 5E D3 EA 45 03 :: KL2(EngineCylinder9KnockLevel: 58 %, EngineCylinder10KnockLevel: 151 %, EngineCylinder11KnockLevel: 120 %, EngineCylinder12KnockLevel: 94 %, EngineCylinder13KnockLevel: 211 %, EngineCylinder14KnockLevel: 234 %, EngineCylinder15KnockLevel: 69 %, EngineCylinder16KnockLevel: 3 %)
 (1667268776.483293)  vcan0  18FEADFE   [8]  D5 AD AA 50 99 86 D2 17 :: EBC3(BApptPssHRFtAxLtW: 1065 kPa, BApptPssHRFtAxRtW: 865 kPa, BApptPssHRRAx1LtW: 850 kPa, BApptPssHRRAx1RtW: 400 kPa, BApptPssHRRAx2LtW: 765 kPa, BApptPssHRRAx2RtW: 670 kPa, BApptPssHRRAx3LtW: 1050 kPa, BApptPssHRRAx3RtW: 115 kPa)
 (1667268777.484211)  vcan0  08F02CFE   [8]  35 C3 25 6A AD 65 CA 25 :: MSI2(MagnetForwardCurrent: 49973 A, MagnetReverseCurrent: 37 A, MaterialLiftSwitch: 2, MaterialDropSwitch: 2, GnrtrCrrntBstAtvStts: 2, MaterialLiftActiveStatus: 1, MaterialDropActiveStatus: 1, LiftRelayControl: 3, DropRelayControl: 2, MagnetGeneratorControl: 2)
 (1667268778.485281)  vcan0  18FE9CFE   [8]  4D C6 36 2B E5 B8 4D 53 :: MBT3(EngineMainBearing9Temperature: 1313.40625 degC, EngineMainBearing10Temperature: 72.6875 degC, EngineMainBearing11Temperature: 1206.15625 degC, EngineMainBearing12Temperature: 393.40625 degC)
 (1667268779.485452)  vcan0  0CF013FE   [8]  D4 F4 8A 0A C4 24 F0 02 :: SSI(PitchAngle: 61.352000000000004 deg, RollAngle: -58.604 deg, PitchRate: -45.176 deg/s, PitchAngleFigureofMerit: 0, RollAngleFigureofMerit: 0, PitchRateFigureofMerit: 3, PitchandRollCompensated: 3, RollandPitchMeasurementLatency: 1.0 ms)
 (1667268780.486232)  vcan0  18FE58FE   [8]  37 02 6A 28 5F 7B 10 73 :: ASC4(BellowPressureFrontAxleLeft: 56.7 kPa, BellowPressureFrontAxleRight: 1034.6000000000001 kPa, BellowPressureRearAxleLeft: 3158.3 kPa, BellowPressureRearAxleRight: 2945.6000000000004 kPa)
 (1667268781.487019)  vcan0  0CF004FE   [8]  35 32 CE 54 6B D5 4D 2B :: EEC1(EngineTorqueMode: 5, AtlEngnPrntTrqFrtnl: 0.375 %, DrvrsDmndEngnPrntTrq: -75 %, ActualEnginePercentTorque: 81 %, EngineSpeed: 3434.5 rpm, SrAddrssfCntrllngDvfrEngnCntrl: 213 SA, EngineStarterMode: 13, EngineDemandPercentTorque: -82 %)
 (1667268782.487258)  vcan0  08FE6EFE   [8]  F0 EC FA 49 0D FD 57 5B :: HRW(FrontAxleLeftWheelSpeed: 236.9375 km/h, Frontaxlerightwheelspeed: 73.9765625 km/h, Rearaxleleftwheelspeed: 253.05078125 km/h, Rearaxlerightwheelspeed: 91.33984375 km/h)
 (1667268783.488174)  vcan0  0CF013FE   [8]  A7 29 FB 60 B5 A6 E8 19 :: SSI(PitchAngle: -42.674 deg, RollAngle: -14.345999999999997 deg, PitchRate: 21.354 deg/s, PitchAngleFigureofMerit: 0, RollAngleFigureofMerit: 2, PitchRateFigureofMerit: 2, PitchandRollCompensated: 3, RollandPitchMeasurementLatency: 12.5 ms)
 (1667269178.736527)  vcan0  18FEC0FE   [8]  00 8C D4 79 CD 96 3D 41 :: SERV(ServiceComponentIdentificationA: 0 ID, ServiceDistance: 111425 km, ServiceComponentIdentificationB: 121 ID, ServiceDelayCalendarTimeBased: 80 weeks, ServiceComponentIdentificationC: 150 ID, SrvDlOprtnlTmBsd: -15426 h)
 (1667269179.736789)  vcan0  0C1CFEFE   [8]  6C EB AB 3A 0C 39 EB 0C :: TC3(TransmissionOverrideControlMode: 0, TrnsmssnOvrrdCntrlMdPrrt: 3, MessageCounter: 6 count, TrnsmssnRqstdOtptShftSpd: 2971.0 rpm, TrnsmssnRqstdTrqTrqLmt: -67 %, MessageChecksum: 12 count)
 (1667269180.736999)  vcan0  00F02BFE   [8]  70 F6 FD 1E 83 AE 6B 75 :: CN(CrashType: 80 bit-mapped, CrashCounter: 5 count, CrashChecksum: 7 count)
 (1667269181.737186)  vcan0  18FE67FE   [8]  54 06 73 41 3E 96 2A 5F :: CCC(AxlrHtrMxmmOtptPwr: 3240 W)
 (1667269182.737580)  vcan0  18FEAEFE   [8]  93 3C C3 5C 7F 11 C3 04 :: AIR1(PneumaticSupplyPressure: 1176 kPa, ParkingandorTrailerAirPressure: 480 kPa, ServiceBrakeCircuit1AirPressure: 1560 kPa, ServiceBrakeCircuit2AirPressure: 736 kPa, AxlrEqpmntSpplPrssr: 1016 kPa, AirSuspensionSupplyPressure: 136 kPa, AirCompressorStatus: 3, PwrtrnCrtArSpplPrssr: 32 kPa)
 (1667269183.737917)  vcan0  08FE6EFE   [8]  CC 98 FE 0A D5 C9 1D 79 :: HRW(FrontAxleLeftWheelSpeed: 152.796875 km/h, Frontaxlerightwheelspeed: 10.9921875 km/h, Rearaxleleftwheelspeed: 201.83203125 km/h, Rearaxlerightwheelspeed: 121.11328125 km/h)
 (1667269184.738304)  vcan0  0C00FEFE   [8]  DA 6A 5A 65 04 FF DA 27 :: TSC1(EngineOverrideControlMode: 2, EngnRqstdSpdCntrlCndtns: 2, OverrideControlModePriority: 1, EngineRequestedSpeedSpeedLimit: 2893.25 rpm, EngnRqstdTrqTrqLmt: -24 %, TSC1TransmissionRate: 4, TSC1ControlPurpose: 0, EngineRequestedTorqueFractional: 1.875 %, MessageCounter: 7 count, MessageChecksum: 2 count)
 (1667269185.738476)  vcan0  18FE4BFE   [8]  35 AC 3C 38 E2 74 2E 39 :: TCFG2(TransmissionTorqueLimit: 44085 Nm, TransmissionReferenceTorque: 14396 Nm, TrnsmssnCmmntnsFlrIdlTrqLmt: 101 %)
 (1667269186.739145)  vcan0  18FE53FE   [8]  D0 B0 A4 09 9A 4C A7 66 :: RTC1(LwLmtThrshldfrMxmmRPMfrmRtrdr: 6656 rpm, HLtTsdMCtsRPMRtd: 5632 rpm, LwLmtThrshldfrMxmmTrqfrmRtrdr: 39 %, HLtTsdMCtsTqRtd: -116 %, MaximumContinuousRetarderSpeed: 4928 rpm, MinimumContinuousRetarderSpeed: 2432 rpm, MaximumContinuousRetarderTorque: 42 %, MinimumContinuousRetarderTorque: -23 %)
 (1667269187.739751)  vcan0  18FE4CFE   [8]  65 2E 07 45 03 A1 09 47 :: ML(RearBlackOutMarkerSelect: 1, FrontBlackOutMarkerLampSelect: 1, ConvoyLampSelect: 2, ConvoyDrivingLampSelect: 1, BlackOutBrakeStopLampSelect: 0, NightVisionIlluminatorSelect: 1, BlackOutWorkLampSelect: 1, OprtrsBlkOtIntnstSltn: 28.400000000000002 %)
 (1667269188.739948)  vcan0  18FE96FE   [8]  B1 C1 27 7D 03 2D DE 40 :: TCW(EngnTrhrgrWstgtAttr1Pstn: 70.8 %, EngnTrhrgrWstgtAttr2Pstn: 77.2 %, EngnTrhrgrWstgtAttr3Pstn: 15.600000000000001 %, EngnTrhrgrWstgtAttr4Pstn: 50.0 %, EngnTrhrgrWstgtAttrCntrlArPrssr: 12 kPa, EngnTrhrgrWstgtAttr1DsrdPstn: 18.0 %, EngnTrhrgrWstgtAttr1PrlmnrFMI: 30 binary, EngnTrhrgrWstgtAttr1TmprtrStts: 6, EngnTrhrgrWstgtAttr2DsrdPstn: 25.6 %)
 (1667269189.741199)  vcan0  18FE53FE   [8]  F2 7D 4A 25 70 18 8A 7B :: RTC1(LwLmtThrshldfrMxmmRPMfrmRtrdr: 7744 rpm, HLtTsdMCtsRPMRtd: 4000 rpm, LwLmtThrshldfrMxmmTrqfrmRtrdr: -51 %, HLtTsdMCtsTqRtd: -88 %, MaximumContinuousRetarderSpeed: 3584 rpm, MinimumContinuousRetarderSpeed: 768 rpm, MaximumContinuousRetarderTorque: 13 %, MinimumContinuousRetarderTorque: -2 %)
 (1667269190.741603)  vcan0  18FE50FE   [8]  23 24 F9 4F E0 0E 88 1A :: BT1(SLIBattery1Temperature: -5 degC, SLIBattery2Temperature: -4 degC, SLIBattery3Temperature: 209 degC, SLIBattery4Temperature: 39 degC)
 (1667269191.742328)  vcan0  0C04FEFE   [8]  75 27 68 77 34 15 FB 5B :: XBR(ExternalAccelerationDemand: -10.75487109375 m/(s*s), XBREBIMode: 0, XBRPriority: 2, XBRControlMode: 2, XBRurgency: 47.6 %, XBRMessageCounter: 11 count, XBRMessageChecksum: 5 count)
 (1667269192.743402)  vcan0  18FE70FE   [8]  CE 03 AA 46 C7 51 BE 38 :: CVW(PoweredVehicleWeight: 9740 kg, GrossCombinationVehicleWeight: 180900 kg)
 (1667269193.743600)  vcan0  18FE51FE   [8]  95 ED 15 54 93 EA BC 43 :: ACC2(ACCusagedemand: 1, RequestedACCDistanceMode: 4)
 (1667269194.744098)  vcan0  18FE96FE   [8]  1E 60 B5 14 6E 55 17 29 :: TCW(EngnTrhrgrWstgtAttr1Pstn: 12.0 %, EngnTrhrgrWstgtAttr2Pstn: 38.400000000000006 %, EngnTrhrgrWstgtAttr3Pstn: 72.4 %, EngnTrhrgrWstgtAttr4Pstn: 8.0 %, EngnTrhrgrWstgtAttrCntrlArPrssr: 440 kPa, EngnTrhrgrWstgtAttr1DsrdPstn: 34.0 %, EngnTrhrgrWstgtAttr1PrlmnrFMI: 23 binary, EngnTrhrgrWstgtAttr1TmprtrStts: 0, EngnTrhrgrWstgtAttr2DsrdPstn: 16.400000000000002 %)
 (1667269195.744915)  vcan0  0C1CFEFE   [8]  F1 9D 83 1C A3 01 54 61 :: TC3(TransmissionOverrideControlMode: 1, TrnsmssnOvrrdCntrlMdPrrt: 0, MessageCounter: 15 count, TrnsmssnRqstdOtptShftSpd: 391.5 rpm, TrnsmssnRqstdTrqTrqLmt: -97 %, MessageChecksum: 97 count)
 (1667269196.745130)  vcan0  0C99FEFE   [8]  0C 09 01 21 74 B2 F8 6A :: JLCM(Joystick1Lamp1Command: 0, Joystick1Lamp2Command: 3, Joystick1Lamp3Command: 0, Joystick1Lamp4Command: 0, Joystick1Lamp5Command: 1, Joystick1Lamp6Command: 2, Joystick1Lamp7Command: 0, Joystick1Lamp8Command: 0, Joystick1Lamp9Command: 1, Joystick1Lamp10Command: 0, Joystick2Lamp1Command: 0, Joystick2Lamp2Command: 0, Joystick2Lamp3Command: 1, Joystick2Lamp4Command: 0, Joystick2Lamp5Command: 2, Joystick2Lamp6Command: 0, Joystick2Lamp7Command: 0, Joystick2Lamp8Command: 1, Joystick2Lamp9Command: 3, Joystick2Lamp10Command: 1, Joystick3Lamp1Command: 2, Joystick3Lamp2Command: 0, Joystick3Lamp3Command: 3, Joystick3Lamp4Command: 2, Joystick3Lamp5Command: 0, Joystick3Lamp6Command: 2, Joystick3Lamp7Command: 3, Joystick3Lamp8Command: 3, Joystick3Lamp9Command: 2, Joystick3Lamp10Command: 2)
 (1667269197.745198)  vcan0  0C0BFEFE   [8]  B0 5E 07 54 D9 E0 FF 2F :: AEBS2(DvtvtddAdvdEBSst: 0, AEBS2messageCounter: 15 count, AEBS2messagechecksum: 2 count)
 (1667269198.745342)  vcan0  18FE9AFE   [8]  AD 9F 08 61 8A A2 27 2D :: TCI2(EngnTrhrgr1CmprssrIntkTmprtr: 1004.40625 degC, EngnTrhrgr2CmprssrIntkTmprtr: 503.25 degC, EngnTrhrgr3CmprssrIntkTmprtr: 1027.3125 degC, EngnTrhrgr4CmprssrIntkTmprtr: 88.21875 degC)
 (1667269199.749245)  vcan0  08F062FE   [8]  78 77 47 2F 7D 20 72 52 :: ETC12(TrnsmssnHdrsttLp1Prssr: 30584 kPa, TrnsmssnHdrsttLp2Prssr: 12103 kPa, TrnsmssnDrtnlOtptShftSpd: -23810 rpm, TrnsmssnIntrmdtShftSpd: 2638.25 rpm)
 (1667269200.750294)  vcan0  18FEA0FE   [8]  4F 88 71 0A A0 44 6B 22 :: EPT4(EngnExhstGsPrt13Tmprtr: 817.46875 degC, EngnExhstGsPrt14Tmprtr: -189.46875 degC, EngnExhstGsPrt15Tmprtr: 276.0 degC, EngnExhstGsPrt16Tmprtr: 2.34375 degC)
 (1667269201.751584)  vcan0  0CD1FEFE   [8]  A9 47 07 5B 15 6C D3 19 :: ASC6(LevelPresetFrontAxleLeft: -1365.5 mm, LevelPresetFrontAxleRight: -869.6999999999998 mm, LevelPresetRearAxleLeft: -433.0999999999999 mm, LevelPresetRearAxleRight: -2538.9 mm)
 (1667269202.751665)  vcan0  18FE52FE   [8]  41 9D C7 0A E3 6F 7D 60 :: VEP3(AltrntrCrrntHghRngRsltn: 412.85000000000014 A, SLIBttr1NtCrrntHghRngRsltn: -1462.05 A, SLIBattery2NetCurrent: -167.8499999999999 A)
 (1667269203.751856)  vcan0  18FE99FE   [8]  59 04 4B 3F 79 5D 93 34 :: TCI3(EngnTrhrgr1CmprssrIntkPrssr: -241.3046875 kPa, EngnTrhrgr2CmprssrIntkPrssr: -123.4140625 kPa, EngnTrhrgr3CmprssrIntkPrssr: -63.0546875 kPa, EngnTrhrgr4CmprssrIntkPrssr: -144.8515625 kPa)
 (1667269204.751941)  vcan0  18FE4BFE   [8]  46 35 EC 6C 97 BD 48 49 :: TCFG2(TransmissionTorqueLimit: 13638 Nm, TransmissionReferenceTorque: 27884 Nm, TrnsmssnCmmntnsFlrIdlTrqLmt: 26 %)
 (1667269205.752144)  vcan0  04F031FE   [8]  38 65 68 42 88 5B CC 65 :: WAND(WandAngle: -12.176000000000002 deg, WandSensorFigureofMerit: 0)
 (1667269206.752411)  vcan0  18FE4EFE   [8]  0C 0A 13 51 94 64 CD 06 :: DC1(Positionofdoors: 12, RampWheelChairLiftPosition: 0, Status2ofdoors: 0)
 (1667269207.753283)  vcan0  18FE8DFE   [8]  7A FB 64 46 45 C3 D4 5A :: VEP2(BatteryPotentialPowerInput2: 3218.9 V, ECUPowerOutputSupplyVoltage1: 901.0 V, ECUPowerOutputSupplyVoltage2: 2499.4500000000003 V, ECUPowerOutputSupplyVoltage3: 1162.6000000000001 V)
 (1667269284.817255)  vcan0  18FE53FE   [8]  B1 94 3B 41 31 B7 C8 58 :: RTC1(LwLmtThrshldfrMxmmRPMfrmRtrdr: 5664 rpm, HLtTsdMCtsRPMRtd: 4736 rpm, LwLmtThrshldfrMxmmTrqfrmRtrdr: -66 %, HLtTsdMCtsTqRtd: -60 %, MaximumContinuousRetarderSpeed: 1568 rpm, MinimumContinuousRetarderSpeed: 5856 rpm, MaximumContinuousRetarderTorque: 75 %, MinimumContinuousRetarderTorque: -37 %)
 (1667269285.818219)  vcan0  08F02DFE   [8]  F1 75 A9 5E 4D B6 CB 67 :: ACCS(LtrlAlrtnExtnddRng: -18.069999999999993 m/(s*s), LngtdnlAlrtnExtnddRng: -77.66999999999999 m/(s*s), VrtlAlrtnExtnddRng: 146.69 m/(s*s), LtrlAlrtnFgrfMrtExtnddRng: 3, LngtdnlAlrtnFgrfMrtExtnddRng: 2, VrtlAlrtnFgrfMrtExtnddRng: 0, SpptVTsssRpttRtAtSs: 3)
 (1667269286.818551)  vcan0  18FE8DFE   [8]  F1 49 2F 0B A5 15 6C 7C :: VEP2(BatteryPotentialPowerInput2: 946.45 V, ECUPowerOutputSupplyVoltage1: 143.15 V, ECUPowerOutputSupplyVoltage2: 277.05 V, ECUPowerOutputSupplyVoltage3: 1592.6000000000001 V)
 (1667269287.819114)  vcan0  18FEADFE   [8]  9B 35 B1 2C 5F 8C CD 68 :: EBC3(BApptPssHRFtAxLtW: 775 kPa, BApptPssHRFtAxRtW: 265 kPa, BApptPssHRRAx1LtW: 885 kPa, BApptPssHRRAx1RtW: 220 kPa, BApptPssHRRAx2LtW: 475 kPa, BApptPssHRRAx2RtW: 700 kPa, BApptPssHRRAx3LtW: 1025 kPa, BApptPssHRRAx3RtW: 520 kPa)
 (1667269288.819450)  vcan0  18FE58FE   [8]  50 8D B1 31 EC CA 04 79 :: ASC4(BellowPressureFrontAxleLeft: 3617.6000000000004 kPa, BellowPressureFrontAxleRight: 1272.1000000000001 kPa, BellowPressureRearAxleLeft: 5194.8 kPa, BellowPressureRearAxleRight: 3098.0 kPa)
 (1667269289.819755)  vcan0  18FE55FE   [8]  97 C5 6E 70 B4 E8 1E 08 :: GFD(SpecificHeatRatio: 50.583 Ratio, ReferenceEngineGasMassFlowRate: 1439.1000000000001 kg/h, Fuelenergycontent: 232.703125 MJ/(Nm*Nm*Nm))
 (1667269290.820314)  vcan0  18FE54FE   [8]  08 6E 65 38 2E 7A AC 71 :: ECT1(ELwLtTsdMxRPME: 256 rpm, EHLtTsdMCtsERPM: 3520 rpm, ELwLtTsdMxTqE: -24 %, EHLtTsdMCtsTqE: -69 %, EngineMaximumContinuousRPM: 1472 rpm, EngineMinimumContinuousRPM: 3904 rpm, EngineMaximumContinuousTorque: 47 %, EngineMinimumContinuousTorque: -12 %)
 (1667269291.821094)  vcan0  04F031FE   [8]  1C 3E DA 44 69 24 8A 2A :: WAND(WandAngle: -32.2 deg, WandSensorFigureofMerit: 2)
 (1667269292.821427)  vcan0  0C0DFEFE   [8]  03 16 35 2A D6 68 60 5C :: TC2(TransmissionMode9: 3, TransmissionMode10: 0)
 (1667269293.822615)  vcan0  18FE4CFE   [8]  68 38 8C 4D 4F 8E 7F 12 :: ML(RearBlackOutMarkerSelect: 0, FrontBlackOutMarkerLampSelect: 2, ConvoyLampSelect: 2, ConvoyDrivingLampSelect: 1, BlackOutBrakeStopLampSelect: 2, NightVisionIlluminatorSelect: 1, BlackOutWorkLampSelect: 1, OprtrsBlkOtIntnstSltn: 7.2 %)
 (1667269294.822781)  vcan0  18FE4BFE   [8]  52 AC 5C 46 01 23 BB 53 :: TCFG2(TransmissionTorqueLimit: 44114 Nm, TransmissionReferenceTorque: 18012 Nm, TrnsmssnCmmntnsFlrIdlTrqLmt: -124 %)
 (1667269295.823125)  vcan0  18FE6AFE   [8]  06 FE D1 65 F2 98 64 32 :: EFS(EngineOilLevelRemoteReservoir: 2.4000000000000004 %, EngnFlSpplPmpIntkAsltPrssr: 508 kPa, EngnFlFltrstnsdDffrntlPrssr: 418 kPa, EngineWasteOilReservoirLevel: 40.400000000000006 %, EngineOilFilterOutletPressure: 968 kPa, EngineOilPrimingPumpSwitch: 0, EngineOilPrimingState: 2, EngineOilPreHeatedState: 1, EngineCoolantPreheatedState: 2, EngineVentilationStatus: 4, FuelPumpPrimerStatus: 0, EngnFlSpplPmpIntkPrssr: 100 kPa)
 (1667269296.824400)  vcan0  18FE67FE   [8]  CF E1 AF 39 E3 E2 93 3D :: CCC(AxlrHtrMxmmOtptPwr: 115614 W)
 (1667269297.825930)  vcan0  18FE6DFE   [8]  C8 BC 8C 68 7E 18 45 6A :: HTR(AxlrHtrOtptClntTmprtr: 160 degC, AxlrHtrInptArTmprtr: 148 degC, AxlrHtrOtptPwrPrnt: 56.0 %, AuxiliaryHeaterMode: 8, AuxiliaryHeaterWaterPumpStatus: 2, CabVentilation: 3, EngineHeatingZone: 3, CabHeatingZone: 1, ADRCompliantHeaterInstallation: 0)
 (1667269298.826462)  vcan0  08F110FE   [8]  46 FE 10 0F CE A5 F6 1B :: B2(DmnddBrkAppltnPrssr: 6509.400000000001 kPa, BrakePedalSwitch2: 0)
 (1667269299.827831)  vcan0  18FE4AFE   [8]  13 25 07 61 65 6B 65 0C :: ETC7(TrnsmssnCrrntRngDsplBlnkStt: 3, TransmissionServiceIndicator: 0, TrnsmssnRqstdRngDsplBlnkStt: 1, TrnsmssnRqstdRngDsplFlshStt: 0, TrnsmssnRdfrBrkRls: 1, ActiveShiftConsoleIndicator: 1, TransmissionEngineCrankEnable: 2, TrnsmssnShftInhtIndtr: 0, TransmissionMode4Indicator: 3, TransmissionMode3Indicator: 1, TransmissionMode2Indicator: 0, TransmissionMode1Indicator: 0, TrnsmssnRqstdGrFdk: -28 gear value, TransmissionMode5Indicator: 1, TransmissionMode6Indicator: 1, TransmissionMode7Indicator: 2, TransmissionMode8Indicator: 1, TrnsmssnRvrsGrShftInhtStts: 3, TransmissionWarningIndicator: 2, TransmissionMode9Indicator: 2, TransmissionMode10Indicator: 1, TrnsmssnArSpplPrssrIndtr: 5, TrnsmssnAtNtrlMnlRtrnStt: 4, TransmissionManualModeIndicator: 1)
 (1667269300.828141)  vcan0  08FE6EFE   [8]  8E 37 85 32 6E D9 CA 44 :: HRW(FrontAxleLeftWheelSpeed: 55.5546875 km/h, Frontaxlerightwheelspeed: 50.51953125 km/h, Rearaxleleftwheelspeed: 217.4296875 km/h, Rearaxlerightwheelspeed: 68.7890625 km/h)
 (1667269301.828774)  vcan0  08F062FE   [8]  DF EF B5 71 8A 17 A5 09 :: ETC12(TrnsmssnHdrsttLp1Prssr: 61407 kPa, TrnsmssnHdrsttLp2Prssr: 29109 kPa, TrnsmssnDrtnlOtptShftSpd: -26101 rpm, TrnsmssnIntrmdtShftSpd: 308.625 rpm)
 (1667269302.829405)  vcan0  18FED5FE   [8]  8E A4 FF 7D 8D 2D DA 33 :: AS(AlternatorSpeed: 21063.0 rpm, Alternator1Status: 3, Alternator2Status: 3, Alternator3Status: 3, Alternator4Status: 3)
 (1667269303.829760)  vcan0  08F02DFE   [8]  83 E2 3C 26 F5 65 66 01 :: ACCS(LtrlAlrtnExtnddRng: 259.87 m/(s*s), LngtdnlAlrtnExtnddRng: -222.12 m/(s*s), VrtlAlrtnExtnddRng: -58.99000000000001 m/(s*s), LtrlAlrtnFgrfMrtExtnddRng: 2, LngtdnlAlrtnFgrfMrtExtnddRng: 1, VrtlAlrtnFgrfMrtExtnddRng: 2, SpptVTsssRpttRtAtSs: 1)
 (1667269304.830117)  vcan0  18FE9EFE   [8]  F6 A5 BA 00 48 12 C3 47 :: MBT1(EngineMainBearing1Temperature: 1054.6875 degC, EngineMainBearing2Temperature: -267.1875 degC, EngineMainBearing3Temperature: -126.75 degC, EngineMainBearing4Temperature: 301.09375 degC)
 (1667269305.830667)  vcan0  18FEA0FE   [8]  9B 20 01 34 4E 10 95 2D :: EPT4(EngnExhstGsPrt13Tmprtr: -12.15625 degC, EngnExhstGsPrt14Tmprtr: 143.03125 degC, EngnExhstGsPrt15Tmprtr: -142.5625 degC, EngnExhstGsPrt16Tmprtr: 91.65625 degC)
 (1667269306.830967)  vcan0  18FE6DFE   [8]  8D 51 13 4F 1E F2 44 67 :: HTR(AxlrHtrOtptClntTmprtr: 101 degC, AxlrHtrInptArTmprtr: 41 degC, AxlrHtrOtptPwrPrnt: 7.6000000000000005 %, AuxiliaryHeaterMode: 15, AuxiliaryHeaterWaterPumpStatus: 2, CabVentilation: 3, EngineHeatingZone: 1, CabHeatingZone: 0, ADRCompliantHeaterInstallation: 2)
 (1667269307.831406)  vcan0  0CF00AFE   [8]  25 98 91 66 E6 AE D1 4F :: EGF1(EngnExhstGsRrltn1MssFlwRt: 1947.45 kg/h, EngineIntakeAirMassFlowRate: 1312.8500000000001 kg/h, EngnExhstGsRrltn2MssFlwRt: 2238.7000000000003 kg/h)
 (1667269308.834866)  vcan0  0C00FEFE   [8]  1B 6B DD 66 2C AD E2 5E :: TSC1(EngineOverrideControlMode: 3, EngnRqstdSpdCntrlCndtns: 2, OverrideControlModePriority: 1, EngineRequestedSpeedSpeedLimit: 7085.375 rpm, EngnRqstdTrqTrqLmt: -23 %, TSC1TransmissionRate: 4, TSC1ControlPurpose: 5, EngineRequestedTorqueFractional: 1.625 %, MessageCounter: 14 count, MessageChecksum: 5 count)
 (1667269309.835529)  vcan0  0CF002FE   [8]  FE 08 2E 60 3F D2 E9 3F :: ETC1(TransmissionDrivelineEngaged: 2, TrnsmssnTrqCnvrtrLkpEnggd: 3, TransmissionShiftInProcess: 3, TrnsmssnTrqCnvrtrLkpTrnstnnPrss: 3, Transmission1OutputShaftSpeed: 1473.0 rpm, PercentClutchSlip: 38.400000000000006 %, EngineMomentaryOverspeedEnable: 3, ProgressiveShiftDisable: 3, MmntrEngnMxmmPwrEnl: 3, Transmission1InputShaftSpeed: 7482.25 rpm, SAddssCtDvTsssCt: 63 SA)
 (1667269310.838634)  vcan0  18FE55FE   [8]  95 8F 9D 61 CD 09 6F 72 :: GFD(SpecificHeatRatio: 36.757 Ratio, ReferenceEngineGasMassFlowRate: 1249.45 kg/h, Fuelenergycontent: 9.80078125 MJ/(Nm*Nm*Nm))
 (1667269311.838941)  vcan0  18FE8FFE   [8]  5A 90 B9 54 AC F9 24 64 :: SP2(EngnExtrnlShtdwnArSpplPrssr: 18477.0 kPa)
 (1667269312.839072)  vcan0  18FE9EFE   [8]  88 B5 5F 72 3B 9E 24 62 :: MBT1(EngineMainBearing1Temperature: 1179.25 degC, EngineMainBearing2Temperature: 641.96875 degC, EngineMainBearing3Temperature: 992.84375 degC, EngineMainBearing4Temperature: 512.125 degC)
 (1667269546.987086)  vcan0  18FE8DFE   [8]  24 73 A6 57 32 B0 EF 31 :: VEP2(BatteryPotentialPowerInput2: 1473.8000000000002 V, ECUPowerOutputSupplyVoltage1: 1121.9 V, ECUPowerOutputSupplyVoltage2: 2255.3 V, ECUPowerOutputSupplyVoltage3: 639.1500000000001 V)
 (1667269547.987601)  vcan0  18FE9AFE   [8]  8E 85 EC 20 FF E5 63 02 :: TCI2(EngnTrhrgr1CmprssrIntkTmprtr: 795.4375 degC, EngnTrhrgr2CmprssrIntkTmprtr: -9.625 degC, EngnTrhrgr3CmprssrIntkTmprtr: 1566.96875 degC, EngnTrhrgr4CmprssrIntkTmprtr: -253.90625 degC)
 (1667269548.987887)  vcan0  18FE52FE   [8]  F6 7B 20 34 A6 71 C2 3A :: VEP3(AltrntrCrrntHghRngRsltn: -13.299999999999955 A, SLIBttr1NtCrrntHghRngRsltn: -932.8 A, SLIBattery2NetCurrent: -145.29999999999995 A)
 (1667269549.988246)  vcan0  18FE69FE   [8]  42 BE EE 0F 3E 48 A4 0C :: ET3(EngnIntkMnfld1TmprtrHghRsltn: 1249.0625 degC, EngnClntTmprtrHghRsltn: -145.5625 degC, EngnIntkVlvAttnSstmOlTmprtr: 304.9375 degC, EngnChrgArClr1OtltTmprtr: -171.875 degC)
 (1667269550.989167)  vcan0  18FE4EFE   [8]  DC 90 C7 5A 74 4B 7B 68 :: DC1(Positionofdoors: 12, RampWheelChairLiftPosition: 1, Status2ofdoors: 3)
 (1667269551.990077)  vcan0  18FE9EFE   [8]  2C 12 5A 53 B9 2D ED 78 :: MBT1(EngineMainBearing1Temperature: -127.625 degC, EngineMainBearing2Temperature: 393.8125 degC, EngineMainBearing3Temperature: 92.78125 degC, EngineMainBearing4Temperature: 694.40625 degC)
 (1667269552.990467)  vcan0  0CF00CFE   [8]  7E C9 35 25 E1 8C 31 78 :: ETC8(TrnsmssnTrqCnvrtrRt: 51.582 Ratio, TrnsmssnClthCnvrtrInptSpd: 1190.625 rpm, TransmissionShiftInhibitReason: 225, TrnsmssnTrqCnvrtrLkpInhtRsn: 140, TrnsmssnTrqCnvrtrLkpInhtIndtr: 1)
 (1667269553.991222)  vcan0  18FE51FE   [8]  49 54 08 63 BA AB 97 2E :: ACC2(ACCusagedemand: 1, RequestedACCDistanceMode: 2)
 (1667269554.992149)  vcan0  18FE5BFE   [8]  CE D1 04 01 4E AD 86 6F :: FLI2(LaneTrackingStatusRightSide: 3, LaneTrackingStatusLeftSide: 0, LnDprtrIndtnEnlStts: 3, DriverAlertnessLevel: 83.60000000000001 %, DrvrAlrtnssWrnngSstmStt: 4, LeftWheelLaneDepartureDistance: -124 cm, RightWheelLaneDepartureDistance: -47 cm, LaneDepartureWarningSystemState: 6, ForwardLaneImagerStatus: 8)
 (1667269555.993480)  vcan0  18FE69FE   [8]  44 98 41 12 73 05 9A 0F :: ET3(EngnIntkMnfld1TmprtrHghRsltn: 945.125 degC, EngnClntTmprtrHghRsltn: -126.96875 degC, EngnIntkVlvAttnSstmOlTmprtr: -229.40625 degC, EngnChrgArClr1OtltTmprtr: -148.1875 degC)
 (1667269556.994046)  vcan0  18FE97FE   [8]  9D AD 10 22 97 78 40 67 :: TCI5(EngnTrhrgr1TrnOtltTmprtr: 1115.90625 degC, EngnTrhrgr2TrnOtltTmprtr: -0.5 degC, EngnTrhrgr3TrnOtltTmprtr: 691.71875 degC, EngnTrhrgr4TrnOtltTmprtr: 553.0 degC)
 (1667269557.994614)  vcan0  18FE5BFE   [8]  FE A9 E0 44 26 FE 2C 08 :: FLI2(LaneTrackingStatusRightSide: 3, LaneTrackingStatusLeftSide: 3, LnDprtrIndtnEnlStts: 3, DriverAlertnessLevel: 67.60000000000001 %, DrvrAlrtnssWrnngSstmStt: 0, LeftWheelLaneDepartureDistance: -57 cm, RightWheelLaneDepartureDistance: -87 cm, LaneDepartureWarningSystemState: 12, ForwardLaneImagerStatus: 2)
 (1667269558.995535)  vcan0  18FE98FE   [8]  67 7B 5E 2B 1C 7A 4D 3C :: TCI4(EngnTrhrgr1TrnIntkTmprtr: 714.21875 degC, EngnTrhrgr2TrnIntkTmprtr: 73.9375 degC, EngnTrhrgr3TrnIntkTmprtr: 703.875 degC, EngnTrhrgr4TrnIntkTmprtr: 209.40625 degC)
