 (1667235408.678009)  vcan0  18FE59FE   [8]  57 EA 11 0B 6C 24 8D 55 :: ASC3(RelativeLevelFrontAxleLeft: 2799.1000000000004 mm, RelativeLevelFrontAxleRight: -2916.7 mm, RelativeLevelRearAxleLeft: -2267.6 mm, RelativeLevelRearAxleRight: -1009.9000000000001 mm)
 (1667235409.678282)  vcan0  0C09FEFE   [8]  91 2B 8B 52 48 3A 5B 0F :: SRASI(StaticRollAngle: 20 deg, StaticRollAngleStatus: 3)
 (1667235410.678482)  vcan0  0CD2FEFE   [8]  57 60 AC 18 5E C9 36 4C :: ASC2(Atmttrtnhlpldtrnsfr: 3, KneelingRequestLeftSide: 1, KneelingRequestRightSide: 1, KneelingControlModeRequest: 1, NominalLevelRequestFrontAxle: 0, NominalLevelRequestRearAxle: 6, LevelControlModeRequest: 12, LiftAxle1PositionCommand: 2, LiftAxle2PositionCommand: 2, DamperStiffnessRequestFrontAxle: 9.600000000000001 %, DamperStiffnessRequestRearAxle: 37.6 %, DmprStffnssRqstLftTgAxl: 80.4 %, KneelingCommandFrontAxle: 2, KneelingCommandRearAxle: 1, Prohibitairsuspensioncontrol: 3, AllwLvlCntrlDrngBrkngCmmnd: 0, SpdDpndntLvlCntrlRqst: 0, PrhtAtmtArSspnsnCntrl: 3, Memorylevelrequest: 4)
 (1667235411.678718)  vcan0  18FEAEFE   [8]  E1 66 43 4C 26 C3 EA 63 :: AIR1(PneumaticSupplyPressure: 1800 kPa, ParkingandorTrailerAirPressure: 816 kPa, ServiceBrakeCircuit1AirPressure: 536 kPa, ServiceBrakeCircuit2AirPressure: 608 kPa, AxlrEqpmntSpplPrssr: 304 kPa, AirSuspensionSupplyPressure: 1560 kPa, AirCompressorStatus: 2, PwrtrnCrtArSpplPrssr: 792 kPa)
 (1667235412.679319)  vcan0  18FE4EFE   [8]  1B 43 32 26 EF 7F D6 41 :: DC1(Positionofdoors: 11, RampWheelChairLiftPosition: 1, Status2ofdoors: 0)
 (1667235413.679706)  vcan0  18FEA6FE   [8]  3B AF 42 6B E9 AA 95 41 :: IMT1(EngnTrhrgr1BstPrssr: 5607.375 kPa, EngnTrhrgr2BstPrssr: 3432.25 kPa, EngnTrhrgr3BstPrssr: 5469.125 kPa, EngnTrhrgr4BstPrssr: 2098.625 kPa)
 (1667235414.680038)  vcan0  18FEC0FE   [8]  C5 31 98 1F 11 48 62 56 :: SERV(ServiceComponentIdentificationA: 197 ID, ServiceDistance: 34170 km, ServiceComponentIdentificationB: 31 ID, ServiceDelayCalendarTimeBased: -108 weeks, ServiceComponentIdentificationC: 72 ID, SrvDlOprtnlTmBsd: -10013 h)
 (1667235415.680542)  vcan0  18FE9CFE   [8]  78 49 A6 3E 6B B5 16 6A :: MBT3(EngineMainBearing9Temperature: 314.75 degC, EngineMainBearing10Temperature: 228.1875 degC, EngineMainBearing11Temperature: 1178.34375 degC, EngineMainBearing12Temperature: 575.6875 degC)
 (1667235416.680837)  vcan0  0CF015FE   [8]  D1 90 A0 0D BD 0A 56 67 :: RGTACRP(RqstdGnrtrTtlACRtvPwr: -1771373359 VA, RqstdGnrtrOvrllPwrFtr: -0.83221435546875, RqstdGnrtrOvrllPwrFtrLggng: 2)
 (1667235417.681332)  vcan0  18FE68FE   [8]  F6 2B 6A 24 59 21 F5 0F :: VF(HydraulicTemperature: 206 degC, HdrlOlFltrRstrtnSwth: 3, WinchOilPressureSwitch: 2, HydraulicOilLevel: 42.400000000000006 %)
 (1667235418.681862)  vcan0  0C01FEFE   [8]  06 7A D8 28 B1 0B 07 1B :: TC1(TrnsmssnGrShftInhtRqst: 2, TrnsmssnTrqCnvrtrLkpRqst: 1, DisengageDrivelineRequest: 0, TrnsmssnRvrsGrShftInhtRqst: 0, RequestedPercentClutchSlip: 48.800000000000004 %, TransmissionRequestedGear: 91 gear value, DsnggDffrntlLkRqstFrntAxl1: 0, DsnggDffrntlLkRqstFrntAxl2: 2, DsnggDffrntlLkRqstRrAxl1: 2, DsnggDffrntlLkRqstRrAxl2: 0, DsnggDffrntlLkRqstCntrl: 1, DsnggDffrntlLkRqstCntrlFrnt: 0, DsnggDffrntlLkRqstCntrlRr: 3, TrnsmssnLdRdtnInhtRqst: 2, TransmissionMode1: 3, TransmissionMode2: 2, TransmissionMode3: 0, TransmissionMode4: 0, TrnsmssnAtNtrlMnlRtrnRqst: 3, TransmissionRequestedLaunchGear: 1, TrnsmssnShftSltrDsplMdSwth: 0, TransmissionMode5: 3, TransmissionMode6: 2, TransmissionMode7: 1, TransmissionMode8: 0)
 (1667235419.682414)  vcan0  0CD1FEFE   [8]  02 84 7A 20 42 37 92 6D :: ASC6(LevelPresetFrontAxleLeft: 179.4000000000001 mm, LevelPresetFrontAxleRight: -2368.6 mm, LevelPresetRearAxleLeft: -1785.3999999999999 mm, LevelPresetRearAxleRight: -395.0 mm)
 (1667235420.682668)  vcan0  18FED5FE   [8]  68 51 EC 1F 9A 97 3E 06 :: AS(AlternatorSpeed: 10420.0 rpm, Alternator1Status: 0, Alternator2Status: 3, Alternator3Status: 2, Alternator4Status: 3)
 (1667235421.683138)  vcan0  0CF00DFE   [8]  02 5C 46 70 7B FE 81 52 :: LOI(BladeControlModeSwitch: 2, DesiredGradeOffsetSwitch: 0, BladeAutoModeCommand: 12, LftBldCntrlMdOprtrCntrl: 5, RghtBldCntrlMdOprtrCntrl: 6, LftDsrdBldOffstOprtrCntrl: 4, RghtDsrdBldOffstOprtrCntrl: 0, SdshftBldCntrlMdOprtrCntrl: 7, SdshftDsrdBldOffstOprtrCntrl: 11, StElvtnSnsr1RfrnElvtn: 3, StElvtnSnsr2RfrnElvtn: 1)
 (1667235422.683524)  vcan0  18FE9DFE   [8]  87 5B 2E 35 97 41 B4 78 :: MBT2(EngineMainBearing5Temperature: 459.21875 degC, EngineMainBearing6Temperature: 152.4375 degC, EngineMainBearing7Temperature: 251.71875 degC, EngineMainBearing8Temperature: 692.625 degC)
 (1667235423.683876)  vcan0  18FE4AFE   [8]  FE 57 CC 2B D2 F0 F6 63 :: ETC7(TrnsmssnCrrntRngDsplBlnkStt: 2, TransmissionServiceIndicator: 3, TrnsmssnRqstdRngDsplBlnkStt: 3, TrnsmssnRqstdRngDsplFlshStt: 3, TrnsmssnRdfrBrkRls: 3, ActiveShiftConsoleIndicator: 1, TransmissionEngineCrankEnable: 1, TrnsmssnShftInhtIndtr: 1, TransmissionMode4Indicator: 0, TransmissionMode3Indicator: 3, TransmissionMode2Indicator: 0, TransmissionMode1Indicator: 3, TrnsmssnRqstdGrFdk: -82 gear value, TransmissionMode5Indicator: 2, TransmissionMode6Indicator: 0, TransmissionMode7Indicator: 1, TransmissionMode8Indicator: 3, TrnsmssnRvrsGrShftInhtStts: 0, TransmissionWarningIndicator: 0, TransmissionMode9Indicator: 3, TransmissionMode10Indicator: 3, TrnsmssnArSpplPrssrIndtr: 6, TrnsmssnAtNtrlMnlRtrnStt: 6, TransmissionManualModeIndicator: 3)
 (1667235424.684228)  vcan0  0C09FEFE   [8]  EA 0C 76 41 97 22 8F 03 :: SRASI(StaticRollAngle: 109 deg, StaticRollAngleStatus: 4)
 (1667235425.684748)  vcan0  18FEC1FE   [8]  BC 3F 21 56 0F 6C 35 42 :: VDHR(TtlVhlDstnHghRsltn: 7225097900 m, TripDistanceHighResolution: 5553986635 m)
 (1667235426.685216)  vcan0  18FE51FE   [8]  1B 98 70 2A E1 FC D5 4F :: ACC2(ACCusagedemand: 3, RequestedACCDistanceMode: 0)
 (1667235427.685797)  vcan0  08F062FE   [8]  6F 2B EF 61 D7 28 40 74 :: ETC12(TrnsmssnHdrsttLp1Prssr: 11119 kPa, TrnsmssnHdrsttLp2Prssr: 25071 kPa, TrnsmssnDrtnlOtptShftSpd: -21672 rpm, TrnsmssnIntrmdtShftSpd: 3720.0 rpm)
 (1667235428.686291)  vcan0  18FE98FE   [8]  88 A3 85 22 DD A2 18 1D :: TCI4(EngnTrhrgr1TrnIntkTmprtr: 1035.25 degC, EngnTrhrgr2TrnIntkTmprtr: 3.15625 degC, EngnTrhrgr3TrnIntkTmprtr: 1029.90625 degC, EngnTrhrgr4TrnIntkTmprtr: -40.25 degC)
 (1667235429.686863)  vcan0  00F02BFE   [8]  0D 40 A9 38 DF 26 93 3D :: CN(CrashType: 65 bit-mapped, CrashCounter: 13 count, CrashChecksum: 3 count)
 (1667235430.687372)  vcan0  0C1DFEFE   [8]  DB 16 28 5E 48 78 7F 5D :: EIC(EngineTimingAdvance: -154.2890625 deg)
 (1667235431.687884)  vcan0  18FEC0FE   [8]  08 B7 DD 4F 4A D4 C5 4D :: SERV(ServiceComponentIdentificationA: 8 ID, ServiceDistance: 123160 km, ServiceComponentIdentificationB: 79 ID, ServiceDelayCalendarTimeBased: -51 weeks, ServiceComponentIdentificationC: 212 ID, SrvDlOprtnlTmBsd: -12218 h)
 (1667235432.688428)  vcan0  18FE51FE   [8]  5B 1A 7E 25 D1 2F F4 02 :: ACC2(ACCusagedemand: 3, RequestedACCDistanceMode: 2)
 (1667235433.688764)  vcan0  18FE98FE   [8]  9D FD F4 3C CF 87 C0 2E :: TCI4(EngnTrhrgr1TrnIntkTmprtr: 1755.90625 degC, EngnTrhrgr2TrnIntkTmprtr: 214.625 degC, EngnTrhrgr3TrnIntkTmprtr: 813.46875 degC, EngnTrhrgr4TrnIntkTmprtr: 101.0 degC)
 (1667235434.689166)  vcan0  18FE9AFE   [8]  C9 8B 01 16 B9 94 36 70 :: TCI2(EngnTrhrgr1CmprssrIntkTmprtr: 845.28125 degC, EngnTrhrgr2CmprssrIntkTmprtr: -96.96875 degC, EngnTrhrgr3CmprssrIntkTmprtr: 916.78125 degC, EngnTrhrgr4CmprssrIntkTmprtr: 624.6875 degC)
 (1667235435.689616)  vcan0  18FE70FE   [8]  06 62 70 45 75 D4 57 46 :: CVW(PoweredVehicleWeight: 250940 kg, GrossCombinationVehicleWeight: 177760 kg)
 (1667235436.690029)  vcan0  18FE6DFE   [8]  AE ED F5 5E 91 6C C8 70 :: HTR(AxlrHtrOtptClntTmprtr: 134 degC, AxlrHtrInptArTmprtr: 197 degC, AxlrHtrOtptPwrPrnt: 98.0 %, AuxiliaryHeaterMode: 14, AuxiliaryHeaterWaterPumpStatus: 1, CabVentilation: 0, EngineHeatingZone: 1, CabHeatingZone: 2, ADRCompliantHeaterInstallation: 0)
 (1667490586.259597)  vcan0  18FE6BFE   [8]  50 A0 53 00 F6 01 95 0D :: DI(Driver1identification: 80 ASCII, Driver2identification: 160 ASCII)
 (1667490587.261087)  vcan0  0C04FEFE   [8]  C8 FB BC 17 36 AE 44 12 :: XBR(ExternalAccelerationDemand: 15.78565625 m/(s*s), XBREBIMode: 0, XBRPriority: 3, XBRControlMode: 3, XBRurgency: 9.200000000000001 %, XBRMessageCounter: 2 count, XBRMessageChecksum: 1 count)
 (1667490588.263130)  vcan0  18FE98FE   [8]  11 D2 FC 42 4C F1 93 05 :: TCI4(EngnTrhrgr1TrnIntkTmprtr: 1407.53125 degC, EngnTrhrgr2TrnIntkTmprtr: 262.875 degC, EngnTrhrgr3TrnIntkTmprtr: 1657.375 degC, EngnTrhrgr4TrnIntkTmprtr: -228.40625 degC)
 (1667490589.263726)  vcan0  18FE94FE   [8]  D8 3B A2 08 EA E8 C1 62 :: EAC(EngineAuxiliaryCoolantPressure: 864 kPa, EngnAxlrClntTmprtr: 19 degC, SeaWaterPumpOutletPressure: 324 kPa, EngnClntPrssr1ExtnddRng: 32 kPa, EngnClntPrssr2ExtnddRng: 936 kPa, EngnClntPmpClntOtltPrssr: 464 kPa)
 (1667490590.264570)  vcan0  0C1DFEFE   [8]  0B 4C 9F 01 91 6B 17 4C :: EIC(EngineTimingAdvance: -47.9140625 deg)
 (1667490591.264735)  vcan0  18FE6AFE   [8]  A8 33 E6 7B DE D5 3C 54 :: EFS(EngineOilLevelRemoteReservoir: 67.2 %, EngnFlSpplPmpIntkAsltPrssr: 102 kPa, EngnFlFltrstnsdDffrntlPrssr: 460 kPa, EngineWasteOilReservoirLevel: 49.2 %, EngineOilFilterOutletPressure: 888 kPa, EngineOilPrimingPumpSwitch: 1, EngineOilPrimingState: 1, EngineOilPreHeatedState: 1, EngineCoolantPreheatedState: 3, EngineVentilationStatus: 4, FuelPumpPrimerStatus: 3, EngnFlSpplPmpIntkPrssr: 168 kPa)
 (1667490592.264885)  vcan0  18FE69FE   [8]  15 B6 0C 3A 78 E7 5A 44 :: ET3(EngnIntkMnfld1TmprtrHghRsltn: 1183.65625 degC, EngnClntTmprtrHghRsltn: 191.375 degC, EngnIntkVlvAttnSstmOlTmprtr: 1578.75 degC, EngnChrgArClr1OtltTmprtr: 273.8125 degC)
 (1667490593.264968)  vcan0  18FE96FE   [8]  1E 93 A5 59 5E 75 A6 18 :: TCW(EngnTrhrgrWstgtAttr1Pstn: 12.0 %, EngnTrhrgrWstgtAttr2Pstn: 58.800000000000004 %, EngnTrhrgrWstgtAttr3Pstn: 66.0 %, EngnTrhrgrWstgtAttr4Pstn: 35.6 %, EngnTrhrgrWstgtAttrCntrlArPrssr: 376 kPa, EngnTrhrgrWstgtAttr1DsrdPstn: 46.800000000000004 %, EngnTrhrgrWstgtAttr1PrlmnrFMI: 6 binary, EngnTrhrgrWstgtAttr1TmprtrStts: 5, EngnTrhrgrWstgtAttr2DsrdPstn: 9.600000000000001 %)
 (1667490594.265122)  vcan0  18FE54FE   [8]  1D 85 2C 65 08 D7 4A 11 :: ECT1(ELwLtTsdMxRPME: 928 rpm, EHLtTsdMCtsERPM: 4256 rpm, ELwLtTsdMxTqE: -81 %, EHLtTsdMCtsTqE: -24 %, EngineMaximumContinuousRPM: 256 rpm, EngineMinimumContinuousRPM: 6880 rpm, EngineMaximumContinuousTorque: -51 %, EngineMinimumContinuousTorque: -108 %)
 (1667490595.265447)  vcan0  18FED6FE   [8]  6C 63 4D 54 A2 BC 4D 60 :: HSI1(HrdSstmPrttnOvrrdSwth: 0, HrdSstmPrplsnClntLvlSwth: 3, HrdSstmPwrEltrnsClntLvlSwth: 2, HrdSstmOffBrdChrgrCnntnStts: 1, HrdSstmRgnrtvBrkngDslSwth: 3, HrdSstmBrkPdlRgnrtvBrkngDslSwth: 0, HrdSstmPrplsnDslSwth: 2, HybridSystemShutdownSwitch: 1, HrdSstmCstngRgnrtvBrkngLvlSltr: 30.8 %, PwrEltrnsClntFllSwth: 0, PrplsnMtrClntFllSwth: 1)
 (1667490596.266253)  vcan0  18FE55FE   [8]  93 7B 4B 50 F2 5C A1 60 :: GFD(SpecificHeatRatio: 31.635 Ratio, ReferenceEngineGasMassFlowRate: 1027.75 kg/h, Fuelenergycontent: 92.9453125 MJ/(Nm*Nm*Nm))
 (1667490597.266336)  vcan0  0C1DFEFE   [8]  BD E9 A5 71 BA 58 5E 78 :: EIC(EngineTimingAdvance: 267.4765625 deg)
 (1667490598.267875)  vcan0  18FEAEFE   [8]  CD 81 B5 72 CB 2A 5B 3B :: AIR1(PneumaticSupplyPressure: 1640 kPa, ParkingandorTrailerAirPressure: 1032 kPa, ServiceBrakeCircuit1AirPressure: 1448 kPa, ServiceBrakeCircuit2AirPressure: 912 kPa, AxlrEqpmntSpplPrssr: 1624 kPa, AirSuspensionSupplyPressure: 336 kPa, AirCompressorStatus: 3, PwrtrnCrtArSpplPrssr: 472 kPa)
 (1667490599.268064)  vcan0  18FE4EFE   [8]  09 5A 01 77 A4 66 FD 43 :: DC1(Positionofdoors: 9, RampWheelChairLiftPosition: 0, Status2ofdoors: 0)
 (1667490600.268629)  vcan0  0CF015FE   [8]  6B 1A A1 55 AF B2 9C 45 :: RGTACRP(RqstdGnrtrTtlACRtvPwr: -563378581 VA, RqstdGnrtrOvrllPwrFtr: 1.79193115234375, RqstdGnrtrOvrllPwrFtrLggng: 0)
 (1667490601.269505)  vcan0  18FE9AFE   [8]  71 AA B1 3C 58 E6 82 41 :: TCI2(EngnTrhrgr1CmprssrIntkTmprtr: 1090.53125 degC, EngnTrhrgr2CmprssrIntkTmprtr: 212.53125 degC, EngnTrhrgr3CmprssrIntkTmprtr: 1569.75 degC, EngnTrhrgr4CmprssrIntkTmprtr: 251.0625 degC)
 (1667490602.271355)  vcan0  18FED6FE   [8]  75 05 30 2C 6D 9C 8F 7B :: HSI1(HrdSstmPrttnOvrrdSwth: 1, HrdSstmPrplsnClntLvlSwth: 1, HrdSstmPwrEltrnsClntLvlSwth: 3, HrdSstmOffBrdChrgrCnntnStts: 1, HrdSstmRgnrtvBrkngDslSwth: 1, HrdSstmBrkPdlRgnrtvBrkngDslSwth: 1, HrdSstmPrplsnDslSwth: 0, HybridSystemShutdownSwitch: 0, HrdSstmCstngRgnrtvBrkngLvlSltr: 19.200000000000003 %, PwrEltrnsClntFllSwth: 0, PrplsnMtrClntFllSwth: 3)
 (1667490603.271899)  vcan0  18FE6DFE   [8]  62 98 B4 78 8C 2F 35 55 :: HTR(AxlrHtrOtptClntTmprtr: 58 degC, AxlrHtrInptArTmprtr: 112 degC, AxlrHtrOtptPwrPrnt: 72.0 %, AuxiliaryHeaterMode: 8, AuxiliaryHeaterWaterPumpStatus: 0, CabVentilation: 3, EngineHeatingZone: 0, CabHeatingZone: 2, ADRCompliantHeaterInstallation: 3)
 (1667490604.272445)  vcan0  0CD1FEFE   [8]  1E 49 C5 60 A9 B4 61 3A :: ASC6(LevelPresetFrontAxleLeft: -1328.1999999999998 mm, LevelPresetFrontAxleRight: -722.6999999999998 mm, LevelPresetRearAxleLeft: 1424.9000000000005 mm, LevelPresetRearAxleRight: -1705.5 mm)
 (1667490605.272834)  vcan0  18FE56FE   [8]  3D 60 88 5E 16 18 AF 0E :: AT1T1I1(Aftrtrtmnt1DslExhstFldTnkVlm: 24.400000000000002 %, Atttt1DsExstFdTTpt1: 56 degC, Aftrtrtmnt1DslExhstFldTnkLvl: 2420.0 mm, Atttt1DsExstFdTLvVPFMI: 22 binary, AttttDsExstFdTLwLvIdt: 0, Atttt1DsExstFdT1TptPFMI: 24 binary, AftrtrtmntSCROprtrIndmntSvrt: 0, Aftrtrtmnt1DslExhstFldTnkHtr: 70.0 %, Atttt1DsExstFdT1HtPFMI: 14 binary)
 (1667490606.273299)  vcan0  0C1BFEFE   [8]  89 41 6A 23 A9 93 FA 5E :: HVES1C1(HVES1HghVltgBsCnntCmmnd: 1, HVES1PowerDownCommand: 2, HVES1HghVltgBsAtvIsltnTstCmmnd: 0, HVES1HghVltgBsPssvIsltnTstCmmnd: 2, HVES1CellBalancingCommand: 1, HVES1EnlIntrnlChrgrCmmnd: 0, HVES1OperationConsent: 0, HVES1HVtBsHSdRsstCtRqst: 1, HVES1HghVltgBsLwSdRsstrCnntRqst: 2)
 (1667490607.273720)  vcan0  18FE4AFE   [8]  CC 24 E1 75 66 7D A0 50 :: ETC7(TrnsmssnCrrntRngDsplBlnkStt: 0, TransmissionServiceIndicator: 3, TrnsmssnRqstdRngDsplBlnkStt: 0, TrnsmssnRqstdRngDsplFlshStt: 3, TrnsmssnRdfrBrkRls: 0, ActiveShiftConsoleIndicator: 1, TransmissionEngineCrankEnable: 2, TrnsmssnShftInhtIndtr: 0, TransmissionMode4Indicator: 1, TransmissionMode3Indicator: 0, TransmissionMode2Indicator: 2, TransmissionMode1Indicator: 3, TrnsmssnRqstdGrFdk: -8 gear value, TransmissionMode5Indicator: 2, TransmissionMode6Indicator: 1, TransmissionMode7Indicator: 2, TransmissionMode8Indicator: 1, TrnsmssnRvrsGrShftInhtStts: 1, TransmissionWarningIndicator: 3, TransmissionMode9Indicator: 3, TransmissionMode10Indicator: 1, TrnsmssnArSpplPrssrIndtr: 0, TrnsmssnAtNtrlMnlRtrnStt: 4, TransmissionManualModeIndicator: 2)
 (1667490608.288004)  vcan0  18FE56FE   [8]  45 B6 9C 5A 33 FF 55 43 :: AT1T1I1(Aftrtrtmnt1DslExhstFldTnkVlm: 27.6 %, Atttt1DsExstFdTTpt1: 142 degC, Aftrtrtmnt1DslExhstFldTnkLvl: 2319.6 mm, Atttt1DsExstFdTLvVPFMI: 19 binary, AttttDsExstFdTLwLvIdt: 1, Atttt1DsExstFdT1TptPFMI: 31 binary, AftrtrtmntSCROprtrIndmntSvrt: 7, Aftrtrtmnt1DslExhstFldTnkHtr: 34.0 %, Atttt1DsExstFdT1HtPFMI: 3 binary)
 (1667490609.292327)  vcan0  18FE51FE   [8]  0A 39 EC 44 3D 59 57 3A :: ACC2(ACCusagedemand: 2, RequestedACCDistanceMode: 0)
 (1667490610.294054)  vcan0  0CF00DFE   [8]  B9 A4 FD 11 A8 73 F8 0F :: LOI(BladeControlModeSwitch: 9, DesiredGradeOffsetSwitch: 11, BladeAutoModeCommand: 4, LftBldCntrlMdOprtrCntrl: 10, RghtBldCntrlMdOprtrCntrl: 13, LftDsrdBldOffstOprtrCntrl: 15, RghtDsrdBldOffstOprtrCntrl: 1, SdshftBldCntrlMdOprtrCntrl: 1, SdshftDsrdBldOffstOprtrCntrl: 8, StElvtnSnsr1RfrnElvtn: 2, StElvtnSnsr2RfrnElvtn: 2)
 (1667490611.301335)  vcan0  0C09FEFE   [8]  FA 7B 26 2B 19 1E AA 4C :: SRASI(StaticRollAngle: 125 deg, StaticRollAngleStatus: 3)
 (1667490612.309762)  vcan0  18FE69FE   [8]  19 29 8C 18 8F 23 DA 78 :: ET3(EngnIntkMnfld1TmprtrHghRsltn: 55.78125 degC, EngnClntTmprtrHghRsltn: -76.625 degC, EngnIntkVlvAttnSstmOlTmprtr: 11.46875 degC, EngnChrgArClr1OtltTmprtr: 693.8125 degC)
 (1667490936.961588)  vcan0  0C04FEFE   [8]  5E CE 0B 60 DD FF 46 31 :: XBR(ExternalAccelerationDemand: 10.1088984375 m/(s*s), XBREBIMode: 3, XBRPriority: 2, XBRControlMode: 0, XBRurgency: 38.400000000000006 %, XBRMessageCounter: 1 count, XBRMessageChecksum: 3 count)
 (1667490937.963012)  vcan0  18FEBFFE   [8]  0E CC 21 48 43 31 E0 2B :: EBC2(FrontAxleSpeed: 204.0546875 km/h, RelativeSpeedFrontAxleLeftWheel: -5.75 km/h, RltvSpdFrntAxlRghtWhl: -3.3125 km/h, RelativeSpeedRearAxle1LeftWheel: -3.625 km/h, RltvSpdRrAxl1RghtWhl: -4.75 km/h, RelativeSpeedRearAxle2LeftWheel: 6.1875 km/h, RltvSpdRrAxl2RghtWhl: -5.125 km/h)
 (1667490938.963431)  vcan0  0C1DFEFE   [8]  B3 72 7B 48 72 F2 4A 0D :: EIC(EngineTimingAdvance: 29.3984375 deg)
 (1667490939.963560)  vcan0  18FEA6FE   [8]  DE 5B 4C 21 26 5F 1D 5C :: IMT1(EngnTrhrgr1BstPrssr: 2939.75 kPa, EngnTrhrgr2BstPrssr: 1065.5 kPa, EngnTrhrgr3BstPrssr: 3044.75 kPa, EngnTrhrgr4BstPrssr: 2947.625 kPa)
 (1667490940.964644)  vcan0  18FED5FE   [8]  DA 85 DD 7E 76 C4 E8 12 :: AS(AlternatorSpeed: 17133.0 rpm, Alternator1Status: 1, Alternator2Status: 3, Alternator3Status: 1, Alternator4Status: 3)
 (1667490941.965514)  vcan0  0C08FEFE   [8]  F8 36 36 4F D3 8E 18 0C :: AUXIO5(AuxiliaryIOChannel6: 14072 count, AuxiliaryIOChannel5: 20278 count, AuxiliaryIOChannel4: 36563 count, AuxiliaryIOChannel3: 3096 count)
 (1667490942.970937)  vcan0  0C1DFEFE   [8]  CE 4B 9B 0E 52 72 C2 7C :: EIC(EngineTimingAdvance: -48.390625 deg)
 (1667490943.971876)  vcan0  18FE58FE   [8]  A2 9B 9F 08 F9 9D AE 2C :: ASC4(BellowPressureFrontAxleLeft: 3984.2000000000003 kPa, BellowPressureFrontAxleRight: 220.70000000000002 kPa, BellowPressureRearAxleLeft: 4044.1000000000004 kPa, BellowPressureRearAxleRight: 1143.8 kPa)
 (1667490944.977316)  vcan0  18FE98FE   [8]  D3 DD A0 57 22 C9 0D 53 :: TCI4(EngnTrhrgr1TrnIntkTmprtr: 1501.59375 degC, EngnTrhrgr2TrnIntkTmprtr: 428.0 degC, EngnTrhrgr3TrnIntkTmprtr: 1336.0625 degC, EngnTrhrgr4TrnIntkTmprtr: 391.40625 degC)
 (1667490946.008728)  vcan0  0CF004FE   [8]  50 0D FD 5F A3 63 FA 4E :: EEC1(EngineTorqueMode: 0, AtlEngnPrntTrqFrtnl: 0.625 %, DrvrsDmndEngnPrntTrq: -112 %, ActualEnginePercentTorque: 128 %, EngineSpeed: 5227.875 rpm, SrAddrssfCntrllngDvfrEngnCntrl: 99 SA, EngineStarterMode: 10, EngineDemandPercentTorque: -47 %)
 (1667490947.009429)  vcan0  0CF003FE   [8]  6A 0B 9D 4F 02 32 06 2F :: EEC2(AcceleratorPedal1LowIdleSwitch: 2, AcceleratorPedalKickdownSwitch: 2, RoadSpeedLimitStatus: 2, AcceleratorPedal2LowIdleSwitch: 1, AcceleratorPedalPosition1: 4.4 %, EnginePercentLoadAtCurrentSpeed: 157 %, RemoteAcceleratorPedalPosition: 31.6 %, AcceleratorPedal2Position: 0.8 %, VhlAlrtnRtLmtStts: 2, MmntrEngnMxmmPwrEnlFdk: 0, DPFThermalManagementActive: 3, SCRThermalManagementActive: 0, AtlMxmmAvllEngnPrntTrq: 2.4000000000000004 %, EstimatedPumpingPercentTorque: -78 %)
 (1667490948.009560)  vcan0  0CD1FEFE   [8]  65 57 F4 60 10 FE 27 77 :: ASC6(LevelPresetFrontAxleLeft: -962.6999999999998 mm, LevelPresetFrontAxleRight: -718.0 mm, LevelPresetRearAxleLeft: 3304.0 mm, LevelPresetRearAxleRight: -149.69999999999982 mm)
 (1667490949.010865)  vcan0  0CF003FE   [8]  C7 8C 93 16 C3 70 A3 3F :: EEC2(AcceleratorPedal1LowIdleSwitch: 3, AcceleratorPedalKickdownSwitch: 1, RoadSpeedLimitStatus: 0, AcceleratorPedal2LowIdleSwitch: 3, AcceleratorPedalPosition1: 56.0 %, EnginePercentLoadAtCurrentSpeed: 147 %, RemoteAcceleratorPedalPosition: 8.8 %, AcceleratorPedal2Position: 78.0 %, VhlAlrtnRtLmtStts: 0, MmntrEngnMxmmPwrEnlFdk: 0, DPFThermalManagementActive: 3, SCRThermalManagementActive: 1, AtlMxmmAvllEngnPrntTrq: 65.2 %, EstimatedPumpingPercentTorque: -62 %)
 (1667490950.011995)  vcan0  18FE53FE   [8]  9F 7D BC 3F A1 CC EF 60 :: RTC1(LwLmtThrshldfrMxmmRPMfrmRtrdr: 5088 rpm, HLtTsdMCtsRPMRtd: 4000 rpm, LwLmtThrshldfrMxmmTrqfrmRtrdr: 63 %, HLtTsdMCtsTqRtd: -62 %, MaximumContinuousRetarderSpeed: 5152 rpm, MinimumContinuousRetarderSpeed: 6528 rpm, MaximumContinuousRetarderTorque: 114 %, MinimumContinuousRetarderTorque: -29 %)
 (1667490951.012484)  vcan0  18FE5BFE   [8]  5D A7 8F 2A 7B 52 CD 5F :: FLI2(LaneTrackingStatusRightSide: 3, LaneTrackingStatusLeftSide: 1, LnDprtrIndtnEnlStts: 1, DriverAlertnessLevel: 66.8 %, DrvrAlrtnssWrnngSstmStt: 7, LeftWheelLaneDepartureDistance: -83 cm, RightWheelLaneDepartureDistance: -2 cm, LaneDepartureWarningSystemState: 13, ForwardLaneImagerStatus: 12)
 (1667490952.012971)  vcan0  0CD2FEFE   [8]  38 79 4B 36 73 89 03 2F :: ASC2(Atmttrtnhlpldtrnsfr: 0, KneelingRequestLeftSide: 2, KneelingRequestRightSide: 3, KneelingControlModeRequest: 0, NominalLevelRequestFrontAxle: 9, NominalLevelRequestRearAxle: 7, LevelControlModeRequest: 11, LiftAxle1PositionCommand: 0, LiftAxle2PositionCommand: 1, DamperStiffnessRequestFrontAxle: 21.6 %, DamperStiffnessRequestRearAxle: 46.0 %, DmprStffnssRqstLftTgAxl: 54.800000000000004 %, KneelingCommandFrontAxle: 3, KneelingCommandRearAxle: 0, Prohibitairsuspensioncontrol: 0, AllwLvlCntrlDrngBrkngCmmnd: 0, SpdDpndntLvlCntrlRqst: 3, PrhtAtmtArSspnsnCntrl: 3, Memorylevelrequest: 2)
 (1667490953.014622)  vcan0  18FE52FE   [8]  5B 8F 42 37 41 D5 9E 3D :: VEP3(AltrntrCrrntHghRngRsltn: 234.95000000000005 A, SLIBttr1NtCrrntHghRngRsltn: -892.6999999999999 A, SLIBattery2NetCurrent: 1129.65 A)
 (1667490954.015055)  vcan0  0CF00CFE   [8]  59 44 80 08 E4 70 3E 46 :: ETC8(TrnsmssnTrqCnvrtrRt: 17.497 Ratio, TrnsmssnClthCnvrtrInptSpd: 272.0 rpm, TransmissionShiftInhibitReason: 228, TrnsmssnTrqCnvrtrLkpInhtRsn: 112, TrnsmssnTrqCnvrtrLkpInhtIndtr: 2)
 (1667490955.015559)  vcan0  18FE4EFE   [8]  B8 8C BE 5C B7 4E DF 1D :: DC1(Positionofdoors: 8, RampWheelChairLiftPosition: 3, Status2ofdoors: 2)
 (1667490956.017034)  vcan0  18FE6DFE   [8]  A1 D3 5A 72 07 5C DC 7D :: HTR(AxlrHtrOtptClntTmprtr: 121 degC, AxlrHtrInptArTmprtr: 171 degC, AxlrHtrOtptPwrPrnt: 36.0 %, AuxiliaryHeaterMode: 2, AuxiliaryHeaterWaterPumpStatus: 3, CabVentilation: 1, EngineHeatingZone: 0, CabHeatingZone: 0, ADRCompliantHeaterInstallation: 0)
 (1667490957.020386)  vcan0  18FE53FE   [8]  69 37 CD 52 71 67 79 4D :: RTC1(LwLmtThrshldfrMxmmRPMfrmRtrdr: 3360 rpm, HLtTsdMCtsRPMRtd: 1760 rpm, LwLmtThrshldfrMxmmTrqfrmRtrdr: 80 %, HLtTsdMCtsTqRtd: -43 %, MaximumContinuousRetarderSpeed: 3616 rpm, MinimumContinuousRetarderSpeed: 3296 rpm, MaximumContinuousRetarderTorque: -4 %, MinimumContinuousRetarderTorque: -48 %)
 (1667490958.026204)  vcan0  0C09FEFE   [8]  0F 9B 86 64 D6 BE 6D 2E :: SRASI(StaticRollAngle: -110 deg, StaticRollAngleStatus: 3)
 (1667490959.026537)  vcan0  0C09FEFE   [8]  F7 2F 20 22 9E 4B 01 45 :: SRASI(StaticRollAngle: 122 deg, StaticRollAngleStatus: 7)
 (1667490960.026851)  vcan0  0C0DFEFE   [8]  52 B7 04 6D 3D C9 BD 04 :: TC2(TransmissionMode9: 2, TransmissionMode10: 0)
 (1667490961.027157)  vcan0  0CF018FE   [8]  D2 9D 06 14 9A 70 4D 2F :: KL2(EngineCylinder9KnockLevel: 210 %, EngineCylinder10KnockLevel: 157 %, EngineCylinder11KnockLevel: 6 %, EngineCylinder12KnockLevel: 20 %, EngineCylinder13KnockLevel: 154 %, EngineCylinder14KnockLevel: 112 %, EngineCylinder15KnockLevel: 77 %, EngineCylinder16KnockLevel: 47 %)
 (1667490962.027513)  vcan0  18FE94FE   [8]  C9 48 F1 4D D2 E9 98 65 :: EAC(EngineAuxiliaryCoolantPressure: 804 kPa, EngnAxlrClntTmprtr: 32 degC, SeaWaterPumpOutletPressure: 482 kPa, EngnClntPrssr1ExtnddRng: 308 kPa, EngnClntPrssr2ExtnddRng: 840 kPa, EngnClntPmpClntOtltPrssr: 466 kPa)
 (1667490963.028327)  vcan0  18FE5BFE   [8]  92 82 F4 13 2D 79 DB 1C :: FLI2(LaneTrackingStatusRightSide: 0, LaneTrackingStatusLeftSide: 1, LnDprtrIndtnEnlStts: 2, DriverAlertnessLevel: 52.0 %, DrvrAlrtnssWrnngSstmStt: 4, LeftWheelLaneDepartureDistance: -106 cm, RightWheelLaneDepartureDistance: -80 cm, LaneDepartureWarningSystemState: 11, ForwardLaneImagerStatus: 13)
 (1667490964.028936)  vcan0  0C1CFEFE   [8]  AE 2E BA 56 86 BD 5B 25 :: TC3(TransmissionOverrideControlMode: 2, TrnsmssnOvrrdCntrlMdPrrt: 3, MessageCounter: 10 count, TrnsmssnRqstdOtptShftSpd: 3883.75 rpm, TrnsmssnRqstdTrqTrqLmt: -39 %, MessageChecksum: 37 count)
 (1667490959.026537)  vcan0  0C09FEFE   [8]  F7 2F 20 22 9E 4B 01 45 :: SRASI(StaticRollAngle: 122 deg, StaticRollAngleStatus: 7)
 (1667490960.026851)  vcan0  0C0DFEFE   [8]  52 B7 04 6D 3D C9 BD 04 :: TC2(TransmissionMode9: 2, TransmissionMode10: 0)
 (1667490961.027157)  vcan0  0CF018FE   [8]  D2 9D 06 14 9A 70 4D 2F :: KL2(EngineCylinder9KnockLevel: 210 %, EngineCylinder10KnockLevel: 157 %, EngineCylinder11KnockLevel: 6 %, EngineCylinder12KnockLevel: 20 %, EngineCylinder13KnockLevel: 154 %, EngineCylinder14KnockLevel: 112 %, EngineCylinder15KnockLevel: 77 %, EngineCylinder16KnockLevel: 47 %)
 (1667490962.027513)  vcan0  18FE94FE   [8]  C9 48 F1 4D D2 E9 98 65 :: EAC(EngineAuxiliaryCoolantPressure: 804 kPa, EngnAxlrClntTmprtr: 32 degC, SeaWaterPumpOutletPressure: 482 kPa, EngnClntPrssr1ExtnddRng: 308 kPa, EngnClntPrssr2ExtnddRng: 840 kPa, EngnClntPmpClntOtltPrssr: 466 kPa)
 (1667490963.028327)  vcan0  18FE5BFE   [8]  92 82 F4 13 2D 79 DB 1C :: FLI2(LaneTrackingStatusRightSide: 0, LaneTrackingStatusLeftSide: 1, LnDprtrIndtnEnlStts: 2, DriverAlertnessLevel: 52.0 %, DrvrAlrtnssWrnngSstmStt: 4, LeftWheelLaneDepartureDistance: -106 cm, RightWheelLaneDepartureDistance: -80 cm, LaneDepartureWarningSystemState: 11, ForwardLaneImagerStatus: 13)
 (1667490964.028936)  vcan0  0C1CFEFE   [8]  AE 2E BA 56 86 BD 5B 25 :: TC3(TransmissionOverrideControlMode: 2, TrnsmssnOvrrdCntrlMdPrrt: 3, MessageCounter: 10 count, TrnsmssnRqstdOtptShftSpd: 3883.75 rpm, TrnsmssnRqstdTrqTrqLmt: -39 %, MessageChecksum: 37 count)
 (1667490965.029328)  vcan0  18FEA0FE   [8]  C3 78 2E 46 3F 4A 1A 02 :: EPT4(EngnExhstGsPrt13Tmprtr: 693.09375 degC, EngnExhstGsPrt14Tmprtr: 288.4375 degC, EngnExhstGsPrt15Tmprtr: 320.96875 degC, EngnExhstGsPrt16Tmprtr: -256.1875 degC)
 (1667490966.029991)  vcan0  18FE55FE   [8]  FA 8B B0 08 E0 1D 75 74 :: GFD(SpecificHeatRatio: 35.834 Ratio, ReferenceEngineGasMassFlowRate: 111.2 kg/h, Fuelenergycontent: 29.875 MJ/(Nm*Nm*Nm))
 (1667490967.030094)  vcan0  18FE4BFE   [8]  D4 02 2D 1A 4A 55 42 47 :: TCFG2(TransmissionTorqueLimit: 724 Nm, TransmissionReferenceTorque: 6701 Nm, TrnsmssnCmmntnsFlrIdlTrqLmt: -51 %)
 (1667490968.031744)  vcan0  08F02DFE   [8]  B1 AB AF 5A 59 F0 C8 2B :: ACCS(LtrlAlrtnExtnddRng: 119.53000000000003 m/(s*s), LngtdnlAlrtnExtnddRng: -87.85 m/(s*s), VrtlAlrtnExtnddRng: 295.28999999999996 m/(s*s), LtrlAlrtnFgrfMrtExtnddRng: 0, LngtdnlAlrtnFgrfMrtExtnddRng: 2, VrtlAlrtnFgrfMrtExtnddRng: 0, SpptVTsssRpttRtAtSs: 3)
 (1667490969.032059)  vcan0  0C08FEFE   [8]  9D 52 5A 12 50 20 E9 4D :: AUXIO5(AuxiliaryIOChannel6: 21149 count, AuxiliaryIOChannel5: 4698 count, AuxiliaryIOChannel4: 8272 count, AuxiliaryIOChannel3: 19945 count)
 (1667490970.032390)  vcan0  0C01FEFE   [8]  4D 6A A8 09 A2 D7 ED 3A :: TC1(TrnsmssnGrShftInhtRqst: 1, TrnsmssnTrqCnvrtrLkpRqst: 3, DisengageDrivelineRequest: 0, TrnsmssnRvrsGrShftInhtRqst: 1, RequestedPercentClutchSlip: 42.400000000000006 %, TransmissionRequestedGear: 43 gear value, DsnggDffrntlLkRqstFrntAxl1: 1, DsnggDffrntlLkRqstFrntAxl2: 2, DsnggDffrntlLkRqstRrAxl1: 0, DsnggDffrntlLkRqstRrAxl2: 0, DsnggDffrntlLkRqstCntrl: 2, DsnggDffrntlLkRqstCntrlFrnt: 0, DsnggDffrntlLkRqstCntrlRr: 2, TrnsmssnLdRdtnInhtRqst: 2, TransmissionMode1: 3, TransmissionMode2: 1, TransmissionMode3: 1, TransmissionMode4: 3, TrnsmssnAtNtrlMnlRtrnRqst: 1, TransmissionRequestedLaunchGear: 11, TrnsmssnShftSltrDsplMdSwth: 3, TransmissionMode5: 2, TransmissionMode6: 2, TransmissionMode7: 3, TransmissionMode8: 0)
 (1667490971.033017)  vcan0  18FE6BFE   [8]  9E 4E E6 61 75 75 F4 4E :: DI(Driver1identification: 158 ASCII, Driver2identification: 78 ASCII)
 (1667490972.033198)  vcan0  18FE99FE   [8]  6A 85 F1 19 3E BE E5 1C :: TCI3(EngnTrhrgr1CmprssrIntkPrssr: 16.828125 kPa, EngnTrhrgr2CmprssrIntkPrssr: -198.1171875 kPa, EngnTrhrgr3CmprssrIntkPrssr: 130.484375 kPa, EngnTrhrgr4CmprssrIntkPrssr: -192.2109375 kPa)
 (1667490973.033875)  vcan0  04F032FE   [8]  AA 45 00 01 D0 40 DA 30 :: LDISP(MeasuredLinearDisplacement: 1783.4 mm, LnrDsplmntSnsrSnsrFgrfMrt: 0)
 (1667490974.034015)  vcan0  0C1BFEFE   [8]  2C DB AD 25 7E 6F 94 07 :: HVES1C1(HVES1HghVltgBsCnntCmmnd: 0, HVES1PowerDownCommand: 3, HVES1HghVltgBsAtvIsltnTstCmmnd: 2, HVES1HghVltgBsPssvIsltnTstCmmnd: 0, HVES1CellBalancingCommand: 3, HVES1EnlIntrnlChrgrCmmnd: 2, HVES1OperationConsent: 1, HVES1HVtBsHSdRsstCtRqst: 3, HVES1HghVltgBsLwSdRsstrCnntRqst: 1)
 (1667490975.034347)  vcan0  18FE6BFE   [8]  91 E1 99 10 41 E8 C2 4D :: DI(Driver1identification: 145 ASCII, Driver2identification: 225 ASCII)
 (1667490976.034595)  vcan0  18FEA0FE   [8]  AE 36 65 19 3B 74 73 56 :: EPT4(EngnExhstGsPrt13Tmprtr: 164.4375 degC, EngnExhstGsPrt14Tmprtr: -69.84375 degC, EngnExhstGsPrt15Tmprtr: 656.84375 degC, EngnExhstGsPrt16Tmprtr: 418.59375 degC)
 (1667490977.035132)  vcan0  18FE4FFE   [8]  D1 E7 0C 20 10 77 A0 70 :: VDC1(VDCInformationSignal: 1, VDCFullyOperational: 0, VDCbrakelightrequest: 1, ROPEngineControlactive: 3, ROPBrakeControlactive: 1, YCEngineControlactive: 2, YCBrakeControlactive: 3, TrailerVDCActive: 0)
 (1667490978.036485)  vcan0  18FE99FE   [8]  66 00 2E 74 C1 22 50 4B :: TCI3(EngnTrhrgr1CmprssrIntkPrssr: -249.203125 kPa, EngnTrhrgr2CmprssrIntkPrssr: -17.640625 kPa, EngnTrhrgr3CmprssrIntkPrssr: -180.4921875 kPa, EngnTrhrgr4CmprssrIntkPrssr: -99.375 kPa)
 (1667490979.037541)  vcan0  18FEAEFE   [8]  D1 D7 BC 76 5E 75 AA 5D :: AIR1(PneumaticSupplyPressure: 1672 kPa, ParkingandorTrailerAirPressure: 1720 kPa, ServiceBrakeCircuit1AirPressure: 1504 kPa, ServiceBrakeCircuit2AirPressure: 944 kPa, AxlrEqpmntSpplPrssr: 752 kPa, AirSuspensionSupplyPressure: 936 kPa, AirCompressorStatus: 2, PwrtrnCrtArSpplPrssr: 744 kPa)
 (1667490980.038493)  vcan0  0CF004FE   [8]  DA FA 4C 3E AB DF 52 67 :: EEC1(EngineTorqueMode: 10, AtlEngnPrntTrqFrtnl: 1.625 %, DrvrsDmndEngnPrntTrq: 125 %, ActualEnginePercentTorque: -49 %, EngineSpeed: 5479.75 rpm, SrAddrssfCntrllngDvfrEngnCntrl: 223 SA, EngineStarterMode: 2, EngineDemandPercentTorque: -22 %)
 (1667490981.039459)  vcan0  18FE94FE   [8]  20 E7 9A 0A 49 2E 39 49 :: EAC(EngineAuxiliaryCoolantPressure: 128 kPa, EngnAxlrClntTmprtr: 191 degC, SeaWaterPumpOutletPressure: 308 kPa, EngnClntPrssr1ExtnddRng: 40 kPa, EngnClntPrssr2ExtnddRng: 292 kPa, EngnClntPmpClntOtltPrssr: 92 kPa)
 (1667490982.040408)  vcan0  04F031FE   [8]  00 44 36 06 B4 B3 2A 63 :: WAND(WandAngle: -29.183999999999997 deg, WandSensorFigureofMerit: 2)
 (1667490983.040698)  vcan0  18FE59FE   [8]  B2 8A 6A 67 5E F9 2A 64 :: ASC3(RelativeLevelFrontAxleLeft: 350.60000000000036 mm, RelativeLevelFrontAxleRight: -552.5999999999999 mm, RelativeLevelRearAxleLeft: 3183.8 mm, RelativeLevelRearAxleRight: -635.7999999999997 mm)
 (1667490984.041251)  vcan0  0C0DFEFE   [8]  92 4A 7A 65 8A D4 D8 09 :: TC2(TransmissionMode9: 2, TransmissionMode10: 0)
 (1667490985.041327)  vcan0  18FED5FE   [8]  F9 C7 E5 08 1C B6 72 1A :: AS(AlternatorSpeed: 25596.5 rpm, Alternator1Status: 1, Alternator2Status: 1, Alternator3Status: 2, Alternator4Status: 3)
 (1667490986.043983)  vcan0  18FE98FE   [8]  9E 8F 6B 2E CA EC D7 33 :: TCI4(EngnTrhrgr1TrnIntkTmprtr: 875.9375 degC, EngnTrhrgr2TrnIntkTmprtr: 98.34375 degC, EngnTrhrgr3TrnIntkTmprtr: 1621.3125 degC, EngnTrhrgr4TrnIntkTmprtr: 141.71875 degC)
 (1667490987.044249)  vcan0  18FEBFFE   [8]  24 75 66 48 9B D4 E4 53 :: EBC2(FrontAxleSpeed: 117.140625 km/h, RelativeSpeedFrontAxleLeftWheel: -1.4375 km/h, RltvSpdFrntAxlRghtWhl: -3.3125 km/h, RelativeSpeedRearAxle1LeftWheel: 1.875 km/h, RltvSpdRrAxl1RghtWhl: 5.4375 km/h, RelativeSpeedRearAxle2LeftWheel: 6.4375 km/h, RltvSpdRrAxl2RghtWhl: -2.625 km/h)
 (1667490988.044786)  vcan0  18FE90FE   [8]  F4 AF A3 29 01 D5 12 48 :: unpack requires at least 264 bits to unpack (got 64)
 (1667490989.045131)  vcan0  0CF00DFE   [8]  1D DB A9 36 D2 AC CF 3E :: LOI(BladeControlModeSwitch: 13, DesiredGradeOffsetSwitch: 1, BladeAutoModeCommand: 11, LftBldCntrlMdOprtrCntrl: 13, RghtBldCntrlMdOprtrCntrl: 9, LftDsrdBldOffstOprtrCntrl: 10, RghtDsrdBldOffstOprtrCntrl: 6, SdshftBldCntrlMdOprtrCntrl: 3, SdshftDsrdBldOffstOprtrCntrl: 2, StElvtnSnsr1RfrnElvtn: 1, StElvtnSnsr2RfrnElvtn: 3)
 (1667491278.338324)  vcan0  18FE55FE   [8]  03 A3 35 34 FE B9 96 13 :: GFD(SpecificHeatRatio: 41.731 Ratio, ReferenceEngineGasMassFlowRate: 668.25 kg/h, Fuelenergycontent: 185.9921875 MJ/(Nm*Nm*Nm))
 (1667491279.338588)  vcan0  18FEBFFE   [8]  AC F2 02 3C 47 2C 63 64 :: EBC2(FrontAxleSpeed: 242.671875 km/h, RelativeSpeedFrontAxleLeftWheel: -7.6875 km/h, RltvSpdFrntAxlRghtWhl: -4.0625 km/h, RelativeSpeedRearAxle1LeftWheel: -3.375 km/h, RltvSpdRrAxl1RghtWhl: -5.0625 km/h, RelativeSpeedRearAxle2LeftWheel: -1.625 km/h, RltvSpdRrAxl2RghtWhl: -1.5625 km/h)
 (1667491280.340126)  vcan0  0CF018FE   [8]  D3 9E AB 1A F8 79 0A 5C :: KL2(EngineCylinder9KnockLevel: 211 %, EngineCylinder10KnockLevel: 158 %, EngineCylinder11KnockLevel: 171 %, EngineCylinder12KnockLevel: 26 %, EngineCylinder13KnockLevel: 248 %, EngineCylinder14KnockLevel: 121 %, EngineCylinder15KnockLevel: 10 %, EngineCylinder16KnockLevel: 92 %)
 (1667491281.340742)  vcan0  18FE6DFE   [8]  C9 FC 8A 33 DB 36 99 4D :: HTR(AxlrHtrOtptClntTmprtr: 161 degC, AxlrHtrInptArTmprtr: 212 degC, AxlrHtrOtptPwrPrnt: 55.2 %, AuxiliaryHeaterMode: 3, AuxiliaryHeaterWaterPumpStatus: 3, CabVentilation: 2, EngineHeatingZone: 1, CabHeatingZone: 3, ADRCompliantHeaterInstallation: 2)
 (1667491282.341417)  vcan0  18FE8FFE   [8]  3E 3A 27 1F 88 3D 4C 56 :: SP2(EngnExtrnlShtdwnArSpplPrssr: 7455.0 kPa)
 (1667491283.341972)  vcan0  18FE9CFE   [8]  51 02 87 00 2B B2 E2 33 :: MBT3(EngineMainBearing9Temperature: -254.46875 degC, EngineMainBearing10Temperature: -268.78125 degC, EngineMainBearing11Temperature: 1152.34375 degC, EngineMainBearing12Temperature: 142.0625 degC)
 (1667491284.342922)  vcan0  18FE90FE   [8]  0E 52 D3 10 F8 DD D3 40 :: unpack requires at least 264 bits to unpack (got 64)
 (1667491285.344515)  vcan0  18FE4EFE   [8]  EE 54 6B 78 52 8F E2 25 :: DC1(Positionofdoors: 14, RampWheelChairLiftPosition: 2, Status2ofdoors: 3)
 (1667491286.344766)  vcan0  08F02DFE   [8]  18 E9 9A 37 69 20 81 24 :: ACCS(LtrlAlrtnExtnddRng: 276.72 m/(s*s), LngtdnlAlrtnExtnddRng: -177.66 m/(s*s), VrtlAlrtnExtnddRng: -237.03 m/(s*s), LtrlAlrtnFgrfMrtExtnddRng: 1, LngtdnlAlrtnFgrfMrtExtnddRng: 0, VrtlAlrtnFgrfMrtExtnddRng: 0, SpptVTsssRpttRtAtSs: 2)
 (1667491287.345040)  vcan0  18FE4BFE   [8]  86 30 8A 7D 45 D0 29 19 :: TCFG2(TransmissionTorqueLimit: 12422 Nm, TransmissionReferenceTorque: 32138 Nm, TrnsmssnCmmntnsFlrIdlTrqLmt: -56 %)
 (1667491288.345805)  vcan0  0CF014FE   [8]  62 EB EF 0E 48 73 5F 4D :: BI(RelativeBladeHeight: 2825.8 mm, BladeRotationAngle: -170.1328125 deg, RtvBdHtdBdRttAMstLt: 36.0 ms, RltvBldHghtFgrfMrt: 3, BladeRotationAngleFigureofMerit: 0)
 (1667491289.346541)  vcan0  0CF00DFE   [8]  9D DC 53 1A F4 65 62 09 :: LOI(BladeControlModeSwitch: 13, DesiredGradeOffsetSwitch: 9, BladeAutoModeCommand: 12, LftBldCntrlMdOprtrCntrl: 13, RghtBldCntrlMdOprtrCntrl: 3, LftDsrdBldOffstOprtrCntrl: 5, RghtDsrdBldOffstOprtrCntrl: 10, SdshftBldCntrlMdOprtrCntrl: 1, SdshftDsrdBldOffstOprtrCntrl: 4, StElvtnSnsr1RfrnElvtn: 3, StElvtnSnsr2RfrnElvtn: 3)
 (1667491290.347404)  vcan0  0C1EFEFE   [8]  DE 5C 62 57 C7 04 0E 24 :: ALTC(AltrntrStpntVltgCmmnd: 23.774 V, AltrntrExttnMxmmCrrntLmt: 24.5 A, AlternatorTorqueRampTimeCommand: 8.700000000000001 s, AltrntrTrqRmpMxmmSpdCmmnd: 6368 rpm)
 (1667491291.348317)  vcan0  0CF00CFE   [8]  56 35 E1 2B 90 01 99 57 :: ETC8(TrnsmssnTrqCnvrtrRt: 13.654 Ratio, TrnsmssnClthCnvrtrInptSpd: 1404.125 rpm, TransmissionShiftInhibitReason: 144, TrnsmssnTrqCnvrtrLkpInhtRsn: 1, TrnsmssnTrqCnvrtrLkpInhtIndtr: 1)
 (1667491292.348569)  vcan0  18FEA4FE   [8]  E0 2F 8E 0E CE 3B C0 76 :: ET2(EngineOilTemperature2: 110.0 degC, EngineECUTemperature: -156.5625 degC, EngnExhstGsRrltn1DffrntlPrssr: -130.390625 kPa, EngnExhstGsRrltn1Tmprtr: 677.0 degC)
 (1667491293.351458)  vcan0  18FE59FE   [8]  B2 D3 D8 3A 1F 3E 47 77 :: ASC3(RelativeLevelFrontAxleLeft: 2219.4000000000005 mm, RelativeLevelFrontAxleRight: -1693.6 mm, RelativeLevelRearAxleLeft: -1609.6999999999998 mm, RelativeLevelRearAxleRight: -146.5 mm)
 (1667491294.352339)  vcan0  0C04FEFE   [8]  BD 5A A0 14 2D 90 1A 08 :: XBR(ExternalAccelerationDemand: -4.344714843749999 m/(s*s), XBREBIMode: 0, XBRPriority: 0, XBRControlMode: 2, XBRurgency: 8.0 %, XBRMessageCounter: 8 count, XBRMessageChecksum: 0 count)
 (1667491295.352476)  vcan0  18FE9CFE   [8]  02 A0 CC 6E 1B E5 85 00 :: MBT3(EngineMainBearing9Temperature: 1007.0625 degC, EngineMainBearing10Temperature: 613.375 degC, EngineMainBearing11Temperature: 1559.84375 degC, EngineMainBearing12Temperature: -268.84375 degC)
 (1667491296.352982)  vcan0  08F02DFE   [8]  A6 28 84 04 33 CE 20 38 :: ACCS(LtrlAlrtnExtnddRng: -215.94 m/(s*s), LngtdnlAlrtnExtnddRng: -308.44 m/(s*s), VrtlAlrtnExtnddRng: 207.87 m/(s*s), LtrlAlrtnFgrfMrtExtnddRng: 0, LngtdnlAlrtnFgrfMrtExtnddRng: 0, VrtlAlrtnFgrfMrtExtnddRng: 2, SpptVTsssRpttRtAtSs: 0)
 (1667491297.353122)  vcan0  18FE96FE   [8]  59 71 55 37 B9 FE AA 35 :: TCW(EngnTrhrgrWstgtAttr1Pstn: 35.6 %, EngnTrhrgrWstgtAttr2Pstn: 45.2 %, EngnTrhrgrWstgtAttr3Pstn: 34.0 %, EngnTrhrgrWstgtAttr4Pstn: 22.0 %, EngnTrhrgrWstgtAttrCntrlArPrssr: 740 kPa, EngnTrhrgrWstgtAttr1DsrdPstn: 101.60000000000001 %, EngnTrhrgrWstgtAttr1PrlmnrFMI: 10 binary, EngnTrhrgrWstgtAttr1TmprtrStts: 5, EngnTrhrgrWstgtAttr2DsrdPstn: 21.200000000000003 %)
 (1667491298.353697)  vcan0  18FE9CFE   [8]  D8 CD B8 7B 1B EA 9A 44 :: MBT3(EngineMainBearing9Temperature: 1373.75 degC, EngineMainBearing10Temperature: 716.75 degC, EngineMainBearing11Temperature: 1599.84375 degC, EngineMainBearing12Temperature: 275.8125 degC)
 (1667491299.358864)  vcan0  0C04FEFE   [8]  54 E4 B2 53 B9 C6 EE 5E :: XBR(ExternalAccelerationDemand: 12.854015625 m/(s*s), XBREBIMode: 2, XBRPriority: 0, XBRControlMode: 3, XBRurgency: 33.2 %, XBRMessageCounter: 14 count, XBRMessageChecksum: 5 count)
 (1667491300.359752)  vcan0  18FE97FE   [8]  18 27 10 10 97 23 51 36 :: TCI5(EngnTrhrgr1TrnOtltTmprtr: 39.75 degC, EngnTrhrgr2TrnOtltTmprtr: -144.5 degC, EngnTrhrgr3TrnOtltTmprtr: 11.71875 degC, EngnTrhrgr4TrnOtltTmprtr: 161.53125 degC)
 (1667491301.359972)  vcan0  18FE4FFE   [8]  D3 E3 77 28 ED 58 32 62 :: VDC1(VDCInformationSignal: 3, VDCFullyOperational: 0, VDCbrakelightrequest: 1, ROPEngineControlactive: 3, ROPBrakeControlactive: 0, YCEngineControlactive: 2, YCBrakeControlactive: 3, TrailerVDCActive: 3)
 (1667491302.360124)  vcan0  18FE4FFE   [8]  6A D7 78 0E CD 88 C0 70 :: VDC1(VDCInformationSignal: 2, VDCFullyOperational: 2, VDCbrakelightrequest: 2, ROPEngineControlactive: 3, ROPBrakeControlactive: 1, YCEngineControlactive: 1, YCBrakeControlactive: 3, TrailerVDCActive: 0)
 (1667491303.360278)  vcan0  0CD1FEFE   [8]  89 08 C6 4A 80 5C 99 2B :: ASC6(LevelPresetFrontAxleLeft: -2981.5 mm, LevelPresetFrontAxleRight: -1285.8 mm, LevelPresetRearAxleLeft: -832.0 mm, LevelPresetRearAxleRight: -2083.8999999999996 mm)
 (1667491304.360600)  vcan0  18FE4CFE   [8]  D3 EB F5 3A 3D B7 39 40 :: ML(RearBlackOutMarkerSelect: 3, FrontBlackOutMarkerLampSelect: 0, ConvoyLampSelect: 1, ConvoyDrivingLampSelect: 3, BlackOutBrakeStopLampSelect: 3, NightVisionIlluminatorSelect: 2, BlackOutWorkLampSelect: 0, OprtrsBlkOtIntnstSltn: 25.6 %)
 (1667491305.361363)  vcan0  18FE67FE   [8]  15 AD F9 6B 40 57 06 2F :: CCC(AxlrHtrMxmmOtptPwr: 88618 W)
 (1667491306.361500)  vcan0  0CF013FE   [8]  A9 FD DF 42 E6 7F 8A 33 :: SSI(PitchAngle: 65.874 deg, RollAngle: -29.762 deg, PitchRate: 1.4839999999999947 deg/s, PitchAngleFigureofMerit: 2, RollAngleFigureofMerit: 2, PitchRateFigureofMerit: 0, PitchandRollCompensated: 2, RollandPitchMeasurementLatency: 25.5 ms)
 (1667491307.363053)  vcan0  0C1CFEFE   [8]  A7 6E 47 3E 40 F1 DF 6A :: TC3(TransmissionOverrideControlMode: 3, TrnsmssnOvrrdCntrlMdPrrt: 1, MessageCounter: 10 count, TrnsmssnRqstdOtptShftSpd: -3460.25 rpm, TrnsmssnRqstdTrqTrqLmt: -63 %, MessageChecksum: 106 count)
 (1667491308.363487)  vcan0  18FEBDFE   [8]  E9 AF D8 52 18 BF 98 66 :: FD1(EngineFan1EstimatedPercentSpeed: 93.2 %, FanDriveState: 15, FanSpeed: 2651.0 rpm, HydraulicFanMotorPressure: 24460.0 kPa, FanDriveBypassCommandStatus: 60.800000000000004 %)
 (1667491306.361500)  vcan0  0CF013FE   [8]  A9 FD DF 42 E6 7F 8A 33 :: SSI(PitchAngle: 65.874 deg, RollAngle: -29.762 deg, PitchRate: 1.4839999999999947 deg/s, PitchAngleFigureofMerit: 2, RollAngleFigureofMerit: 2, PitchRateFigureofMerit: 0, PitchandRollCompensated: 2, RollandPitchMeasurementLatency: 25.5 ms)
 (1667491307.363053)  vcan0  0C1CFEFE   [8]  A7 6E 47 3E 40 F1 DF 6A :: TC3(TransmissionOverrideControlMode: 3, TrnsmssnOvrrdCntrlMdPrrt: 1, MessageCounter: 10 count, TrnsmssnRqstdOtptShftSpd: -3460.25 rpm, TrnsmssnRqstdTrqTrqLmt: -63 %, MessageChecksum: 106 count)
 (1667491308.363487)  vcan0  18FEBDFE   [8]  E9 AF D8 52 18 BF 98 66 :: FD1(EngineFan1EstimatedPercentSpeed: 93.2 %, FanDriveState: 15, FanSpeed: 2651.0 rpm, HydraulicFanMotorPressure: 24460.0 kPa, FanDriveBypassCommandStatus: 60.800000000000004 %)
 (1667491309.363584)  vcan0  18FEA4FE   [8]  74 64 C9 34 6C A3 4B 3A :: ET2(EngineOilTemperature2: 530.625 degC, EngineECUTemperature: 149.28125 degC, EngnExhstGsRrltn1DffrntlPrssr: 76.84375 kPa, EngnExhstGsRrltn1Tmprtr: 193.34375 degC)
 (1667491310.363902)  vcan0  0C0DFEFE   [8]  F2 7E 1C 20 84 CA 5B 4A :: TC2(TransmissionMode9: 2, TransmissionMode10: 0)
 (1667491311.367331)  vcan0  18FE4FFE   [8]  38 9E 7D 2F 58 AE D3 72 :: VDC1(VDCInformationSignal: 0, VDCFullyOperational: 2, VDCbrakelightrequest: 3, ROPEngineControlactive: 2, ROPBrakeControlactive: 3, YCEngineControlactive: 1, YCBrakeControlactive: 2, TrailerVDCActive: 1)
 (1667491312.367833)  vcan0  08F02DFE   [8]  0F BF 77 16 C2 85 4C 01 :: ACCS(LtrlAlrtnExtnddRng: 169.11 m/(s*s), LngtdnlAlrtnExtnddRng: -262.49 m/(s*s), VrtlAlrtnExtnddRng: 22.420000000000016 m/(s*s), LtrlAlrtnFgrfMrtExtnddRng: 0, LngtdnlAlrtnFgrfMrtExtnddRng: 3, VrtlAlrtnFgrfMrtExtnddRng: 0, SpptVTsssRpttRtAtSs: 1)
 (1667491313.368031)  vcan0  18FE66FE   [8]  B4 1B 32 74 4B 8E 12 4C :: BM(BatteryMainSwitchHoldState: 0)
 (1667491314.368392)  vcan0  0C1CFEFE   [8]  78 B6 33 49 1E 7A 08 07 :: TC3(TransmissionOverrideControlMode: 0, TrnsmssnOvrrdCntrlMdPrrt: 2, MessageCounter: 7 count, TrnsmssnRqstdOtptShftSpd: -4722.25 rpm, TrnsmssnRqstdTrqTrqLmt: -52 %, MessageChecksum: 7 count)
 (1667491315.368819)  vcan0  18FE98FE   [8]  6A E1 4F 26 33 27 02 73 :: TCI4(EngnTrhrgr1TrnIntkTmprtr: 1530.3125 degC, EngnTrhrgr2TrnIntkTmprtr: 33.46875 degC, EngnTrhrgr3TrnIntkTmprtr: 40.59375 degC, EngnTrhrgr4TrnIntkTmprtr: 647.0625 degC)
 (1667491316.369003)  vcan0  18FED6FE   [8]  78 F1 F1 03 DC 24 E2 35 :: HSI1(HrdSstmPrttnOvrrdSwth: 0, HrdSstmPrplsnClntLvlSwth: 2, HrdSstmPwrEltrnsClntLvlSwth: 3, HrdSstmOffBrdChrgrCnntnStts: 1, HrdSstmRgnrtvBrkngDslSwth: 1, HrdSstmBrkPdlRgnrtvBrkngDslSwth: 0, HrdSstmPrplsnDslSwth: 3, HybridSystemShutdownSwitch: 3, HrdSstmCstngRgnrtvBrkngLvlSltr: 96.4 %, PwrEltrnsClntFllSwth: 3, PrplsnMtrClntFllSwth: 0)
 (1667491317.375167)  vcan0  08F062FE   [8]  B9 CF B4 19 83 93 29 74 :: ETC12(TrnsmssnHdrsttLp1Prssr: 53177 kPa, TrnsmssnHdrsttLp2Prssr: 6580 kPa, TrnsmssnDrtnlOtptShftSpd: 5636 rpm, TrnsmssnIntrmdtShftSpd: 3717.125 rpm)
 (1667491318.380178)  vcan0  0CD1FEFE   [8]  B3 AC 22 65 6D 43 02 47 :: ASC6(LevelPresetFrontAxleLeft: 1221.1000000000004 mm, LevelPresetFrontAxleRight: -611.0 mm, LevelPresetRearAxleLeft: -1473.8999999999999 mm, LevelPresetRearAxleRight: -1382.1999999999998 mm)
 (1667491319.380472)  vcan0  18FEC1FE   [8]  C9 73 2B 75 E1 A7 CB 7B :: VDHR(TtlVhlDstnHghRsltn: 9828909805 m, TripDistanceHighResolution: 10384721765 m)
 (1667491320.380562)  vcan0  18FE53FE   [8]  98 01 23 64 D3 26 E8 1B :: RTC1(LwLmtThrshldfrMxmmRPMfrmRtrdr: 4864 rpm, HLtTsdMCtsRPMRtd: 32 rpm, LwLmtThrshldfrMxmmTrqfrmRtrdr: -90 %, HLtTsdMCtsTqRtd: -25 %, MaximumContinuousRetarderSpeed: 6752 rpm, MinimumContinuousRetarderSpeed: 1216 rpm, MaximumContinuousRetarderTorque: 107 %, MinimumContinuousRetarderTorque: -98 %)
 (1667491321.380858)  vcan0  18FED5FE   [8]  FF B2 6B 09 0C C5 65 4B :: AS(AlternatorSpeed: 22911.5 rpm, Alternator1Status: 3, Alternator2Status: 2, Alternator3Status: 2, Alternator4Status: 1)
 (1667491322.385809)  vcan0  0CD2FEFE   [8]  53 BD E6 10 1B 84 DD 61 :: ASC2(Atmttrtnhlpldtrnsfr: 3, KneelingRequestLeftSide: 0, KneelingRequestRightSide: 1, KneelingControlModeRequest: 1, NominalLevelRequestFrontAxle: 13, NominalLevelRequestRearAxle: 11, LevelControlModeRequest: 6, LiftAxle1PositionCommand: 2, LiftAxle2PositionCommand: 3, DamperStiffnessRequestFrontAxle: 6.4 %, DamperStiffnessRequestRearAxle: 10.8 %, DmprStffnssRqstLftTgAxl: 52.800000000000004 %, KneelingCommandFrontAxle: 1, KneelingCommandRearAxle: 3, Prohibitairsuspensioncontrol: 1, AllwLvlCntrlDrngBrkngCmmnd: 3, SpdDpndntLvlCntrlRqst: 1, PrhtAtmtArSspnsnCntrl: 0, Memorylevelrequest: 6)
 (1667491323.385976)  vcan0  18FE70FE   [8]  74 50 22 09 CF 9F 0F 56 :: CVW(PoweredVehicleWeight: 205960 kg, GrossCombinationVehicleWeight: 23380 kg)
 (1667491324.386627)  vcan0  18FE9DFE   [8]  16 40 F7 2C 47 56 43 1F :: MBT2(EngineMainBearing5Temperature: 239.6875 degC, EngineMainBearing6Temperature: 86.71875 degC, EngineMainBearing7Temperature: 417.21875 degC, EngineMainBearing8Temperature: -22.90625 degC)
 (1667491325.387513)  vcan0  18FE66FE   [8]  F5 E6 05 11 B2 37 93 45 :: BM(BatteryMainSwitchHoldState: 1)
 (1667491326.387902)  vcan0  18FE9EFE   [8]  14 E5 1A 24 2A 29 85 49 :: MBT1(EngineMainBearing1Temperature: 1559.625 degC, EngineMainBearing2Temperature: 15.8125 degC, EngineMainBearing3Temperature: 56.3125 degC, EngineMainBearing4Temperature: 315.15625 degC)
 (1667491327.388783)  vcan0  04F031FE   [8]  19 63 BA 6A E3 F8 39 63 :: WAND(WandAngle: -13.262 deg, WandSensorFigureofMerit: 2)
 (1667491328.389402)  vcan0  18FE9EFE   [8]  5F D2 39 1C 96 A5 5C 48 :: MBT1(EngineMainBearing1Temperature: 1409.96875 degC, EngineMainBearing2Temperature: -47.21875 degC, EngineMainBearing3Temperature: 1051.6875 degC, EngineMainBearing4Temperature: 305.875 degC)
 (1667491329.389757)  vcan0  0C1CFEFE   [8]  BC 00 52 34 60 19 88 3D :: TC3(TransmissionOverrideControlMode: 0, TrnsmssnOvrrdCntrlMdPrrt: 3, MessageCounter: 11 count, TrnsmssnRqstdOtptShftSpd: -2783.75 rpm, TrnsmssnRqstdTrqTrqLmt: -73 %, MessageChecksum: 61 count)
 (1667491330.390360)  vcan0  04F032FE   [8]  86 D2 B5 06 F8 1A AB 21 :: LDISP(MeasuredLinearDisplacement: 5389.400000000001 mm, LnrDsplmntSnsrSnsrFgrfMrt: 1)
 (1667491331.390958)  vcan0  08F110FE   [8]  D5 6E 75 23 F7 CD 16 2B :: B2(DmnddBrkAppltnPrssr: 2837.3 kPa, BrakePedalSwitch2: 1)
 (1667491332.402485)  vcan0  0C1DFEFE   [8]  7B B9 08 33 4A 8B FD 3B :: EIC(EngineTimingAdvance: 170.9609375 deg)
 (1667491333.403101)  vcan0  18FEC1FE   [8]  E4 89 E8 43 BF DB 1F 45 :: VDHR(TtlVhlDstnHghRsltn: 5696565620 m, TripDistanceHighResolution: 5798578875 m)
 (1667491334.403982)  vcan0  18FE55FE   [8]  97 E8 DA 20 D5 1B 17 72 :: GFD(SpecificHeatRatio: 59.543 Ratio, ReferenceEngineGasMassFlowRate: 420.5 kg/h, Fuelenergycontent: 27.83203125 MJ/(Nm*Nm*Nm))
 (1667491335.404053)  vcan0  18FE68FE   [8]  69 C1 D5 04 CA 02 1D 03 :: VF(HydraulicTemperature: 65 degC, HdrlOlFltrRstrtnSwth: 1, WinchOilPressureSwitch: 0, HydraulicOilLevel: 85.2 %)
 (1667491336.404162)  vcan0  08F062FE   [8]  6D C1 D2 5B DE E7 37 27 :: ETC12(TrnsmssnHdrsttLp1Prssr: 49517 kPa, TrnsmssnHdrsttLp2Prssr: 23506 kPa, TrnsmssnDrtnlOtptShftSpd: 27231 rpm, TrnsmssnIntrmdtShftSpd: 1254.875 rpm)
 (1667491337.404491)  vcan0  0CF015FE   [8]  4E E6 B1 68 F7 4A F2 11 :: RGTACRP(RqstdGnrtrTtlACRtvPwr: -243510706 VA, RqstdGnrtrOvrllPwrFtr: 0.17132568359375, RqstdGnrtrOvrllPwrFtrLggng: 2)
 (1667491338.409203)  vcan0  04F032FE   [8]  B3 9E BA 69 56 1D 2C 2E :: LDISP(MeasuredLinearDisplacement: 4062.7000000000003 mm, LnrDsplmntSnsrSnsrFgrfMrt: 2)
 (1667491587.839016)  vcan0  0C0DFEFE   [8]  ED 19 24 0B C3 FA 64 7A :: TC2(TransmissionMode9: 1, TransmissionMode10: 3)
 (1667491588.839456)  vcan0  18FEC1FE   [8]  22 4E B7 10 A9 33 60 36 :: VDHR(TtlVhlDstnHghRsltn: 1402242730 m, TripDistanceHighResolution: 4561371725 m)
 (1667491589.841714)  vcan0  0CF016FE   [8]  C9 76 77 6E 9E 29 87 07 :: CCS(EngineCylinder1CombustionStatus: 1, EngineCylinder2CombustionStatus: 2, EngineCylinder3CombustionStatus: 0, EngineCylinder4CombustionStatus: 3, EngineCylinder5CombustionStatus: 2, EngineCylinder6CombustionStatus: 1, EngineCylinder7CombustionStatus: 3, EngineCylinder8CombustionStatus: 1, EngineCylinder9CombustionStatus: 3, EngnClndr10CmstnStts: 1, EngnClndr11CmstnStts: 3, EngnClndr12CmstnStts: 1, EngnClndr13CmstnStts: 2, EngnClndr14CmstnStts: 3, EngnClndr15CmstnStts: 2, EngnClndr16CmstnStts: 1, EngnClndr17CmstnStts: 2, EngnClndr18CmstnStts: 3, EngnClndr19CmstnStts: 1, EngnClndr20CmstnStts: 2, EngnClndr21CmstnStts: 1, EngnClndr22CmstnStts: 2, EngnClndr23CmstnStts: 2, EngnClndr24CmstnStts: 0)
 (1667491590.842085)  vcan0  18FE8DFE   [8]  28 37 C6 2B 70 1C 38 36 :: VEP2(BatteryPotentialPowerInput2: 706.0 V, ECUPowerOutputSupplyVoltage1: 560.3000000000001 V, ECUPowerOutputSupplyVoltage2: 364.0 V, ECUPowerOutputSupplyVoltage3: 694.0 V)
 (1667491591.842877)  vcan0  0CF00CFE   [8]  DC 88 17 10 BA 56 52 27 :: ETC8(TrnsmssnTrqCnvrtrRt: 35.036 Ratio, TrnsmssnClthCnvrtrInptSpd: 514.875 rpm, TransmissionShiftInhibitReason: 186, TrnsmssnTrqCnvrtrLkpInhtRsn: 86, TrnsmssnTrqCnvrtrLkpInhtIndtr: 2)
 (1667491592.843165)  vcan0  18FE54FE   [8]  15 34 E6 55 D4 5C 82 79 :: ECT1(ELwLtTsdMxRPME: 672 rpm, EHLtTsdMCtsERPM: 1664 rpm, ELwLtTsdMxTqE: 105 %, EHLtTsdMCtsTqE: -40 %, EngineMaximumContinuousRPM: 6784 rpm, EngineMinimumContinuousRPM: 2944 rpm, EngineMaximumContinuousTorque: 5 %, EngineMinimumContinuousTorque: -4 %)
 (1667491593.843697)  vcan0  08F110FE   [8]  17 6D D7 5B A9 D4 D2 21 :: B2(DmnddBrkAppltnPrssr: 2792.7000000000003 kPa, BrakePedalSwitch2: 3)
 (1667491594.844308)  vcan0  04F031FE   [8]  39 D3 15 47 B6 41 9A 7D :: WAND(WandAngle: 44.146 deg, WandSensorFigureofMerit: 1)
 (1667491595.845559)  vcan0  18FEA4FE   [8]  F1 03 EC 72 FE 58 76 33 :: ET2(EngineOilTemperature2: -241.46875 degC, EngineECUTemperature: 646.375 degC, EngnExhstGsRrltn1DffrntlPrssr: -72.015625 kPa, EngnExhstGsRrltn1Tmprtr: 138.6875 degC)
 (1667491596.845763)  vcan0  18FE9DFE   [8]  0F F4 29 68 97 6A B3 47 :: MBT2(EngineMainBearing5Temperature: 1679.46875 degC, EngineMainBearing6Temperature: 560.28125 degC, EngineMainBearing7Temperature: 579.71875 degC, EngineMainBearing8Temperature: 300.59375 degC)
 (1667491597.852579)  vcan0  0C0AFEFE   [8]  1E 27 10 60 84 84 D7 52 :: CCVS2(CruiseControlDisableCommand: 2, CruiseControlResumeCommand: 3, CruiseControlPauseCommand: 1, CruiseControlSetCommand: 0, IdleSpeedRequest: 516.875 rpm, IdleControlEnableState: 0, IdleControlRequestActivation: 0, RemoteRoadSpeedLimitRequest: 132 km/h)
 (1667491598.853894)  vcan0  0CF016FE   [8]  4B 7F 4A 09 A6 D2 8E 63 :: CCS(EngineCylinder1CombustionStatus: 3, EngineCylinder2CombustionStatus: 2, EngineCylinder3CombustionStatus: 0, EngineCylinder4CombustionStatus: 1, EngineCylinder5CombustionStatus: 3, EngineCylinder6CombustionStatus: 3, EngineCylinder7CombustionStatus: 3, EngineCylinder8CombustionStatus: 1, EngineCylinder9CombustionStatus: 2, EngnClndr10CmstnStts: 2, EngnClndr11CmstnStts: 0, EngnClndr12CmstnStts: 1, EngnClndr13CmstnStts: 1, EngnClndr14CmstnStts: 2, EngnClndr15CmstnStts: 0, EngnClndr16CmstnStts: 0, EngnClndr17CmstnStts: 2, EngnClndr18CmstnStts: 1, EngnClndr19CmstnStts: 2, EngnClndr20CmstnStts: 2, EngnClndr21CmstnStts: 2, EngnClndr22CmstnStts: 0, EngnClndr23CmstnStts: 1, EngnClndr24CmstnStts: 3)
 (1667491599.854018)  vcan0  0C01FEFE   [8]  1C 82 92 18 6F 49 06 52 :: TC1(TrnsmssnGrShftInhtRqst: 0, TrnsmssnTrqCnvrtrLkpRqst: 3, DisengageDrivelineRequest: 1, TrnsmssnRvrsGrShftInhtRqst: 0, RequestedPercentClutchSlip: 52.0 %, TransmissionRequestedGear: 21 gear value, DsnggDffrntlLkRqstFrntAxl1: 0, DsnggDffrntlLkRqstFrntAxl2: 2, DsnggDffrntlLkRqstRrAxl1: 1, DsnggDffrntlLkRqstRrAxl2: 0, DsnggDffrntlLkRqstCntrl: 3, DsnggDffrntlLkRqstCntrlFrnt: 3, DsnggDffrntlLkRqstCntrlRr: 2, TrnsmssnLdRdtnInhtRqst: 1, TransmissionMode1: 1, TransmissionMode2: 2, TransmissionMode3: 0, TransmissionMode4: 1, TrnsmssnAtNtrlMnlRtrnRqst: 2, TransmissionRequestedLaunchGear: 1, TrnsmssnShftSltrDsplMdSwth: 0, TransmissionMode5: 2, TransmissionMode6: 0, TransmissionMode7: 1, TransmissionMode8: 1)
 (1667491600.860720)  vcan0  18FE6DFE   [8]  35 12 C6 74 98 80 CC 7D :: HTR(AxlrHtrOtptClntTmprtr: 13 degC, AxlrHtrInptArTmprtr: -22 degC, AxlrHtrOtptPwrPrnt: 79.2 %, AuxiliaryHeaterMode: 4, AuxiliaryHeaterWaterPumpStatus: 0, CabVentilation: 2, EngineHeatingZone: 1, CabHeatingZone: 2, ADRCompliantHeaterInstallation: 0)
 (1667491601.866680)  vcan0  18FE70FE   [8]  E1 E4 0E 3A 74 09 E4 0D :: CVW(PoweredVehicleWeight: 585930 kg, GrossCombinationVehicleWeight: 148620 kg)
 (1667491602.867468)  vcan0  18FE9CFE   [8]  1C 37 35 7F 89 3D CA 63 :: MBT3(EngineMainBearing9Temperature: 167.875 degC, EngineMainBearing10Temperature: 744.65625 degC, EngineMainBearing11Temperature: 219.28125 degC, EngineMainBearing12Temperature: 525.3125 degC)
 (1667491603.873231)  vcan0  08FE6EFE   [8]  F2 E1 5C 43 A1 AA A1 3F :: HRW(FrontAxleLeftWheelSpeed: 225.9453125 km/h, Frontaxlerightwheelspeed: 67.359375 km/h, Rearaxleleftwheelspeed: 170.62890625 km/h, Rearaxlerightwheelspeed: 63.62890625 km/h)
 (1667491604.879760)  vcan0  18FE5BFE   [8]  94 1F 1D 11 DA 7D B7 06 :: FLI2(LaneTrackingStatusRightSide: 1, LaneTrackingStatusLeftSide: 1, LnDprtrIndtnEnlStts: 2, DriverAlertnessLevel: 12.4 %, DrvrAlrtnssWrnngSstmStt: 5, LeftWheelLaneDepartureDistance: -108 cm, RightWheelLaneDepartureDistance: 93 cm, LaneDepartureWarningSystemState: 7, ForwardLaneImagerStatus: 11)
 (1667491605.879954)  vcan0  08FE6EFE   [8]  FA 7F 28 76 CC 81 A3 79 :: HRW(FrontAxleLeftWheelSpeed: 127.9765625 km/h, Frontaxlerightwheelspeed: 118.15625 km/h, Rearaxleleftwheelspeed: 129.796875 km/h, Rearaxlerightwheelspeed: 121.63671875 km/h)
 (1667491606.886577)  vcan0  18FE6AFE   [8]  8D C5 2E 55 DB 75 CD 61 :: EFS(EngineOilLevelRemoteReservoir: 56.400000000000006 %, EngnFlSpplPmpIntkAsltPrssr: 394 kPa, EngnFlFltrstnsdDffrntlPrssr: 92 kPa, EngineWasteOilReservoirLevel: 34.0 %, EngineOilFilterOutletPressure: 876 kPa, EngineOilPrimingPumpSwitch: 1, EngineOilPrimingState: 1, EngineOilPreHeatedState: 3, EngineCoolantPreheatedState: 1, EngineVentilationStatus: 5, FuelPumpPrimerStatus: 1, EngnFlSpplPmpIntkPrssr: 194 kPa)
 (1667491607.887418)  vcan0  0C09FEFE   [8]  6A 95 32 40 F9 9C DD 41 :: SRASI(StaticRollAngle: -19 deg, StaticRollAngleStatus: 5)
 (1667491608.890733)  vcan0  18FE5BFE   [8]  0B 60 9B 25 45 1C 28 4B :: FLI2(LaneTrackingStatusRightSide: 2, LaneTrackingStatusLeftSide: 0, LnDprtrIndtnEnlStts: 0, DriverAlertnessLevel: 38.400000000000006 %, DrvrAlrtnssWrnngSstmStt: 3, LeftWheelLaneDepartureDistance: -88 cm, RightWheelLaneDepartureDistance: -56 cm, LaneDepartureWarningSystemState: 8, ForwardLaneImagerStatus: 2)
 (1667491609.894194)  vcan0  0CD2FEFE   [8]  54 5E 64 41 61 9E BA 63 :: ASC2(Atmttrtnhlpldtrnsfr: 0, KneelingRequestLeftSide: 1, KneelingRequestRightSide: 1, KneelingControlModeRequest: 1, NominalLevelRequestFrontAxle: 14, NominalLevelRequestRearAxle: 5, LevelControlModeRequest: 4, LiftAxle1PositionCommand: 2, LiftAxle2PositionCommand: 1, DamperStiffnessRequestFrontAxle: 26.0 %, DamperStiffnessRequestRearAxle: 38.800000000000004 %, DmprStffnssRqstLftTgAxl: 63.2 %, KneelingCommandFrontAxle: 2, KneelingCommandRearAxle: 2, Prohibitairsuspensioncontrol: 3, AllwLvlCntrlDrngBrkngCmmnd: 2, SpdDpndntLvlCntrlRqst: 3, PrhtAtmtArSspnsnCntrl: 0, Memorylevelrequest: 6)
 (1667491587.839016)  vcan0  0C0DFEFE   [8]  ED 19 24 0B C3 FA 64 7A :: TC2(TransmissionMode9: 1, TransmissionMode10: 3)
 (1667491588.839456)  vcan0  18FEC1FE   [8]  22 4E B7 10 A9 33 60 36 :: VDHR(TtlVhlDstnHghRsltn: 1402242730 m, TripDistanceHighResolution: 4561371725 m)
 (1667491589.841714)  vcan0  0CF016FE   [8]  C9 76 77 6E 9E 29 87 07 :: CCS(EngineCylinder1CombustionStatus: 1, EngineCylinder2CombustionStatus: 2, EngineCylinder3CombustionStatus: 0, EngineCylinder4CombustionStatus: 3, EngineCylinder5CombustionStatus: 2, EngineCylinder6CombustionStatus: 1, EngineCylinder7CombustionStatus: 3, EngineCylinder8CombustionStatus: 1, EngineCylinder9CombustionStatus: 3, EngnClndr10CmstnStts: 1, EngnClndr11CmstnStts: 3, EngnClndr12CmstnStts: 1, EngnClndr13CmstnStts: 2, EngnClndr14CmstnStts: 3, EngnClndr15CmstnStts: 2, EngnClndr16CmstnStts: 1, EngnClndr17CmstnStts: 2, EngnClndr18CmstnStts: 3, EngnClndr19CmstnStts: 1, EngnClndr20CmstnStts: 2, EngnClndr21CmstnStts: 1, EngnClndr22CmstnStts: 2, EngnClndr23CmstnStts: 2, EngnClndr24CmstnStts: 0)
 (1667491590.842085)  vcan0  18FE8DFE   [8]  28 37 C6 2B 70 1C 38 36 :: VEP2(BatteryPotentialPowerInput2: 706.0 V, ECUPowerOutputSupplyVoltage1: 560.3000000000001 V, ECUPowerOutputSupplyVoltage2: 364.0 V, ECUPowerOutputSupplyVoltage3: 694.0 V)
 (1667491591.842877)  vcan0  0CF00CFE   [8]  DC 88 17 10 BA 56 52 27 :: ETC8(TrnsmssnTrqCnvrtrRt: 35.036 Ratio, TrnsmssnClthCnvrtrInptSpd: 514.875 rpm, TransmissionShiftInhibitReason: 186, TrnsmssnTrqCnvrtrLkpInhtRsn: 86, TrnsmssnTrqCnvrtrLkpInhtIndtr: 2)
 (1667491592.843165)  vcan0  18FE54FE   [8]  15 34 E6 55 D4 5C 82 79 :: ECT1(ELwLtTsdMxRPME: 672 rpm, EHLtTsdMCtsERPM: 1664 rpm, ELwLtTsdMxTqE: 105 %, EHLtTsdMCtsTqE: -40 %, EngineMaximumContinuousRPM: 6784 rpm, EngineMinimumContinuousRPM: 2944 rpm, EngineMaximumContinuousTorque: 5 %, EngineMinimumContinuousTorque: -4 %)
 (1667491593.843697)  vcan0  08F110FE   [8]  17 6D D7 5B A9 D4 D2 21 :: B2(DmnddBrkAppltnPrssr: 2792.7000000000003 kPa, BrakePedalSwitch2: 3)
 (1667491594.844308)  vcan0  04F031FE   [8]  39 D3 15 47 B6 41 9A 7D :: WAND(WandAngle: 44.146 deg, WandSensorFigureofMerit: 1)
 (1667491595.845559)  vcan0  18FEA4FE   [8]  F1 03 EC 72 FE 58 76 33 :: ET2(EngineOilTemperature2: -241.46875 degC, EngineECUTemperature: 646.375 degC, EngnExhstGsRrltn1DffrntlPrssr: -72.015625 kPa, EngnExhstGsRrltn1Tmprtr: 138.6875 degC)
 (1667491596.845763)  vcan0  18FE9DFE   [8]  0F F4 29 68 97 6A B3 47 :: MBT2(EngineMainBearing5Temperature: 1679.46875 degC, EngineMainBearing6Temperature: 560.28125 degC, EngineMainBearing7Temperature: 579.71875 degC, EngineMainBearing8Temperature: 300.59375 degC)
 (1667491597.852579)  vcan0  0C0AFEFE   [8]  1E 27 10 60 84 84 D7 52 :: CCVS2(CruiseControlDisableCommand: 2, CruiseControlResumeCommand: 3, CruiseControlPauseCommand: 1, CruiseControlSetCommand: 0, IdleSpeedRequest: 516.875 rpm, IdleControlEnableState: 0, IdleControlRequestActivation: 0, RemoteRoadSpeedLimitRequest: 132 km/h)
 (1667491598.853894)  vcan0  0CF016FE   [8]  4B 7F 4A 09 A6 D2 8E 63 :: CCS(EngineCylinder1CombustionStatus: 3, EngineCylinder2CombustionStatus: 2, EngineCylinder3CombustionStatus: 0, EngineCylinder4CombustionStatus: 1, EngineCylinder5CombustionStatus: 3, EngineCylinder6CombustionStatus: 3, EngineCylinder7CombustionStatus: 3, EngineCylinder8CombustionStatus: 1, EngineCylinder9CombustionStatus: 2, EngnClndr10CmstnStts: 2, EngnClndr11CmstnStts: 0, EngnClndr12CmstnStts: 1, EngnClndr13CmstnStts: 1, EngnClndr14CmstnStts: 2, EngnClndr15CmstnStts: 0, EngnClndr16CmstnStts: 0, EngnClndr17CmstnStts: 2, EngnClndr18CmstnStts: 1, EngnClndr19CmstnStts: 2, EngnClndr20CmstnStts: 2, EngnClndr21CmstnStts: 2, EngnClndr22CmstnStts: 0, EngnClndr23CmstnStts: 1, EngnClndr24CmstnStts: 3)
 (1667491599.854018)  vcan0  0C01FEFE   [8]  1C 82 92 18 6F 49 06 52 :: TC1(TrnsmssnGrShftInhtRqst: 0, TrnsmssnTrqCnvrtrLkpRqst: 3, DisengageDrivelineRequest: 1, TrnsmssnRvrsGrShftInhtRqst: 0, RequestedPercentClutchSlip: 52.0 %, TransmissionRequestedGear: 21 gear value, DsnggDffrntlLkRqstFrntAxl1: 0, DsnggDffrntlLkRqstFrntAxl2: 2, DsnggDffrntlLkRqstRrAxl1: 1, DsnggDffrntlLkRqstRrAxl2: 0, DsnggDffrntlLkRqstCntrl: 3, DsnggDffrntlLkRqstCntrlFrnt: 3, DsnggDffrntlLkRqstCntrlRr: 2, TrnsmssnLdRdtnInhtRqst: 1, TransmissionMode1: 1, TransmissionMode2: 2, TransmissionMode3: 0, TransmissionMode4: 1, TrnsmssnAtNtrlMnlRtrnRqst: 2, TransmissionRequestedLaunchGear: 1, TrnsmssnShftSltrDsplMdSwth: 0, TransmissionMode5: 2, TransmissionMode6: 0, TransmissionMode7: 1, TransmissionMode8: 1)
 (1667491600.860720)  vcan0  18FE6DFE   [8]  35 12 C6 74 98 80 CC 7D :: HTR(AxlrHtrOtptClntTmprtr: 13 degC, AxlrHtrInptArTmprtr: -22 degC, AxlrHtrOtptPwrPrnt: 79.2 %, AuxiliaryHeaterMode: 4, AuxiliaryHeaterWaterPumpStatus: 0, CabVentilation: 2, EngineHeatingZone: 1, CabHeatingZone: 2, ADRCompliantHeaterInstallation: 0)
 (1667491601.866680)  vcan0  18FE70FE   [8]  E1 E4 0E 3A 74 09 E4 0D :: CVW(PoweredVehicleWeight: 585930 kg, GrossCombinationVehicleWeight: 148620 kg)
 (1667491602.867468)  vcan0  18FE9CFE   [8]  1C 37 35 7F 89 3D CA 63 :: MBT3(EngineMainBearing9Temperature: 167.875 degC, EngineMainBearing10Temperature: 744.65625 degC, EngineMainBearing11Temperature: 219.28125 degC, EngineMainBearing12Temperature: 525.3125 degC)
 (1667491603.873231)  vcan0  08FE6EFE   [8]  F2 E1 5C 43 A1 AA A1 3F :: HRW(FrontAxleLeftWheelSpeed: 225.9453125 km/h, Frontaxlerightwheelspeed: 67.359375 km/h, Rearaxleleftwheelspeed: 170.62890625 km/h, Rearaxlerightwheelspeed: 63.62890625 km/h)
 (1667491604.879760)  vcan0  18FE5BFE   [8]  94 1F 1D 11 DA 7D B7 06 :: FLI2(LaneTrackingStatusRightSide: 1, LaneTrackingStatusLeftSide: 1, LnDprtrIndtnEnlStts: 2, DriverAlertnessLevel: 12.4 %, DrvrAlrtnssWrnngSstmStt: 5, LeftWheelLaneDepartureDistance: -108 cm, RightWheelLaneDepartureDistance: 93 cm, LaneDepartureWarningSystemState: 7, ForwardLaneImagerStatus: 11)
 (1667491605.879954)  vcan0  08FE6EFE   [8]  FA 7F 28 76 CC 81 A3 79 :: HRW(FrontAxleLeftWheelSpeed: 127.9765625 km/h, Frontaxlerightwheelspeed: 118.15625 km/h, Rearaxleleftwheelspeed: 129.796875 km/h, Rearaxlerightwheelspeed: 121.63671875 km/h)
 (1667491606.886577)  vcan0  18FE6AFE   [8]  8D C5 2E 55 DB 75 CD 61 :: EFS(EngineOilLevelRemoteReservoir: 56.400000000000006 %, EngnFlSpplPmpIntkAsltPrssr: 394 kPa, EngnFlFltrstnsdDffrntlPrssr: 92 kPa, EngineWasteOilReservoirLevel: 34.0 %, EngineOilFilterOutletPressure: 876 kPa, EngineOilPrimingPumpSwitch: 1, EngineOilPrimingState: 1, EngineOilPreHeatedState: 3, EngineCoolantPreheatedState: 1, EngineVentilationStatus: 5, FuelPumpPrimerStatus: 1, EngnFlSpplPmpIntkPrssr: 194 kPa)
 (1667491607.887418)  vcan0  0C09FEFE   [8]  6A 95 32 40 F9 9C DD 41 :: SRASI(StaticRollAngle: -19 deg, StaticRollAngleStatus: 5)
 (1667491608.890733)  vcan0  18FE5BFE   [8]  0B 60 9B 25 45 1C 28 4B :: FLI2(LaneTrackingStatusRightSide: 2, LaneTrackingStatusLeftSide: 0, LnDprtrIndtnEnlStts: 0, DriverAlertnessLevel: 38.400000000000006 %, DrvrAlrtnssWrnngSstmStt: 3, LeftWheelLaneDepartureDistance: -88 cm, RightWheelLaneDepartureDistance: -56 cm, LaneDepartureWarningSystemState: 8, ForwardLaneImagerStatus: 2)
 (1667491609.894194)  vcan0  0CD2FEFE   [8]  54 5E 64 41 61 9E BA 63 :: ASC2(Atmttrtnhlpldtrnsfr: 0, KneelingRequestLeftSide: 1, KneelingRequestRightSide: 1, KneelingControlModeRequest: 1, NominalLevelRequestFrontAxle: 14, NominalLevelRequestRearAxle: 5, LevelControlModeRequest: 4, LiftAxle1PositionCommand: 2, LiftAxle2PositionCommand: 1, DamperStiffnessRequestFrontAxle: 26.0 %, DamperStiffnessRequestRearAxle: 38.800000000000004 %, DmprStffnssRqstLftTgAxl: 63.2 %, KneelingCommandFrontAxle: 2, KneelingCommandRearAxle: 2, Prohibitairsuspensioncontrol: 3, AllwLvlCntrlDrngBrkngCmmnd: 2, SpdDpndntLvlCntrlRqst: 3, PrhtAtmtArSspnsnCntrl: 0, Memorylevelrequest: 6)
 (1667491640.946321)  vcan0  18FE98FE   [8]  C7 30 E2 68 15 49 85 13 :: TCI4(EngnTrhrgr1TrnIntkTmprtr: 117.21875 degC, EngnTrhrgr2TrnIntkTmprtr: 566.0625 degC, EngnTrhrgr3TrnIntkTmprtr: 311.65625 degC, EngnTrhrgr4TrnIntkTmprtr: -116.84375 degC)
 (1667491641.947001)  vcan0  18FEC1FE   [8]  C4 DA EC 6D 8E 7A 6F 65 :: VDHR(TtlVhlDstnHghRsltn: 9221195220 m, TripDistanceHighResolution: 8509023430 m)
 (1667491642.947290)  vcan0  18FEC0FE   [8]  FC 3C B1 6E E3 A3 CF 41 :: SERV(ServiceComponentIdentificationA: 252 ID, ServiceDistance: 66225 km, ServiceComponentIdentificationB: 110 ID, ServiceDelayCalendarTimeBased: 102 weeks, ServiceComponentIdentificationC: 163 ID, SrvDlOprtnlTmBsd: -15280 h)
 (1667491643.947826)  vcan0  0C1BFEFE   [8]  16 BD 46 2A A8 91 6A 3A :: HVES1C1(HVES1HghVltgBsCnntCmmnd: 2, HVES1PowerDownCommand: 1, HVES1HghVltgBsAtvIsltnTstCmmnd: 1, HVES1HghVltgBsPssvIsltnTstCmmnd: 0, HVES1CellBalancingCommand: 1, HVES1EnlIntrnlChrgrCmmnd: 3, HVES1OperationConsent: 3, HVES1HVtBsHSdRsstCtRqst: 2, HVES1HghVltgBsLwSdRsstrCnntRqst: 2)
 (1667491644.948929)  vcan0  18FE4BFE   [8]  9F B8 21 5A 62 F2 61 24 :: TCFG2(TransmissionTorqueLimit: 47263 Nm, TransmissionReferenceTorque: 23073 Nm, TrnsmssnCmmntnsFlrIdlTrqLmt: -27 %)
 (1667491645.949277)  vcan0  04F032FE   [8]  B6 59 E6 53 2D 94 F4 65 :: LDISP(MeasuredLinearDisplacement: 2296.6 mm, LnrDsplmntSnsrSnsrFgrfMrt: 2)
 (1667491646.949557)  vcan0  18FE69FE   [8]  C0 D8 02 07 1D C5 89 5B :: ET3(EngnIntkMnfld1TmprtrHghRsltn: 1461.0 degC, EngnClntTmprtrHghRsltn: -216.9375 degC, EngnIntkVlvAttnSstmOlTmprtr: 1303.90625 degC, EngnChrgArClr1OtltTmprtr: 459.28125 degC)
 (1667491647.949887)  vcan0  18FE55FE   [8]  66 D5 25 30 D4 98 B7 36 :: GFD(SpecificHeatRatio: 54.63 Ratio, ReferenceEngineGasMassFlowRate: 616.25 kg/h, Fuelenergycontent: 152.828125 MJ/(Nm*Nm*Nm))
 (1667491648.950290)  vcan0  18FE51FE   [8]  31 C1 F1 20 5D B8 46 69 :: ACC2(ACCusagedemand: 1, RequestedACCDistanceMode: 1)
 (1667491649.950428)  vcan0  0C0DFEFE   [8]  07 64 D4 12 CF 2C 9B 0A :: TC2(TransmissionMode9: 3, TransmissionMode10: 1)
 (1667491650.950543)  vcan0  18FE98FE   [8]  D6 AE 95 0A 97 5D 7D 73 :: TCI4(EngnTrhrgr1TrnIntkTmprtr: 1125.6875 degC, EngnTrhrgr2TrnIntkTmprtr: -188.34375 degC, EngnTrhrgr3TrnIntkTmprtr: 475.71875 degC, EngnTrhrgr4TrnIntkTmprtr: 650.90625 degC)
 (1667491651.950812)  vcan0  08F02DFE   [8]  03 05 5E 2A 5B 38 6A 61 :: ACCS(LtrlAlrtnExtnddRng: -307.17 m/(s*s), LngtdnlAlrtnExtnddRng: -211.54 m/(s*s), VrtlAlrtnExtnddRng: -175.73 m/(s*s), LtrlAlrtnFgrfMrtExtnddRng: 2, LngtdnlAlrtnFgrfMrtExtnddRng: 2, VrtlAlrtnFgrfMrtExtnddRng: 2, SpptVTsssRpttRtAtSs: 1)
 (1667491652.951981)  vcan0  04F032FE   [8]  00 BD 82 2F 57 75 1B 50 :: LDISP(MeasuredLinearDisplacement: 4838.400000000001 mm, LnrDsplmntSnsrSnsrFgrfMrt: 2)
 (1667491653.952114)  vcan0  0CD2FEFE   [8]  C0 29 6A 00 6D 32 62 7A :: ASC2(Atmttrtnhlpldtrnsfr: 0, KneelingRequestLeftSide: 0, KneelingRequestRightSide: 0, KneelingControlModeRequest: 3, NominalLevelRequestFrontAxle: 9, NominalLevelRequestRearAxle: 2, LevelControlModeRequest: 10, LiftAxle1PositionCommand: 2, LiftAxle2PositionCommand: 1, DamperStiffnessRequestFrontAxle: 0.0 %, DamperStiffnessRequestRearAxle: 43.6 %, DmprStffnssRqstLftTgAxl: 20.0 %, KneelingCommandFrontAxle: 2, KneelingCommandRearAxle: 0, Prohibitairsuspensioncontrol: 2, AllwLvlCntrlDrngBrkngCmmnd: 1, SpdDpndntLvlCntrlRqst: 2, PrhtAtmtArSspnsnCntrl: 2, Memorylevelrequest: 7)
 (1667491654.952230)  vcan0  0C0BFEFE   [8]  43 D8 55 10 0C EB 83 54 :: AEBS2(DvtvtddAdvdEBSst: 3, AEBS2messageCounter: 4 count, AEBS2messagechecksum: 5 count)
 (1667491655.954094)  vcan0  0CF016FE   [8]  35 3A 04 1F C3 44 6A 28 :: CCS(EngineCylinder1CombustionStatus: 1, EngineCylinder2CombustionStatus: 1, EngineCylinder3CombustionStatus: 3, EngineCylinder4CombustionStatus: 0, EngineCylinder5CombustionStatus: 2, EngineCylinder6CombustionStatus: 2, EngineCylinder7CombustionStatus: 3, EngineCylinder8CombustionStatus: 0, EngineCylinder9CombustionStatus: 0, EngnClndr10CmstnStts: 1, EngnClndr11CmstnStts: 0, EngnClndr12CmstnStts: 0, EngnClndr13CmstnStts: 3, EngnClndr14CmstnStts: 3, EngnClndr15CmstnStts: 1, EngnClndr16CmstnStts: 0, EngnClndr17CmstnStts: 3, EngnClndr18CmstnStts: 0, EngnClndr19CmstnStts: 0, EngnClndr20CmstnStts: 3, EngnClndr21CmstnStts: 0, EngnClndr22CmstnStts: 1, EngnClndr23CmstnStts: 0, EngnClndr24CmstnStts: 1)
 (1667491656.954942)  vcan0  18FED5FE   [8]  C9 23 68 3F 83 1D 6D 2F :: AS(AlternatorSpeed: 4580.5 rpm, Alternator1Status: 0, Alternator2Status: 2, Alternator3Status: 2, Alternator4Status: 1)
 (1667491657.955898)  vcan0  18FE90FE   [8]  85 4D 4C 51 E9 F2 92 5F :: unpack requires at least 264 bits to unpack (got 64)
 (1667491658.956402)  vcan0  0C0DFEFE   [8]  1D CA 20 63 1A B4 84 00 :: TC2(TransmissionMode9: 1, TransmissionMode10: 3)
 (1667491659.956767)  vcan0  18FE55FE   [8]  6C A3 D8 73 21 18 59 13 :: GFD(SpecificHeatRatio: 41.836 Ratio, ReferenceEngineGasMassFlowRate: 1482.8000000000002 kg/h, Fuelenergycontent: 24.12890625 MJ/(Nm*Nm*Nm))
 (1667491660.957190)  vcan0  18FEC0FE   [8]  BB F6 11 3E F8 C6 EE 1D :: SERV(ServiceComponentIdentificationA: 187 ID, ServiceDistance: -137645 km, ServiceComponentIdentificationB: 62 ID, ServiceDelayCalendarTimeBased: 123 weeks, ServiceComponentIdentificationC: 198 ID, SrvDlOprtnlTmBsd: -24465 h)
 (1667491661.957609)  vcan0  18FE9DFE   [8]  1F 93 D0 1B FB CB 4C 48 :: MBT2(EngineMainBearing5Temperature: 903.96875 degC, EngineMainBearing6Temperature: -50.5 degC, EngineMainBearing7Temperature: 1358.84375 degC, EngineMainBearing8Temperature: 305.375 degC)
 (1667491662.957923)  vcan0  0C0BFEFE   [8]  12 AA FE 5E FB 88 CF 77 :: AEBS2(DvtvtddAdvdEBSst: 2, AEBS2messageCounter: 7 count, AEBS2messagechecksum: 7 count)
 (1667491663.958274)  vcan0  08F062FE   [8]  E8 64 FC 63 BB B2 39 78 :: ETC12(TrnsmssnHdrsttLp1Prssr: 25832 kPa, TrnsmssnHdrsttLp2Prssr: 25596 kPa, TrnsmssnDrtnlOtptShftSpd: 13628 rpm, TrnsmssnIntrmdtShftSpd: 3847.125 rpm)
 (1667491664.959458)  vcan0  18FE9CFE   [8]  66 B1 64 23 FE 8A 8F 08 :: MBT3(EngineMainBearing9Temperature: 1146.1875 degC, EngineMainBearing10Temperature: 10.125 degC, EngineMainBearing11Temperature: 838.9375 degC, EngineMainBearing12Temperature: -204.53125 degC)
 (1667491665.959908)  vcan0  0CF014FE   [8]  46 F0 2E 07 33 C5 93 27 :: BI(RelativeBladeHeight: 2951.0 mm, BladeRotationAngle: -185.640625 deg, RtvBdHtdBdRttAMstLt: 25.5 ms, RltvBldHghtFgrfMrt: 1, BladeRotationAngleFigureofMerit: 1)
 (1667491666.959984)  vcan0  18FE66FE   [8]  54 C3 ED 50 FC E8 FB 66 :: BM(BatteryMainSwitchHoldState: 0)
 (1667491667.963644)  vcan0  18FE69FE   [8]  80 5B 36 76 81 36 48 38 :: ET3(EngnIntkMnfld1TmprtrHghRsltn: 459.0 degC, EngnClntTmprtrHghRsltn: 672.6875 degC, EngnIntkVlvAttnSstmOlTmprtr: 163.03125 degC, EngnChrgArClr1OtltTmprtr: 177.25 degC)
 (1667491668.964667)  vcan0  0C0BFEFE   [8]  7F 8C 36 52 9E 00 69 1B :: AEBS2(DvtvtddAdvdEBSst: 3, AEBS2messageCounter: 11 count, AEBS2messagechecksum: 1 count)
 (1667491669.966786)  vcan0  18FEADFE   [8]  DC 75 7D 17 0B A4 41 0F :: EBC3(BApptPssHRFtAxLtW: 1100 kPa, BApptPssHRFtAxRtW: 585 kPa, BApptPssHRRAx1LtW: 625 kPa, BApptPssHRRAx1RtW: 115 kPa, BApptPssHRRAx2LtW: 55 kPa, BApptPssHRRAx2RtW: 820 kPa, BApptPssHRRAx3LtW: 325 kPa, BApptPssHRRAx3RtW: 75 kPa)
 (1667491670.967742)  vcan0  0C04FEFE   [8]  08 8C 5F 67 C6 9A 53 4D :: XBR(ExternalAccelerationDemand: 1.8169062500000006 m/(s*s), XBREBIMode: 3, XBRPriority: 3, XBRControlMode: 1, XBRurgency: 41.2 %, XBRMessageCounter: 13 count, XBRMessageChecksum: 4 count)
 (1667491671.977221)  vcan0  0C1DFEFE   [8]  CB FF BE 2A E6 2D 24 69 :: EIC(EngineTimingAdvance: 311.5859375 deg)
 (1667491672.978351)  vcan0  18FE56FE   [8]  E9 AB 88 4F F8 D7 22 48 :: AT1T1I1(Aftrtrtmnt1DslExhstFldTnkVlm: 93.2 %, Atttt1DsExstFdTTpt1: 131 degC, Aftrtrtmnt1DslExhstFldTnkLvl: 2036.0 mm, Atttt1DsExstFdTLvVPFMI: 24 binary, AttttDsExstFdTLwLvIdt: 7, Atttt1DsExstFdT1TptPFMI: 23 binary, AftrtrtmntSCROprtrIndmntSvrt: 6, Aftrtrtmnt1DslExhstFldTnkHtr: 13.600000000000001 %, Atttt1DsExstFdT1HtPFMI: 8 binary)
 (1667491640.946321)  vcan0  18FE98FE   [8]  C7 30 E2 68 15 49 85 13 :: TCI4(EngnTrhrgr1TrnIntkTmprtr: 117.21875 degC, EngnTrhrgr2TrnIntkTmprtr: 566.0625 degC, EngnTrhrgr3TrnIntkTmprtr: 311.65625 degC, EngnTrhrgr4TrnIntkTmprtr: -116.84375 degC)
 (1667491641.947001)  vcan0  18FEC1FE   [8]  C4 DA EC 6D 8E 7A 6F 65 :: VDHR(TtlVhlDstnHghRsltn: 9221195220 m, TripDistanceHighResolution: 8509023430 m)
 (1667491642.947290)  vcan0  18FEC0FE   [8]  FC 3C B1 6E E3 A3 CF 41 :: SERV(ServiceComponentIdentificationA: 252 ID, ServiceDistance: 66225 km, ServiceComponentIdentificationB: 110 ID, ServiceDelayCalendarTimeBased: 102 weeks, ServiceComponentIdentificationC: 163 ID, SrvDlOprtnlTmBsd: -15280 h)
 (1667491643.947826)  vcan0  0C1BFEFE   [8]  16 BD 46 2A A8 91 6A 3A :: HVES1C1(HVES1HghVltgBsCnntCmmnd: 2, HVES1PowerDownCommand: 1, HVES1HghVltgBsAtvIsltnTstCmmnd: 1, HVES1HghVltgBsPssvIsltnTstCmmnd: 0, HVES1CellBalancingCommand: 1, HVES1EnlIntrnlChrgrCmmnd: 3, HVES1OperationConsent: 3, HVES1HVtBsHSdRsstCtRqst: 2, HVES1HghVltgBsLwSdRsstrCnntRqst: 2)
 (1667491644.948929)  vcan0  18FE4BFE   [8]  9F B8 21 5A 62 F2 61 24 :: TCFG2(TransmissionTorqueLimit: 47263 Nm, TransmissionReferenceTorque: 23073 Nm, TrnsmssnCmmntnsFlrIdlTrqLmt: -27 %)
 (1667491645.949277)  vcan0  04F032FE   [8]  B6 59 E6 53 2D 94 F4 65 :: LDISP(MeasuredLinearDisplacement: 2296.6 mm, LnrDsplmntSnsrSnsrFgrfMrt: 2)
 (1667491646.949557)  vcan0  18FE69FE   [8]  C0 D8 02 07 1D C5 89 5B :: ET3(EngnIntkMnfld1TmprtrHghRsltn: 1461.0 degC, EngnClntTmprtrHghRsltn: -216.9375 degC, EngnIntkVlvAttnSstmOlTmprtr: 1303.90625 degC, EngnChrgArClr1OtltTmprtr: 459.28125 degC)
 (1667491647.949887)  vcan0  18FE55FE   [8]  66 D5 25 30 D4 98 B7 36 :: GFD(SpecificHeatRatio: 54.63 Ratio, ReferenceEngineGasMassFlowRate: 616.25 kg/h, Fuelenergycontent: 152.828125 MJ/(Nm*Nm*Nm))
 (1667491648.950290)  vcan0  18FE51FE   [8]  31 C1 F1 20 5D B8 46 69 :: ACC2(ACCusagedemand: 1, RequestedACCDistanceMode: 1)
 (1667491649.950428)  vcan0  0C0DFEFE   [8]  07 64 D4 12 CF 2C 9B 0A :: TC2(TransmissionMode9: 3, TransmissionMode10: 1)
 (1667491650.950543)  vcan0  18FE98FE   [8]  D6 AE 95 0A 97 5D 7D 73 :: TCI4(EngnTrhrgr1TrnIntkTmprtr: 1125.6875 degC, EngnTrhrgr2TrnIntkTmprtr: -188.34375 degC, EngnTrhrgr3TrnIntkTmprtr: 475.71875 degC, EngnTrhrgr4TrnIntkTmprtr: 650.90625 degC)
 (1667491651.950812)  vcan0  08F02DFE   [8]  03 05 5E 2A 5B 38 6A 61 :: ACCS(LtrlAlrtnExtnddRng: -307.17 m/(s*s), LngtdnlAlrtnExtnddRng: -211.54 m/(s*s), VrtlAlrtnExtnddRng: -175.73 m/(s*s), LtrlAlrtnFgrfMrtExtnddRng: 2, LngtdnlAlrtnFgrfMrtExtnddRng: 2, VrtlAlrtnFgrfMrtExtnddRng: 2, SpptVTsssRpttRtAtSs: 1)
 (1667491652.951981)  vcan0  04F032FE   [8]  00 BD 82 2F 57 75 1B 50 :: LDISP(MeasuredLinearDisplacement: 4838.400000000001 mm, LnrDsplmntSnsrSnsrFgrfMrt: 2)
 (1667491653.952114)  vcan0  0CD2FEFE   [8]  C0 29 6A 00 6D 32 62 7A :: ASC2(Atmttrtnhlpldtrnsfr: 0, KneelingRequestLeftSide: 0, KneelingRequestRightSide: 0, KneelingControlModeRequest: 3, NominalLevelRequestFrontAxle: 9, NominalLevelRequestRearAxle: 2, LevelControlModeRequest: 10, LiftAxle1PositionCommand: 2, LiftAxle2PositionCommand: 1, DamperStiffnessRequestFrontAxle: 0.0 %, DamperStiffnessRequestRearAxle: 43.6 %, DmprStffnssRqstLftTgAxl: 20.0 %, KneelingCommandFrontAxle: 2, KneelingCommandRearAxle: 0, Prohibitairsuspensioncontrol: 2, AllwLvlCntrlDrngBrkngCmmnd: 1, SpdDpndntLvlCntrlRqst: 2, PrhtAtmtArSspnsnCntrl: 2, Memorylevelrequest: 7)
 (1667491654.952230)  vcan0  0C0BFEFE   [8]  43 D8 55 10 0C EB 83 54 :: AEBS2(DvtvtddAdvdEBSst: 3, AEBS2messageCounter: 4 count, AEBS2messagechecksum: 5 count)
 (1667491655.954094)  vcan0  0CF016FE   [8]  35 3A 04 1F C3 44 6A 28 :: CCS(EngineCylinder1CombustionStatus: 1, EngineCylinder2CombustionStatus: 1, EngineCylinder3CombustionStatus: 3, EngineCylinder4CombustionStatus: 0, EngineCylinder5CombustionStatus: 2, EngineCylinder6CombustionStatus: 2, EngineCylinder7CombustionStatus: 3, EngineCylinder8CombustionStatus: 0, EngineCylinder9CombustionStatus: 0, EngnClndr10CmstnStts: 1, EngnClndr11CmstnStts: 0, EngnClndr12CmstnStts: 0, EngnClndr13CmstnStts: 3, EngnClndr14CmstnStts: 3, EngnClndr15CmstnStts: 1, EngnClndr16CmstnStts: 0, EngnClndr17CmstnStts: 3, EngnClndr18CmstnStts: 0, EngnClndr19CmstnStts: 0, EngnClndr20CmstnStts: 3, EngnClndr21CmstnStts: 0, EngnClndr22CmstnStts: 1, EngnClndr23CmstnStts: 0, EngnClndr24CmstnStts: 1)
 (1667491656.954942)  vcan0  18FED5FE   [8]  C9 23 68 3F 83 1D 6D 2F :: AS(AlternatorSpeed: 4580.5 rpm, Alternator1Status: 0, Alternator2Status: 2, Alternator3Status: 2, Alternator4Status: 1)
 (1667491657.955898)  vcan0  18FE90FE   [8]  85 4D 4C 51 E9 F2 92 5F :: unpack requires at least 264 bits to unpack (got 64)
 (1667491658.956402)  vcan0  0C0DFEFE   [8]  1D CA 20 63 1A B4 84 00 :: TC2(TransmissionMode9: 1, TransmissionMode10: 3)
 (1667491659.956767)  vcan0  18FE55FE   [8]  6C A3 D8 73 21 18 59 13 :: GFD(SpecificHeatRatio: 41.836 Ratio, ReferenceEngineGasMassFlowRate: 1482.8000000000002 kg/h, Fuelenergycontent: 24.12890625 MJ/(Nm*Nm*Nm))
 (1667491660.957190)  vcan0  18FEC0FE   [8]  BB F6 11 3E F8 C6 EE 1D :: SERV(ServiceComponentIdentificationA: 187 ID, ServiceDistance: -137645 km, ServiceComponentIdentificationB: 62 ID, ServiceDelayCalendarTimeBased: 123 weeks, ServiceComponentIdentificationC: 198 ID, SrvDlOprtnlTmBsd: -24465 h)
 (1667491661.957609)  vcan0  18FE9DFE   [8]  1F 93 D0 1B FB CB 4C 48 :: MBT2(EngineMainBearing5Temperature: 903.96875 degC, EngineMainBearing6Temperature: -50.5 degC, EngineMainBearing7Temperature: 1358.84375 degC, EngineMainBearing8Temperature: 305.375 degC)
 (1667491662.957923)  vcan0  0C0BFEFE   [8]  12 AA FE 5E FB 88 CF 77 :: AEBS2(DvtvtddAdvdEBSst: 2, AEBS2messageCounter: 7 count, AEBS2messagechecksum: 7 count)
 (1667491663.958274)  vcan0  08F062FE   [8]  E8 64 FC 63 BB B2 39 78 :: ETC12(TrnsmssnHdrsttLp1Prssr: 25832 kPa, TrnsmssnHdrsttLp2Prssr: 25596 kPa, TrnsmssnDrtnlOtptShftSpd: 13628 rpm, TrnsmssnIntrmdtShftSpd: 3847.125 rpm)
 (1667491664.959458)  vcan0  18FE9CFE   [8]  66 B1 64 23 FE 8A 8F 08 :: MBT3(EngineMainBearing9Temperature: 1146.1875 degC, EngineMainBearing10Temperature: 10.125 degC, EngineMainBearing11Temperature: 838.9375 degC, EngineMainBearing12Temperature: -204.53125 degC)
 (1667491665.959908)  vcan0  0CF014FE   [8]  46 F0 2E 07 33 C5 93 27 :: BI(RelativeBladeHeight: 2951.0 mm, BladeRotationAngle: -185.640625 deg, RtvBdHtdBdRttAMstLt: 25.5 ms, RltvBldHghtFgrfMrt: 1, BladeRotationAngleFigureofMerit: 1)
 (1667491666.959984)  vcan0  18FE66FE   [8]  54 C3 ED 50 FC E8 FB 66 :: BM(BatteryMainSwitchHoldState: 0)
 (1667491667.963644)  vcan0  18FE69FE   [8]  80 5B 36 76 81 36 48 38 :: ET3(EngnIntkMnfld1TmprtrHghRsltn: 459.0 degC, EngnClntTmprtrHghRsltn: 672.6875 degC, EngnIntkVlvAttnSstmOlTmprtr: 163.03125 degC, EngnChrgArClr1OtltTmprtr: 177.25 degC)
 (1667491668.964667)  vcan0  0C0BFEFE   [8]  7F 8C 36 52 9E 00 69 1B :: AEBS2(DvtvtddAdvdEBSst: 3, AEBS2messageCounter: 11 count, AEBS2messagechecksum: 1 count)
 (1667491669.966786)  vcan0  18FEADFE   [8]  DC 75 7D 17 0B A4 41 0F :: EBC3(BApptPssHRFtAxLtW: 1100 kPa, BApptPssHRFtAxRtW: 585 kPa, BApptPssHRRAx1LtW: 625 kPa, BApptPssHRRAx1RtW: 115 kPa, BApptPssHRRAx2LtW: 55 kPa, BApptPssHRRAx2RtW: 820 kPa, BApptPssHRRAx3LtW: 325 kPa, BApptPssHRRAx3RtW: 75 kPa)
 (1667491670.967742)  vcan0  0C04FEFE   [8]  08 8C 5F 67 C6 9A 53 4D :: XBR(ExternalAccelerationDemand: 1.8169062500000006 m/(s*s), XBREBIMode: 3, XBRPriority: 3, XBRControlMode: 1, XBRurgency: 41.2 %, XBRMessageCounter: 13 count, XBRMessageChecksum: 4 count)
 (1667491671.977221)  vcan0  0C1DFEFE   [8]  CB FF BE 2A E6 2D 24 69 :: EIC(EngineTimingAdvance: 311.5859375 deg)
 (1667491672.978351)  vcan0  18FE56FE   [8]  E9 AB 88 4F F8 D7 22 48 :: AT1T1I1(Aftrtrtmnt1DslExhstFldTnkVlm: 93.2 %, Atttt1DsExstFdTTpt1: 131 degC, Aftrtrtmnt1DslExhstFldTnkLvl: 2036.0 mm, Atttt1DsExstFdTLvVPFMI: 24 binary, AttttDsExstFdTLwLvIdt: 7, Atttt1DsExstFdT1TptPFMI: 23 binary, AftrtrtmntSCROprtrIndmntSvrt: 6, Aftrtrtmnt1DslExhstFldTnkHtr: 13.600000000000001 %, Atttt1DsExstFdT1HtPFMI: 8 binary)
 (1667491644.948929)  vcan0  18FE4BFE   [8]  9F B8 21 5A 62 F2 61 24 :: TCFG2(TransmissionTorqueLimit: 47263 Nm, TransmissionReferenceTorque: 23073 Nm, TrnsmssnCmmntnsFlrIdlTrqLmt: -27 %)
 (1667491645.949277)  vcan0  04F032FE   [8]  B6 59 E6 53 2D 94 F4 65 :: LDISP(MeasuredLinearDisplacement: 2296.6 mm, LnrDsplmntSnsrSnsrFgrfMrt: 2)
 (1667491646.949557)  vcan0  18FE69FE   [8]  C0 D8 02 07 1D C5 89 5B :: ET3(EngnIntkMnfld1TmprtrHghRsltn: 1461.0 degC, EngnClntTmprtrHghRsltn: -216.9375 degC, EngnIntkVlvAttnSstmOlTmprtr: 1303.90625 degC, EngnChrgArClr1OtltTmprtr: 459.28125 degC)
 (1667491647.949887)  vcan0  18FE55FE   [8]  66 D5 25 30 D4 98 B7 36 :: GFD(SpecificHeatRatio: 54.63 Ratio, ReferenceEngineGasMassFlowRate: 616.25 kg/h, Fuelenergycontent: 152.828125 MJ/(Nm*Nm*Nm))
 (1667491648.950290)  vcan0  18FE51FE   [8]  31 C1 F1 20 5D B8 46 69 :: ACC2(ACCusagedemand: 1, RequestedACCDistanceMode: 1)
 (1667491649.950428)  vcan0  0C0DFEFE   [8]  07 64 D4 12 CF 2C 9B 0A :: TC2(TransmissionMode9: 3, TransmissionMode10: 1)
 (1667491650.950543)  vcan0  18FE98FE   [8]  D6 AE 95 0A 97 5D 7D 73 :: TCI4(EngnTrhrgr1TrnIntkTmprtr: 1125.6875 degC, EngnTrhrgr2TrnIntkTmprtr: -188.34375 degC, EngnTrhrgr3TrnIntkTmprtr: 475.71875 degC, EngnTrhrgr4TrnIntkTmprtr: 650.90625 degC)
 (1667491651.950812)  vcan0  08F02DFE   [8]  03 05 5E 2A 5B 38 6A 61 :: ACCS(LtrlAlrtnExtnddRng: -307.17 m/(s*s), LngtdnlAlrtnExtnddRng: -211.54 m/(s*s), VrtlAlrtnExtnddRng: -175.73 m/(s*s), LtrlAlrtnFgrfMrtExtnddRng: 2, LngtdnlAlrtnFgrfMrtExtnddRng: 2, VrtlAlrtnFgrfMrtExtnddRng: 2, SpptVTsssRpttRtAtSs: 1)
 (1667491652.951981)  vcan0  04F032FE   [8]  00 BD 82 2F 57 75 1B 50 :: LDISP(MeasuredLinearDisplacement: 4838.400000000001 mm, LnrDsplmntSnsrSnsrFgrfMrt: 2)
 (1667491653.952114)  vcan0  0CD2FEFE   [8]  C0 29 6A 00 6D 32 62 7A :: ASC2(Atmttrtnhlpldtrnsfr: 0, KneelingRequestLeftSide: 0, KneelingRequestRightSide: 0, KneelingControlModeRequest: 3, NominalLevelRequestFrontAxle: 9, NominalLevelRequestRearAxle: 2, LevelControlModeRequest: 10, LiftAxle1PositionCommand: 2, LiftAxle2PositionCommand: 1, DamperStiffnessRequestFrontAxle: 0.0 %, DamperStiffnessRequestRearAxle: 43.6 %, DmprStffnssRqstLftTgAxl: 20.0 %, KneelingCommandFrontAxle: 2, KneelingCommandRearAxle: 0, Prohibitairsuspensioncontrol: 2, AllwLvlCntrlDrngBrkngCmmnd: 1, SpdDpndntLvlCntrlRqst: 2, PrhtAtmtArSspnsnCntrl: 2, Memorylevelrequest: 7)
 (1667491654.952230)  vcan0  0C0BFEFE   [8]  43 D8 55 10 0C EB 83 54 :: AEBS2(DvtvtddAdvdEBSst: 3, AEBS2messageCounter: 4 count, AEBS2messagechecksum: 5 count)
 (1667491655.954094)  vcan0  0CF016FE   [8]  35 3A 04 1F C3 44 6A 28 :: CCS(EngineCylinder1CombustionStatus: 1, EngineCylinder2CombustionStatus: 1, EngineCylinder3CombustionStatus: 3, EngineCylinder4CombustionStatus: 0, EngineCylinder5CombustionStatus: 2, EngineCylinder6CombustionStatus: 2, EngineCylinder7CombustionStatus: 3, EngineCylinder8CombustionStatus: 0, EngineCylinder9CombustionStatus: 0, EngnClndr10CmstnStts: 1, EngnClndr11CmstnStts: 0, EngnClndr12CmstnStts: 0, EngnClndr13CmstnStts: 3, EngnClndr14CmstnStts: 3, EngnClndr15CmstnStts: 1, EngnClndr16CmstnStts: 0, EngnClndr17CmstnStts: 3, EngnClndr18CmstnStts: 0, EngnClndr19CmstnStts: 0, EngnClndr20CmstnStts: 3, EngnClndr21CmstnStts: 0, EngnClndr22CmstnStts: 1, EngnClndr23CmstnStts: 0, EngnClndr24CmstnStts: 1)
 (1667491656.954942)  vcan0  18FED5FE   [8]  C9 23 68 3F 83 1D 6D 2F :: AS(AlternatorSpeed: 4580.5 rpm, Alternator1Status: 0, Alternator2Status: 2, Alternator3Status: 2, Alternator4Status: 1)
 (1667491657.955898)  vcan0  18FE90FE   [8]  85 4D 4C 51 E9 F2 92 5F :: unpack requires at least 264 bits to unpack (got 64)
 (1667491658.956402)  vcan0  0C0DFEFE   [8]  1D CA 20 63 1A B4 84 00 :: TC2(TransmissionMode9: 1, TransmissionMode10: 3)
 (1667491659.956767)  vcan0  18FE55FE   [8]  6C A3 D8 73 21 18 59 13 :: GFD(SpecificHeatRatio: 41.836 Ratio, ReferenceEngineGasMassFlowRate: 1482.8000000000002 kg/h, Fuelenergycontent: 24.12890625 MJ/(Nm*Nm*Nm))
 (1667491660.957190)  vcan0  18FEC0FE   [8]  BB F6 11 3E F8 C6 EE 1D :: SERV(ServiceComponentIdentificationA: 187 ID, ServiceDistance: -137645 km, ServiceComponentIdentificationB: 62 ID, ServiceDelayCalendarTimeBased: 123 weeks, ServiceComponentIdentificationC: 198 ID, SrvDlOprtnlTmBsd: -24465 h)
 (1667491661.957609)  vcan0  18FE9DFE   [8]  1F 93 D0 1B FB CB 4C 48 :: MBT2(EngineMainBearing5Temperature: 903.96875 degC, EngineMainBearing6Temperature: -50.5 degC, EngineMainBearing7Temperature: 1358.84375 degC, EngineMainBearing8Temperature: 305.375 degC)
 (1667491662.957923)  vcan0  0C0BFEFE   [8]  12 AA FE 5E FB 88 CF 77 :: AEBS2(DvtvtddAdvdEBSst: 2, AEBS2messageCounter: 7 count, AEBS2messagechecksum: 7 count)
 (1667491663.958274)  vcan0  08F062FE   [8]  E8 64 FC 63 BB B2 39 78 :: ETC12(TrnsmssnHdrsttLp1Prssr: 25832 kPa, TrnsmssnHdrsttLp2Prssr: 25596 kPa, TrnsmssnDrtnlOtptShftSpd: 13628 rpm, TrnsmssnIntrmdtShftSpd: 3847.125 rpm)
 (1667491664.959458)  vcan0  18FE9CFE   [8]  66 B1 64 23 FE 8A 8F 08 :: MBT3(EngineMainBearing9Temperature: 1146.1875 degC, EngineMainBearing10Temperature: 10.125 degC, EngineMainBearing11Temperature: 838.9375 degC, EngineMainBearing12Temperature: -204.53125 degC)
 (1667491665.959908)  vcan0  0CF014FE   [8]  46 F0 2E 07 33 C5 93 27 :: BI(RelativeBladeHeight: 2951.0 mm, BladeRotationAngle: -185.640625 deg, RtvBdHtdBdRttAMstLt: 25.5 ms, RltvBldHghtFgrfMrt: 1, BladeRotationAngleFigureofMerit: 1)
 (1667491666.959984)  vcan0  18FE66FE   [8]  54 C3 ED 50 FC E8 FB 66 :: BM(BatteryMainSwitchHoldState: 0)
 (1667491667.963644)  vcan0  18FE69FE   [8]  80 5B 36 76 81 36 48 38 :: ET3(EngnIntkMnfld1TmprtrHghRsltn: 459.0 degC, EngnClntTmprtrHghRsltn: 672.6875 degC, EngnIntkVlvAttnSstmOlTmprtr: 163.03125 degC, EngnChrgArClr1OtltTmprtr: 177.25 degC)
 (1667491668.964667)  vcan0  0C0BFEFE   [8]  7F 8C 36 52 9E 00 69 1B :: AEBS2(DvtvtddAdvdEBSst: 3, AEBS2messageCounter: 11 count, AEBS2messagechecksum: 1 count)
 (1667491669.966786)  vcan0  18FEADFE   [8]  DC 75 7D 17 0B A4 41 0F :: EBC3(BApptPssHRFtAxLtW: 1100 kPa, BApptPssHRFtAxRtW: 585 kPa, BApptPssHRRAx1LtW: 625 kPa, BApptPssHRRAx1RtW: 115 kPa, BApptPssHRRAx2LtW: 55 kPa, BApptPssHRRAx2RtW: 820 kPa, BApptPssHRRAx3LtW: 325 kPa, BApptPssHRRAx3RtW: 75 kPa)
 (1667491670.967742)  vcan0  0C04FEFE   [8]  08 8C 5F 67 C6 9A 53 4D :: XBR(ExternalAccelerationDemand: 1.8169062500000006 m/(s*s), XBREBIMode: 3, XBRPriority: 3, XBRControlMode: 1, XBRurgency: 41.2 %, XBRMessageCounter: 13 count, XBRMessageChecksum: 4 count)
 (1667491671.977221)  vcan0  0C1DFEFE   [8]  CB FF BE 2A E6 2D 24 69 :: EIC(EngineTimingAdvance: 311.5859375 deg)
 (1667491672.978351)  vcan0  18FE56FE   [8]  E9 AB 88 4F F8 D7 22 48 :: AT1T1I1(Aftrtrtmnt1DslExhstFldTnkVlm: 93.2 %, Atttt1DsExstFdTTpt1: 131 degC, Aftrtrtmnt1DslExhstFldTnkLvl: 2036.0 mm, Atttt1DsExstFdTLvVPFMI: 24 binary, AttttDsExstFdTLwLvIdt: 7, Atttt1DsExstFdT1TptPFMI: 23 binary, AftrtrtmntSCROprtrIndmntSvrt: 6, Aftrtrtmnt1DslExhstFldTnkHtr: 13.600000000000001 %, Atttt1DsExstFdT1HtPFMI: 8 binary)
 (1667491673.986633)  vcan0  18FE52FE   [8]  5E CD 6D 44 E0 3C 1F 2C :: VEP3(AltrntrCrrntHghRngRsltn: 1028.7000000000003 A, SLIBttr1NtCrrntHghRngRsltn: -724.15 A, SLIBattery2NetCurrent: -820.8 A)
 (1667491674.987374)  vcan0  0C99FEFE   [8]  40 21 B5 33 46 EE 83 4F :: JLCM(Joystick1Lamp1Command: 0, Joystick1Lamp2Command: 0, Joystick1Lamp3Command: 0, Joystick1Lamp4Command: 1, Joystick1Lamp5Command: 1, Joystick1Lamp6Command: 0, Joystick1Lamp7Command: 2, Joystick1Lamp8Command: 0, Joystick1Lamp9Command: 1, Joystick1Lamp10Command: 1, Joystick2Lamp1Command: 3, Joystick2Lamp2Command: 2, Joystick2Lamp3Command: 3, Joystick2Lamp4Command: 0, Joystick2Lamp5Command: 3, Joystick2Lamp6Command: 0, Joystick2Lamp7Command: 2, Joystick2Lamp8Command: 1, Joystick2Lamp9Command: 0, Joystick2Lamp10Command: 1, Joystick3Lamp1Command: 2, Joystick3Lamp2Command: 3, Joystick3Lamp3Command: 2, Joystick3Lamp4Command: 3, Joystick3Lamp5Command: 3, Joystick3Lamp6Command: 0, Joystick3Lamp7Command: 0, Joystick3Lamp8Command: 2, Joystick3Lamp9Command: 3, Joystick3Lamp10Command: 3)
 (1667491659.956767)  vcan0  18FE55FE   [8]  6C A3 D8 73 21 18 59 13 :: GFD(SpecificHeatRatio: 41.836 Ratio, ReferenceEngineGasMassFlowRate: 1482.8000000000002 kg/h, Fuelenergycontent: 24.12890625 MJ/(Nm*Nm*Nm))
 (1667491660.957190)  vcan0  18FEC0FE   [8]  BB F6 11 3E F8 C6 EE 1D :: SERV(ServiceComponentIdentificationA: 187 ID, ServiceDistance: -137645 km, ServiceComponentIdentificationB: 62 ID, ServiceDelayCalendarTimeBased: 123 weeks, ServiceComponentIdentificationC: 198 ID, SrvDlOprtnlTmBsd: -24465 h)
 (1667491661.957609)  vcan0  18FE9DFE   [8]  1F 93 D0 1B FB CB 4C 48 :: MBT2(EngineMainBearing5Temperature: 903.96875 degC, EngineMainBearing6Temperature: -50.5 degC, EngineMainBearing7Temperature: 1358.84375 degC, EngineMainBearing8Temperature: 305.375 degC)
 (1667491662.957923)  vcan0  0C0BFEFE   [8]  12 AA FE 5E FB 88 CF 77 :: AEBS2(DvtvtddAdvdEBSst: 2, AEBS2messageCounter: 7 count, AEBS2messagechecksum: 7 count)
 (1667491663.958274)  vcan0  08F062FE   [8]  E8 64 FC 63 BB B2 39 78 :: ETC12(TrnsmssnHdrsttLp1Prssr: 25832 kPa, TrnsmssnHdrsttLp2Prssr: 25596 kPa, TrnsmssnDrtnlOtptShftSpd: 13628 rpm, TrnsmssnIntrmdtShftSpd: 3847.125 rpm)
 (1667491664.959458)  vcan0  18FE9CFE   [8]  66 B1 64 23 FE 8A 8F 08 :: MBT3(EngineMainBearing9Temperature: 1146.1875 degC, EngineMainBearing10Temperature: 10.125 degC, EngineMainBearing11Temperature: 838.9375 degC, EngineMainBearing12Temperature: -204.53125 degC)
 (1667491665.959908)  vcan0  0CF014FE   [8]  46 F0 2E 07 33 C5 93 27 :: BI(RelativeBladeHeight: 2951.0 mm, BladeRotationAngle: -185.640625 deg, RtvBdHtdBdRttAMstLt: 25.5 ms, RltvBldHghtFgrfMrt: 1, BladeRotationAngleFigureofMerit: 1)
 (1667491666.959984)  vcan0  18FE66FE   [8]  54 C3 ED 50 FC E8 FB 66 :: BM(BatteryMainSwitchHoldState: 0)
 (1667491667.963644)  vcan0  18FE69FE   [8]  80 5B 36 76 81 36 48 38 :: ET3(EngnIntkMnfld1TmprtrHghRsltn: 459.0 degC, EngnClntTmprtrHghRsltn: 672.6875 degC, EngnIntkVlvAttnSstmOlTmprtr: 163.03125 degC, EngnChrgArClr1OtltTmprtr: 177.25 degC)
 (1667491668.964667)  vcan0  0C0BFEFE   [8]  7F 8C 36 52 9E 00 69 1B :: AEBS2(DvtvtddAdvdEBSst: 3, AEBS2messageCounter: 11 count, AEBS2messagechecksum: 1 count)
 (1667491669.966786)  vcan0  18FEADFE   [8]  DC 75 7D 17 0B A4 41 0F :: EBC3(BApptPssHRFtAxLtW: 1100 kPa, BApptPssHRFtAxRtW: 585 kPa, BApptPssHRRAx1LtW: 625 kPa, BApptPssHRRAx1RtW: 115 kPa, BApptPssHRRAx2LtW: 55 kPa, BApptPssHRRAx2RtW: 820 kPa, BApptPssHRRAx3LtW: 325 kPa, BApptPssHRRAx3RtW: 75 kPa)
 (1667491670.967742)  vcan0  0C04FEFE   [8]  08 8C 5F 67 C6 9A 53 4D :: XBR(ExternalAccelerationDemand: 1.8169062500000006 m/(s*s), XBREBIMode: 3, XBRPriority: 3, XBRControlMode: 1, XBRurgency: 41.2 %, XBRMessageCounter: 13 count, XBRMessageChecksum: 4 count)
 (1667491671.977221)  vcan0  0C1DFEFE   [8]  CB FF BE 2A E6 2D 24 69 :: EIC(EngineTimingAdvance: 311.5859375 deg)
 (1667491672.978351)  vcan0  18FE56FE   [8]  E9 AB 88 4F F8 D7 22 48 :: AT1T1I1(Aftrtrtmnt1DslExhstFldTnkVlm: 93.2 %, Atttt1DsExstFdTTpt1: 131 degC, Aftrtrtmnt1DslExhstFldTnkLvl: 2036.0 mm, Atttt1DsExstFdTLvVPFMI: 24 binary, AttttDsExstFdTLwLvIdt: 7, Atttt1DsExstFdT1TptPFMI: 23 binary, AftrtrtmntSCROprtrIndmntSvrt: 6, Aftrtrtmnt1DslExhstFldTnkHtr: 13.600000000000001 %, Atttt1DsExstFdT1HtPFMI: 8 binary)
 (1667491673.986633)  vcan0  18FE52FE   [8]  5E CD 6D 44 E0 3C 1F 2C :: VEP3(AltrntrCrrntHghRngRsltn: 1028.7000000000003 A, SLIBttr1NtCrrntHghRngRsltn: -724.15 A, SLIBattery2NetCurrent: -820.8 A)
 (1667491674.987374)  vcan0  0C99FEFE   [8]  40 21 B5 33 46 EE 83 4F :: JLCM(Joystick1Lamp1Command: 0, Joystick1Lamp2Command: 0, Joystick1Lamp3Command: 0, Joystick1Lamp4Command: 1, Joystick1Lamp5Command: 1, Joystick1Lamp6Command: 0, Joystick1Lamp7Command: 2, Joystick1Lamp8Command: 0, Joystick1Lamp9Command: 1, Joystick1Lamp10Command: 1, Joystick2Lamp1Command: 3, Joystick2Lamp2Command: 2, Joystick2Lamp3Command: 3, Joystick2Lamp4Command: 0, Joystick2Lamp5Command: 3, Joystick2Lamp6Command: 0, Joystick2Lamp7Command: 2, Joystick2Lamp8Command: 1, Joystick2Lamp9Command: 0, Joystick2Lamp10Command: 1, Joystick3Lamp1Command: 2, Joystick3Lamp2Command: 3, Joystick3Lamp3Command: 2, Joystick3Lamp4Command: 3, Joystick3Lamp5Command: 3, Joystick3Lamp6Command: 0, Joystick3Lamp7Command: 0, Joystick3Lamp8Command: 2, Joystick3Lamp9Command: 3, Joystick3Lamp10Command: 3)
 (1667491675.988107)  vcan0  0C1EFEFE   [8]  2E 60 80 77 8C DE B2 56 :: ALTC(AltrntrStpntVltgCmmnd: 24.622 V, AltrntrExttnMxmmCrrntLmt: 32.0 A, AlternatorTorqueRampTimeCommand: 11.9 s, AltrntrTrqRmpMxmmSpdCmmnd: 4480 rpm)
 (1667491676.988385)  vcan0  18FEA4FE   [8]  E0 E3 B5 63 E1 A1 A0 27 :: ET2(EngineOilTemperature2: 1550.0 degC, EngineECUTemperature: 524.65625 degC, EngnExhstGsRrltn1DffrntlPrssr: 73.7578125 kPa, EngnExhstGsRrltn1Tmprtr: 44.0 degC)
 (1667491677.988541)  vcan0  08F02CFE   [8]  14 85 58 7F 61 FD D6 1D :: MSI2(MagnetForwardCurrent: 34068 A, MagnetReverseCurrent: 88 A, MaterialLiftSwitch: 3, MaterialDropSwitch: 3, GnrtrCrrntBstAtvStts: 3, MaterialLiftActiveStatus: 1, MaterialDropActiveStatus: 1, LiftRelayControl: 0, DropRelayControl: 2, MagnetGeneratorControl: 1)
 (1667491678.992181)  vcan0  18FE4CFE   [8]  32 19 8E 7A E0 89 0D 70 :: ML(RearBlackOutMarkerSelect: 2, FrontBlackOutMarkerLampSelect: 0, ConvoyLampSelect: 3, ConvoyDrivingLampSelect: 0, BlackOutBrakeStopLampSelect: 2, NightVisionIlluminatorSelect: 2, BlackOutWorkLampSelect: 1, OprtrsBlkOtIntnstSltn: 44.800000000000004 %)
 (1667491679.993122)  vcan0  18FE9DFE   [8]  6B 61 48 76 BC FF 8A 07 :: MBT2(EngineMainBearing5Temperature: 506.34375 degC, EngineMainBearing6Temperature: 673.25 degC, EngineMainBearing7Temperature: 1772.875 degC, EngineMainBearing8Temperature: -212.6875 degC)
 (1667491680.995926)  vcan0  18FE97FE   [8]  C5 C1 5B 05 C4 8B EA 6E :: TCI5(EngnTrhrgr1TrnOtltTmprtr: 1277.15625 degC, EngnTrhrgr2TrnOtltTmprtr: -230.15625 degC, EngnTrhrgr3TrnOtltTmprtr: 845.125 degC, EngnTrhrgr4TrnOtltTmprtr: 614.3125 degC)
 (1667491681.996712)  vcan0  18FE4CFE   [8]  17 E9 5D 32 8F 8B A9 19 :: ML(RearBlackOutMarkerSelect: 3, FrontBlackOutMarkerLampSelect: 1, ConvoyLampSelect: 1, ConvoyDrivingLampSelect: 0, BlackOutBrakeStopLampSelect: 1, NightVisionIlluminatorSelect: 2, BlackOutWorkLampSelect: 0, OprtrsBlkOtIntnstSltn: 10.0 %)
 (1667491682.998286)  vcan0  18FEBDFE   [8]  64 DC AC 27 78 37 32 69 :: FD1(EngineFan1EstimatedPercentSpeed: 40.0 %, FanDriveState: 12, FanSpeed: 1269.5 rpm, HydraulicFanMotorPressure: 7100.0 kPa, FanDriveBypassCommandStatus: 20.0 %)
 (1667491683.998961)  vcan0  0C1DFEFE   [8]  AD 58 CB 14 D6 04 A0 2D :: EIC(EngineTimingAdvance: -22.6484375 deg)
 (1667491685.005205)  vcan0  18FE4AFE   [8]  B2 87 23 7A 16 26 55 61 :: ETC7(TrnsmssnCrrntRngDsplBlnkStt: 2, TransmissionServiceIndicator: 0, TrnsmssnRqstdRngDsplBlnkStt: 3, TrnsmssnRqstdRngDsplFlshStt: 2, TrnsmssnRdfrBrkRls: 3, ActiveShiftConsoleIndicator: 1, TransmissionEngineCrankEnable: 0, TrnsmssnShftInhtIndtr: 2, TransmissionMode4Indicator: 3, TransmissionMode3Indicator: 0, TransmissionMode2Indicator: 2, TransmissionMode1Indicator: 0, TrnsmssnRqstdGrFdk: -3 gear value, TransmissionMode5Indicator: 2, TransmissionMode6Indicator: 1, TransmissionMode7Indicator: 1, TransmissionMode8Indicator: 0, TrnsmssnRvrsGrShftInhtStts: 2, TransmissionWarningIndicator: 1, TransmissionMode9Indicator: 2, TransmissionMode10Indicator: 0, TrnsmssnArSpplPrssrIndtr: 5, TrnsmssnAtNtrlMnlRtrnStt: 2, TransmissionManualModeIndicator: 1)
 (1667491686.006659)  vcan0  18FEADFE   [8]  B5 41 0B 68 45 86 D5 58 :: EBC3(BApptPssHRFtAxLtW: 905 kPa, BApptPssHRFtAxRtW: 325 kPa, BApptPssHRRAx1LtW: 55 kPa, BApptPssHRRAx1RtW: 520 kPa, BApptPssHRRAx2LtW: 345 kPa, BApptPssHRRAx2RtW: 670 kPa, BApptPssHRRAx3LtW: 1065 kPa, BApptPssHRRAx3RtW: 440 kPa)
 (1667491687.007598)  vcan0  0CD1FEFE   [8]  EB C0 86 7D 25 6A 8B 3C :: ASC6(LevelPresetFrontAxleLeft: 1738.7000000000007 mm, LevelPresetFrontAxleRight: 13.400000000000091 mm, LevelPresetRearAxleLeft: -482.6999999999998 mm, LevelPresetRearAxleRight: -1650.1 mm)
 (1667491688.008756)  vcan0  08F110FE   [8]  1E 29 FE 79 39 EF E3 3B :: B2(DmnddBrkAppltnPrssr: 1052.6000000000001 kPa, BrakePedalSwitch2: 2)
 (1667491732.049378)  vcan0  18FE4BFE   [8]  CA F1 20 2A 3A 00 E1 39 :: TCFG2(TransmissionTorqueLimit: 61898 Nm, TransmissionReferenceTorque: 10784 Nm, TrnsmssnCmmntnsFlrIdlTrqLmt: -67 %)
 (1667491733.049749)  vcan0  18FEA0FE   [8]  8B 0F 3F 5B DC A0 EE 3B :: EPT4(EngnExhstGsPrt13Tmprtr: -148.65625 degC, EngnExhstGsPrt14Tmprtr: 456.96875 degC, EngnExhstGsPrt15Tmprtr: 1013.875 degC, EngnExhstGsPrt16Tmprtr: 206.4375 degC)
 (1667491734.050208)  vcan0  0C04FEFE   [8]  AA 29 F8 1A 23 70 06 5A :: XBR(ExternalAccelerationDemand: -10.4789921875 m/(s*s), XBREBIMode: 0, XBRPriority: 2, XBRControlMode: 3, XBRurgency: 10.4 %, XBRMessageCounter: 10 count, XBRMessageChecksum: 5 count)
 (1667491735.051138)  vcan0  18FEBFFE   [8]  34 56 08 4F D3 DA B1 45 :: EBC2(FrontAxleSpeed: 86.203125 km/h, RelativeSpeedFrontAxleLeftWheel: -7.3125 km/h, RltvSpdFrntAxlRghtWhl: -2.875 km/h, RelativeSpeedRearAxle1LeftWheel: 5.375 km/h, RltvSpdRrAxl1RghtWhl: 5.8125 km/h, RelativeSpeedRearAxle2LeftWheel: 3.25 km/h, RltvSpdRrAxl2RghtWhl: -3.5 km/h)
 (1667491736.051686)  vcan0  0CF004FE   [8]  71 15 FD 69 48 E7 93 39 :: EEC1(EngineTorqueMode: 1, AtlEngnPrntTrqFrtnl: 0.875 %, DrvrsDmndEngnPrntTrq: -104 %, ActualEnginePercentTorque: 128 %, EngineSpeed: 2317.125 rpm, SrAddrssfCntrllngDvfrEngnCntrl: 231 SA, EngineStarterMode: 3, EngineDemandPercentTorque: -68 %)
 (1667491737.052510)  vcan0  18FE53FE   [8]  F3 77 8A 4C 9E 44 11 53 :: RTC1(LwLmtThrshldfrMxmmRPMfrmRtrdr: 7776 rpm, HLtTsdMCtsRPMRtd: 3808 rpm, LwLmtThrshldfrMxmmTrqfrmRtrdr: 13 %, HLtTsdMCtsTqRtd: -49 %, MaximumContinuousRetarderSpeed: 5056 rpm, MinimumContinuousRetarderSpeed: 2176 rpm, MaximumContinuousRetarderTorque: -108 %, MinimumContinuousRetarderTorque: -42 %)
 (1667491738.052739)  vcan0  04F031FE   [8]  E0 A4 60 1E 68 38 AB 42 :: WAND(WandAngle: 20.415999999999997 deg, WandSensorFigureofMerit: 0)
 (1667491739.053443)  vcan0  18FE6DFE   [8]  17 44 B7 0A 43 2E FB 23 :: HTR(AxlrHtrOtptClntTmprtr: -17 degC, AxlrHtrInptArTmprtr: 28 degC, AxlrHtrOtptPwrPrnt: 73.2 %, AuxiliaryHeaterMode: 10, AuxiliaryHeaterWaterPumpStatus: 3, CabVentilation: 0, EngineHeatingZone: 0, CabHeatingZone: 1, ADRCompliantHeaterInstallation: 2)
 (1667491740.053733)  vcan0  18FE55FE   [8]  65 6D 31 7C CF 44 85 73 :: GFD(SpecificHeatRatio: 28.005 Ratio, ReferenceEngineGasMassFlowRate: 1589.65 kg/h, Fuelenergycontent: 68.80859375 MJ/(Nm*Nm*Nm))
 (1667491741.053905)  vcan0  18FEBDFE   [8]  F6 B0 4F 53 86 64 98 74 :: FD1(EngineFan1EstimatedPercentSpeed: 98.4 %, FanDriveState: 0, FanSpeed: 2665.875 rpm, HydraulicFanMotorPressure: 12867.0 kPa, FanDriveBypassCommandStatus: 60.800000000000004 %)
 (1667491742.055220)  vcan0  18FE52FE   [8]  29 81 2A 13 50 56 B9 1E :: VEP3(AltrntrCrrntHghRngRsltn: 53.25 A, SLIBttr1NtCrrntHghRngRsltn: -1354.7 A, SLIBattery2NetCurrent: -495.20000000000005 A)
 (1667491743.055469)  vcan0  08F02CFE   [8]  2F 5E 88 13 DC 65 F8 79 :: MSI2(MagnetForwardCurrent: 24111 A, MagnetReverseCurrent: 136 A, MaterialLiftSwitch: 3, MaterialDropSwitch: 0, GnrtrCrrntBstAtvStts: 1, MaterialLiftActiveStatus: 0, MaterialDropActiveStatus: 0, LiftRelayControl: 3, DropRelayControl: 1, MagnetGeneratorControl: 3)
 (1667491744.055736)  vcan0  0C0DFEFE   [8]  B9 EA 51 65 86 8F F0 14 :: TC2(TransmissionMode9: 1, TransmissionMode10: 2)
 (1667491745.056348)  vcan0  18FE67FE   [8]  14 DD B2 5E BA E5 F8 63 :: CCC(AxlrHtrMxmmOtptPwr: 113192 W)
 (1667491746.057416)  vcan0  18FE4EFE   [8]  EE 48 06 3C 2B FB F5 4D :: DC1(Positionofdoors: 14, RampWheelChairLiftPosition: 2, Status2ofdoors: 3)
 (1667491747.057659)  vcan0  0CF013FE   [8]  C8 70 E6 3A 1E 73 80 1A :: SSI(PitchAngle: -6.256 deg, RollAngle: -33.843999999999994 deg, PitchRate: -5.060000000000002 deg/s, PitchAngleFigureofMerit: 0, RollAngleFigureofMerit: 0, PitchRateFigureofMerit: 0, PitchandRollCompensated: 2, RollandPitchMeasurementLatency: 13.0 ms)
 (1667491748.058518)  vcan0  0CF00CFE   [8]  29 D9 47 1D FF 17 E1 38 :: ETC8(TrnsmssnTrqCnvrtrRt: 55.593 Ratio, TrnsmssnClthCnvrtrInptSpd: 936.875 rpm, TransmissionShiftInhibitReason: 255, TrnsmssnTrqCnvrtrLkpInhtRsn: 23, TrnsmssnTrqCnvrtrLkpInhtIndtr: 1)
