 (1668643110.058743)  vcan0  18FEADFE   [8]  DF DB DC 74 C9 43 36 67 :: EBC3(BApptPssHRFtAxLtW: 1115 kPa, BApptPssHRFtAxRtW: 1095 kPa, BApptPssHRRAx1LtW: 1100 kPa, BApptPssHRRAx1RtW: 580 kPa, BApptPssHRRAx2LtW: 1005 kPa, BApptPssHRRAx2RtW: 335 kPa, BApptPssHRRAx3LtW: 270 kPa, BApptPssHRRAx3RtW: 515 kPa)
 (1668643111.059473)  vcan0  18FE70FE   [8]  6A 7E A2 50 0F 51 59 30 :: CVW(PoweredVehicleWeight: 323620 kg, GrossCombinationVehicleWeight: 206420 kg)
 (1668643112.059665)  vcan0  0CF013FE   [8]  28 B0 82 7C C6 EA E2 07 :: SSI(PitchAngle: 26.192000000000007 deg, RollAngle: -0.25199999999999534 deg, PitchRate: 56.20400000000001 deg/s, PitchAngleFigureofMerit: 2, RollAngleFigureofMerit: 0, PitchRateFigureofMerit: 2, PitchandRollCompensated: 3, RollandPitchMeasurementLatency: 3.5 ms)
 (1668643113.060042)  vcan0  0C1CFEFE   [8]  DF 71 D5 2F 85 15 89 07 :: TC3(TransmissionOverrideControlMode: 3, TrnsmssnOvrrdCntrlMdPrrt: 3, MessageCounter: 13 count, TrnsmssnRqstdOtptShftSpd: 5628.5 rpm, TrnsmssnRqstdTrqTrqLmt: -78 %, MessageChecksum: 7 count)
 (1668643114.060528)  vcan0  18FE53FE   [8]  E5 23 C4 47 16 A5 4D 44 :: RTC1(LwLmtThrshldfrMxmmRPMfrmRtrdr: 7328 rpm, HLtTsdMCtsRPMRtd: 1120 rpm, LwLmtThrshldfrMxmmTrqfrmRtrdr: 71 %, HLtTsdMCtsTqRtd: -54 %, MaximumContinuousRetarderSpeed: 704 rpm, MinimumContinuousRetarderSpeed: 5280 rpm, MaximumContinuousRetarderTorque: -48 %, MinimumContinuousRetarderTorque: -57 %)
 (1668643115.060960)  vcan0  18FE4BFE   [8]  8D AB 27 45 48 62 64 23 :: TCFG2(TransmissionTorqueLimit: 43917 Nm, TransmissionReferenceTorque: 17703 Nm, TrnsmssnCmmntnsFlrIdlTrqLmt: -53 %)
 (1668643116.061189)  vcan0  0CF004FE   [8]  79 65 7A 00 26 AB 30 72 :: EEC1(EngineTorqueMode: 9, AtlEngnPrntTrqFrtnl: 0.875 %, DrvrsDmndEngnPrntTrq: -24 %, ActualEnginePercentTorque: -3 %, EngineSpeed: 1216.0 rpm, SrAddrssfCntrllngDvfrEngnCntrl: 171 SA, EngineStarterMode: 0, EngineDemandPercentTorque: -11 %)
 (1668643117.061547)  vcan0  0C1EFEFE   [8]  4A 18 9D 2C 51 B6 5F 7B :: ALTC(AltrntrStpntVltgCmmnd: 6.218 V, AltrntrExttnMxmmCrrntLmt: 39.25 A, AlternatorTorqueRampTimeCommand: 4.4 s, AltrntrTrqRmpMxmmSpdCmmnd: 2592 rpm)
 (1668643118.062267)  vcan0  0C1DFEFE   [8]  D5 14 2E 75 F3 CA 7B 54 :: EIC(EngineTimingAdvance: -158.3359375 deg)
 (1668643119.062763)  vcan0  18FE99FE   [8]  9F 5D AE 47 8E FE 6C 3D :: TCI3(EngnTrhrgr1CmprssrIntkPrssr: -62.7578125 kPa, EngnTrhrgr2CmprssrIntkPrssr: -106.640625 kPa, EngnTrhrgr3CmprssrIntkPrssr: 259.109375 kPa, EngnTrhrgr4CmprssrIntkPrssr: -127.15625 kPa)
 (1668643120.063069)  vcan0  0C0BFEFE   [8]  05 E2 CA 1E 6D DA 49 32 :: AEBS2(DvtvtddAdvdEBSst: 1, AEBS2messageCounter: 2 count, AEBS2messagechecksum: 3 count)
 (1668643121.063608)  vcan0  18FEADFE   [8]  44 20 9C 22 D7 58 EC 02 :: EBC3(BApptPssHRFtAxLtW: 340 kPa, BApptPssHRFtAxRtW: 160 kPa, BApptPssHRRAx1LtW: 780 kPa, BApptPssHRRAx1RtW: 170 kPa, BApptPssHRRAx2LtW: 1075 kPa, BApptPssHRRAx2RtW: 440 kPa, BApptPssHRRAx3LtW: 1180 kPa, BApptPssHRRAx3RtW: 10 kPa)
 (1668643122.063840)  vcan0  18FE9AFE   [8]  A5 B7 8C 09 00 09 6F 7F :: TCI2(EngnTrhrgr1CmprssrIntkTmprtr: 1196.15625 degC, EngnTrhrgr2CmprssrIntkTmprtr: -196.625 degC, EngnTrhrgr3CmprssrIntkTmprtr: -201.0 degC, EngnTrhrgr4CmprssrIntkTmprtr: 746.46875 degC)
 (1668643123.064032)  vcan0  0CF003FE   [8]  73 CF 21 32 DF 7A 44 2F :: EEC2(AcceleratorPedal1LowIdleSwitch: 3, AcceleratorPedalKickdownSwitch: 0, RoadSpeedLimitStatus: 3, AcceleratorPedal2LowIdleSwitch: 1, AcceleratorPedalPosition1: 82.80000000000001 %, EnginePercentLoadAtCurrentSpeed: 33 %, RemoteAcceleratorPedalPosition: 20.0 %, AcceleratorPedal2Position: 89.2 %, VhlAlrtnRtLmtStts: 2, MmntrEngnMxmmPwrEnlFdk: 2, DPFThermalManagementActive: 3, SCRThermalManagementActive: 1, AtlMxmmAvllEngnPrntTrq: 27.200000000000003 %, EstimatedPumpingPercentTorque: -78 %)
 (1668643124.064613)  vcan0  18FE66FE   [8]  10 F9 6B 6E C4 9E 08 77 :: BM(BatteryMainSwitchHoldState: 0)
 (1668643125.064840)  vcan0  18FE4EFE   [8]  66 D7 80 45 51 4A 30 3C :: DC1(Positionofdoors: 6, RampWheelChairLiftPosition: 2, Status2ofdoors: 1)
 (1668643126.065014)  vcan0  18FE50FE   [8]  9A 40 5A 3C CA AF AA 3C :: BT1(SLIBattery1Temperature: 114 degC, SLIBattery2Temperature: 24 degC, SLIBattery3Temperature: 50 degC, SLIBattery4Temperature: 20 degC)
 (1668643127.065249)  vcan0  18FEA6FE   [8]  42 05 E5 30 15 C8 47 69 :: IMT1(EngnTrhrgr1BstPrssr: 168.25 kPa, EngnTrhrgr2BstPrssr: 1564.625 kPa, EngnTrhrgr3BstPrssr: 6402.625 kPa, EngnTrhrgr4BstPrssr: 3368.875 kPa)
 (1668643128.065451)  vcan0  0C0DFEFE   [8]  85 5F FB 22 EA DC 75 5E :: TC2(TransmissionMode9: 1, TransmissionMode10: 1)
 (1668643129.066015)  vcan0  18FEBFFE   [8]  AF AE 79 54 89 3A 24 26 :: EBC2(FrontAxleSpeed: 174.68359375 km/h, RelativeSpeedFrontAxleLeftWheel: -0.25 km/h, RltvSpdFrntAxlRghtWhl: -2.5625 km/h, RelativeSpeedRearAxle1LeftWheel: 0.75 km/h, RltvSpdRrAxl1RghtWhl: -4.1875 km/h, RelativeSpeedRearAxle2LeftWheel: -5.5625 km/h, RltvSpdRrAxl2RghtWhl: -5.4375 km/h)
 (1668643130.066585)  vcan0  18FE9DFE   [8]  5A EF 2E 13 8F 1C EF 44 :: MBT2(EngineMainBearing5Temperature: 1641.8125 degC, EngineMainBearing6Temperature: -119.5625 degC, EngineMainBearing7Temperature: -44.53125 degC, EngineMainBearing8Temperature: 278.46875 degC)
 (1668643131.067144)  vcan0  0CF00DFE   [8]  CE 73 1A 39 D3 3C 8B 67 :: LOI(BladeControlModeSwitch: 14, DesiredGradeOffsetSwitch: 12, BladeAutoModeCommand: 3, LftBldCntrlMdOprtrCntrl: 7, RghtBldCntrlMdOprtrCntrl: 10, LftDsrdBldOffstOprtrCntrl: 1, RghtDsrdBldOffstOprtrCntrl: 9, SdshftBldCntrlMdOprtrCntrl: 3, SdshftDsrdBldOffstOprtrCntrl: 3, StElvtnSnsr1RfrnElvtn: 1, StElvtnSnsr2RfrnElvtn: 3)
 (1668643132.067816)  vcan0  18FE8DFE   [8]  51 49 5F 0F 78 F4 17 71 :: VEP2(BatteryPotentialPowerInput2: 938.45 V, ECUPowerOutputSupplyVoltage1: 196.75 V, ECUPowerOutputSupplyVoltage2: 3129.2000000000003 V, ECUPowerOutputSupplyVoltage3: 1447.5500000000002 V)
 (1668643133.068335)  vcan0  18FE52FE   [8]  9B 09 87 6D EB C3 39 23 :: VEP3(AltrntrCrrntHghRngRsltn: -1477.05 A, SLIBttr1NtCrrntHghRngRsltn: -198.04999999999995 A, SLIBattery2NetCurrent: 907.75 A)
 (1668643134.069128)  vcan0  18FE9DFE   [8]  69 DF 37 53 FB BC A5 11 :: MBT2(EngineMainBearing5Temperature: 1514.28125 degC, EngineMainBearing6Temperature: 392.71875 degC, EngineMainBearing7Temperature: 1238.84375 degC, EngineMainBearing8Temperature: -131.84375 degC)
 (1668643135.069859)  vcan0  18FEBFFE   [8]  4E 5A 36 7D 61 94 26 57 :: EBC2(FrontAxleSpeed: 90.3046875 km/h, RelativeSpeedFrontAxleLeftWheel: -4.4375 km/h, RltvSpdFrntAxlRghtWhl: 0.0 km/h, RelativeSpeedRearAxle1LeftWheel: -1.75 km/h, RltvSpdRrAxl1RghtWhl: 1.4375 km/h, RelativeSpeedRearAxle2LeftWheel: -5.4375 km/h, RltvSpdRrAxl2RghtWhl: -2.375 km/h)
 (1668643136.070303)  vcan0  18FE4EFE   [8]  7A 37 99 4A FB D4 80 13 :: DC1(Positionofdoors: 10, RampWheelChairLiftPosition: 3, Status2ofdoors: 1)
 (1668643137.070720)  vcan0  18FE4AFE   [8]  CD BF 2C 0A 3D DA 65 44 :: ETC7(TrnsmssnCrrntRngDsplBlnkStt: 1, TransmissionServiceIndicator: 3, TrnsmssnRqstdRngDsplBlnkStt: 0, TrnsmssnRqstdRngDsplFlshStt: 3, TrnsmssnRdfrBrkRls: 3, ActiveShiftConsoleIndicator: 3, TransmissionEngineCrankEnable: 3, TrnsmssnShftInhtIndtr: 2, TransmissionMode4Indicator: 0, TransmissionMode3Indicator: 3, TransmissionMode2Indicator: 2, TransmissionMode1Indicator: 0, TrnsmssnRqstdGrFdk: -115 gear value, TransmissionMode5Indicator: 1, TransmissionMode6Indicator: 3, TransmissionMode7Indicator: 3, TransmissionMode8Indicator: 0, TrnsmssnRvrsGrShftInhtStts: 2, TransmissionWarningIndicator: 2, TransmissionMode9Indicator: 1, TransmissionMode10Indicator: 3, TrnsmssnArSpplPrssrIndtr: 5, TrnsmssnAtNtrlMnlRtrnStt: 4, TransmissionManualModeIndicator: 1)
 (1668643138.070994)  vcan0  18FEA4FE   [8]  71 FE 1F 45 C2 39 61 67 :: ET2(EngineOilTemperature2: 1762.53125 degC, EngineECUTemperature: 279.96875 degC, EngnExhstGsRrltn1DffrntlPrssr: -134.484375 kPa, EngnExhstGsRrltn1Tmprtr: 554.03125 degC)
 (1668643139.071444)  vcan0  0C08FEFE   [8]  08 08 8F 54 72 E8 DA 3B :: AUXIO5(AuxiliaryIOChannel6: 2056 count, AuxiliaryIOChannel5: 21647 count, AuxiliaryIOChannel4: 59506 count, AuxiliaryIOChannel3: 15322 count)
 (1668644054.451140)  vcan0  18FE8FFE   [8]  36 BB F4 71 EB DE 27 65 :: SP2(EngnExtrnlShtdwnArSpplPrssr: 23963.0 kPa)
 (1668644055.451253)  vcan0  0CF016FE   [8]  9B 97 8B 09 A7 10 5E 60 :: CCS(EngineCylinder1CombustionStatus: 3, EngineCylinder2CombustionStatus: 2, EngineCylinder3CombustionStatus: 1, EngineCylinder4CombustionStatus: 2, EngineCylinder5CombustionStatus: 3, EngineCylinder6CombustionStatus: 1, EngineCylinder7CombustionStatus: 1, EngineCylinder8CombustionStatus: 2, EngineCylinder9CombustionStatus: 3, EngnClndr10CmstnStts: 2, EngnClndr11CmstnStts: 0, EngnClndr12CmstnStts: 2, EngnClndr13CmstnStts: 1, EngnClndr14CmstnStts: 2, EngnClndr15CmstnStts: 0, EngnClndr16CmstnStts: 0, EngnClndr17CmstnStts: 3, EngnClndr18CmstnStts: 1, EngnClndr19CmstnStts: 2, EngnClndr20CmstnStts: 2, EngnClndr21CmstnStts: 0, EngnClndr22CmstnStts: 0, EngnClndr23CmstnStts: 1, EngnClndr24CmstnStts: 0)
 (1668644056.451519)  vcan0  18FE70FE   [8]  36 E7 74 2D 57 5E DB 33 :: CVW(PoweredVehicleWeight: 591900 kg, GrossCombinationVehicleWeight: 116360 kg)
 (1668644057.451801)  vcan0  18FE55FE   [8]  7A 66 7F 70 9F 6F 90 0E :: GFD(SpecificHeatRatio: 26.234 Ratio, ReferenceEngineGasMassFlowRate: 1439.95 kg/h, Fuelenergycontent: 111.62109375 MJ/(Nm*Nm*Nm))
 (1668644058.452164)  vcan0  18FE8FFE   [8]  9E CE 46 4C 28 40 4F 5A :: SP2(EngnExtrnlShtdwnArSpplPrssr: 26447.0 kPa)
 (1668644059.452527)  vcan0  0CF00CFE   [8]  D9 DB E1 13 E5 3D 21 04 :: ETC8(TrnsmssnTrqCnvrtrRt: 56.281 Ratio, TrnsmssnClthCnvrtrInptSpd: 636.125 rpm, TransmissionShiftInhibitReason: 229, TrnsmssnTrqCnvrtrLkpInhtRsn: 61, TrnsmssnTrqCnvrtrLkpInhtIndtr: 1)
 (1668644060.453043)  vcan0  0C01FEFE   [8]  34 97 0E 74 18 FD 86 7E :: TC1(TrnsmssnGrShftInhtRqst: 0, TrnsmssnTrqCnvrtrLkpRqst: 1, DisengageDrivelineRequest: 3, TrnsmssnRvrsGrShftInhtRqst: 0, RequestedPercentClutchSlip: 60.400000000000006 %, TransmissionRequestedGear: -111 gear value, DsnggDffrntlLkRqstFrntAxl1: 0, DsnggDffrntlLkRqstFrntAxl2: 1, DsnggDffrntlLkRqstRrAxl1: 3, DsnggDffrntlLkRqstRrAxl2: 1, DsnggDffrntlLkRqstCntrl: 0, DsnggDffrntlLkRqstCntrlFrnt: 2, DsnggDffrntlLkRqstCntrlRr: 1, TrnsmssnLdRdtnInhtRqst: 0, TransmissionMode1: 1, TransmissionMode2: 3, TransmissionMode3: 3, TransmissionMode4: 3, TrnsmssnAtNtrlMnlRtrnRqst: 2, TransmissionRequestedLaunchGear: 1, TrnsmssnShftSltrDsplMdSwth: 2, TransmissionMode5: 2, TransmissionMode6: 3, TransmissionMode7: 3, TransmissionMode8: 1)
 (1668644061.453568)  vcan0  18FE70FE   [8]  27 23 F9 5C 91 65 3F 06 :: CVW(PoweredVehicleWeight: 89990 kg, GrossCombinationVehicleWeight: 238010 kg)
 (1668644062.453792)  vcan0  0CD2FEFE   [8]  93 B4 E8 21 CA 54 DC 0E :: ASC2(Atmttrtnhlpldtrnsfr: 3, KneelingRequestLeftSide: 0, KneelingRequestRightSide: 1, KneelingControlModeRequest: 2, NominalLevelRequestFrontAxle: 4, NominalLevelRequestRearAxle: 11, LevelControlModeRequest: 8, LiftAxle1PositionCommand: 2, LiftAxle2PositionCommand: 3, DamperStiffnessRequestFrontAxle: 13.200000000000001 %, DamperStiffnessRequestRearAxle: 80.80000000000001 %, DmprStffnssRqstLftTgAxl: 33.6 %, KneelingCommandFrontAxle: 0, KneelingCommandRearAxle: 3, Prohibitairsuspensioncontrol: 1, AllwLvlCntrlDrngBrkngCmmnd: 3, SpdDpndntLvlCntrlRqst: 2, PrhtAtmtArSspnsnCntrl: 3, Memorylevelrequest: 0)
 (1668644063.454335)  vcan0  04F032FE   [8]  41 86 F5 4C DD CB FA 05 :: LDISP(MeasuredLinearDisplacement: 3436.9 mm, LnrDsplmntSnsrSnsrFgrfMrt: 1)
 (1668644064.454779)  vcan0  18FE4CFE   [8]  7B 26 43 53 13 87 EF 77 :: ML(RearBlackOutMarkerSelect: 3, FrontBlackOutMarkerLampSelect: 2, ConvoyLampSelect: 3, ConvoyDrivingLampSelect: 1, BlackOutBrakeStopLampSelect: 1, NightVisionIlluminatorSelect: 3, BlackOutWorkLampSelect: 1, OprtrsBlkOtIntnstSltn: 47.6 %)
 (1668644065.455312)  vcan0  0C1EFEFE   [8]  E8 F9 DB 12 AE 1E 7B 01 :: ALTC(AltrntrStpntVltgCmmnd: 63.976 V, AltrntrExttnMxmmCrrntLmt: 54.75 A, AlternatorTorqueRampTimeCommand: 1.8 s, AltrntrTrqRmpMxmmSpdCmmnd: 5568 rpm)
 (1668644066.455897)  vcan0  18FE96FE   [8]  51 32 44 25 E4 05 F0 2E :: TCW(EngnTrhrgrWstgtAttr1Pstn: 32.4 %, EngnTrhrgrWstgtAttr2Pstn: 20.0 %, EngnTrhrgrWstgtAttr3Pstn: 27.200000000000003 %, EngnTrhrgrWstgtAttr4Pstn: 14.8 %, EngnTrhrgrWstgtAttrCntrlArPrssr: 912 kPa, EngnTrhrgrWstgtAttr1DsrdPstn: 2.0 %, EngnTrhrgrWstgtAttr1PrlmnrFMI: 16 binary, EngnTrhrgrWstgtAttr1TmprtrStts: 7, EngnTrhrgrWstgtAttr2DsrdPstn: 18.400000000000002 %)
 (1668644067.456480)  vcan0  18FE4FFE   [8]  24 0C 5B 24 5F 6C 6F 1F :: VDC1(VDCInformationSignal: 0, VDCFullyOperational: 1, VDCbrakelightrequest: 2, ROPEngineControlactive: 0, ROPBrakeControlactive: 3, YCEngineControlactive: 0, YCBrakeControlactive: 0, TrailerVDCActive: 3)
 (1668644068.457151)  vcan0  18FE54FE   [8]  C8 FF F7 53 FD 3A B6 6B :: ECT1(ELwLtTsdMxRPME: 6400 rpm, EHLtTsdMCtsERPM: 8160 rpm, ELwLtTsdMxTqE: 122 %, EHLtTsdMCtsTqE: -42 %, EngineMaximumContinuousRPM: 8096 rpm, EngineMinimumContinuousRPM: 1856 rpm, EngineMaximumContinuousTorque: 57 %, EngineMinimumContinuousTorque: -18 %)
 (1668644069.457887)  vcan0  18FE9CFE   [8]  34 5C 47 39 D7 16 98 7F :: MBT3(EngineMainBearing9Temperature: 464.625 degC, EngineMainBearing10Temperature: 185.21875 degC, EngineMainBearing11Temperature: -90.28125 degC, EngineMainBearing12Temperature: 747.75 degC)
 (1668644070.458517)  vcan0  18FE98FE   [8]  C5 F0 22 68 0B AE A6 73 :: TCI4(EngnTrhrgr1TrnIntkTmprtr: 1653.15625 degC, EngnTrhrgr2TrnIntkTmprtr: 560.0625 degC, EngnTrhrgr3TrnIntkTmprtr: 1119.34375 degC, EngnTrhrgr4TrnIntkTmprtr: 652.1875 degC)
 (1668644071.459118)  vcan0  18FEBDFE   [8]  4D 9D E9 2A 33 D1 9F 50 :: FD1(EngineFan1EstimatedPercentSpeed: 30.8 %, FanDriveState: 13, FanSpeed: 1373.125 rpm, HydraulicFanMotorPressure: 26777.5 kPa, FanDriveBypassCommandStatus: 63.6 %)
 (1668644072.459951)  vcan0  0CD2FEFE   [8]  4E C7 9F 31 C6 85 88 72 :: ASC2(Atmttrtnhlpldtrnsfr: 2, KneelingRequestLeftSide: 3, KneelingRequestRightSide: 0, KneelingControlModeRequest: 1, NominalLevelRequestFrontAxle: 7, NominalLevelRequestRearAxle: 12, LevelControlModeRequest: 15, LiftAxle1PositionCommand: 1, LiftAxle2PositionCommand: 2, DamperStiffnessRequestFrontAxle: 19.6 %, DamperStiffnessRequestRearAxle: 79.2 %, DmprStffnssRqstLftTgAxl: 53.2 %, KneelingCommandFrontAxle: 0, KneelingCommandRearAxle: 2, Prohibitairsuspensioncontrol: 0, AllwLvlCntrlDrngBrkngCmmnd: 2, SpdDpndntLvlCntrlRqst: 2, PrhtAtmtArSspnsnCntrl: 0, Memorylevelrequest: 7)
 (1668644073.460552)  vcan0  18FEA0FE   [8]  B6 7E F6 7A 07 0C 7E 3F :: EPT4(EngnExhstGsPrt13Tmprtr: 740.6875 degC, EngnExhstGsPrt14Tmprtr: 710.6875 degC, EngnExhstGsPrt15Tmprtr: -176.78125 degC, EngnExhstGsPrt16Tmprtr: 234.9375 degC)
 (1668644074.460885)  vcan0  18FE99FE   [8]  75 9A 69 39 82 32 C1 12 :: TCI3(EngnTrhrgr1CmprssrIntkPrssr: 58.9140625 kPa, EngnTrhrgr2CmprssrIntkPrssr: -135.1796875 kPa, EngnTrhrgr3CmprssrIntkPrssr: -148.984375 kPa, EngnTrhrgr4CmprssrIntkPrssr: -212.4921875 kPa)
 (1668644075.461324)  vcan0  18FE53FE   [8]  1F 95 04 5D 6B 2C 9D 25 :: RTC1(LwLmtThrshldfrMxmmRPMfrmRtrdr: 992 rpm, HLtTsdMCtsRPMRtd: 4768 rpm, LwLmtThrshldfrMxmmTrqfrmRtrdr: -121 %, HLtTsdMCtsTqRtd: -32 %, MaximumContinuousRetarderSpeed: 3424 rpm, MinimumContinuousRetarderSpeed: 1408 rpm, MaximumContinuousRetarderTorque: 32 %, MinimumContinuousRetarderTorque: -88 %)
 (1668644076.462018)  vcan0  18FEC1FE   [8]  70 A0 FD 60 BC 5E E1 4A :: VDHR(TtlVhlDstnHghRsltn: 8136172080 m, TripDistanceHighResolution: 6281419180 m)
 (1668644077.462596)  vcan0  0C08FEFE   [8]  19 0A D2 18 E1 6A 3C 6F :: AUXIO5(AuxiliaryIOChannel6: 2585 count, AuxiliaryIOChannel5: 6354 count, AuxiliaryIOChannel4: 27361 count, AuxiliaryIOChannel3: 28476 count)
 (1668644078.463199)  vcan0  18FE9DFE   [8]  62 E3 36 5F A9 6A 34 43 :: MBT2(EngineMainBearing5Temperature: 1546.0625 degC, EngineMainBearing6Temperature: 488.6875 degC, EngineMainBearing7Temperature: 580.28125 degC, EngineMainBearing8Temperature: 264.625 degC)
 (1668644079.463757)  vcan0  18FE68FE   [8]  D2 FC EA 7F DD C6 7B 7C :: VF(HydraulicTemperature: 170 degC, HdrlOlFltrRstrtnSwth: 0, WinchOilPressureSwitch: 3, HydraulicOilLevel: 93.60000000000001 %)
 (1668644239.526958)  vcan0  04F031FE   [8]  63 06 C3 09 86 80 BC 07 :: WAND(WandAngle: -60.73 deg, WandSensorFigureofMerit: 3)
 (1668644240.527203)  vcan0  18FE66FE   [8]  F3 2D 0B 66 1E 45 50 68 :: BM(BatteryMainSwitchHoldState: 3)
 (1668644241.527396)  vcan0  18FE70FE   [8]  43 E3 7C 22 DB B8 DA 27 :: CVW(PoweredVehicleWeight: 581790 kg, GrossCombinationVehicleWeight: 88280 kg)
 (1668644242.527585)  vcan0  18FEC1FE   [8]  EB 67 B2 6F 7E 22 00 3D :: VDHR(TtlVhlDstnHghRsltn: 9369814935 m, TripDistanceHighResolution: 5117095030 m)
 (1668644243.528186)  vcan0  0CF014FE   [8]  9B 6C A4 76 1E E9 49 7E :: BI(RelativeBladeHeight: -419.6999999999998 mm, BladeRotationAngle: 37.28125 deg, RtvBdHtdBdRttAMstLt: 15.0 ms, RltvBldHghtFgrfMrt: 1, BladeRotationAngleFigureofMerit: 2)
 (1668644244.528754)  vcan0  18FE6BFE   [8]  40 BC AE 50 E5 01 54 4C :: DI(Driver1identification: 64 ASCII, Driver2identification: 188 ASCII)
 (1668644245.529080)  vcan0  0C09FEFE   [8]  F7 64 56 36 6F E3 21 5A :: SRASI(StaticRollAngle: 122 deg, StaticRollAngleStatus: 4)
 (1668644246.529567)  vcan0  18FE52FE   [8]  89 DD 1B 7D B2 DB 99 49 :: VEP3(AltrntrCrrntHghRngRsltn: 1235.65 A, SLIBttr1NtCrrntHghRngRsltn: 1.3500000000001364 A, SLIBattery2NetCurrent: 1212.1000000000004 A)
 (1668644247.530005)  vcan0  0CF015FE   [8]  71 0B 07 7B B4 CB F4 3E :: RGTACRP(RqstdGnrtrTtlACRtvPwr: 64059249 VA, RqstdGnrtrOvrllPwrFtr: 2.182861328125, RqstdGnrtrOvrllPwrFtrLggng: 0)
 (1668644248.530182)  vcan0  18FEBDFE   [8]  31 E0 25 47 A8 35 BC 36 :: FD1(EngineFan1EstimatedPercentSpeed: 19.6 %, FanDriveState: 0, FanSpeed: 2276.625 rpm, HydraulicFanMotorPressure: 6868.0 kPa, FanDriveBypassCommandStatus: 75.2 %)
 (1668644249.531461)  vcan0  18FE50FE   [8]  72 30 E1 29 0B 3C 7F 40 :: BT1(SLIBattery1Temperature: 74 degC, SLIBattery2Temperature: 8 degC, SLIBattery3Temperature: 185 degC, SLIBattery4Temperature: 1 degC)
 (1668644250.531996)  vcan0  18FE4FFE   [8]  5C 6A A7 4B FE 69 8A 26 :: VDC1(VDCInformationSignal: 0, VDCFullyOperational: 3, VDCbrakelightrequest: 1, ROPEngineControlactive: 2, ROPBrakeControlactive: 2, YCEngineControlactive: 2, YCBrakeControlactive: 1, TrailerVDCActive: 3)
 (1668644251.532312)  vcan0  18FE4AFE   [8]  AC 08 88 5A 42 4D 07 49 :: ETC7(TrnsmssnCrrntRngDsplBlnkStt: 0, TransmissionServiceIndicator: 3, TrnsmssnRqstdRngDsplBlnkStt: 2, TrnsmssnRqstdRngDsplFlshStt: 2, TrnsmssnRdfrBrkRls: 0, ActiveShiftConsoleIndicator: 2, TransmissionEngineCrankEnable: 0, TrnsmssnShftInhtIndtr: 0, TransmissionMode4Indicator: 0, TransmissionMode3Indicator: 2, TransmissionMode2Indicator: 0, TransmissionMode1Indicator: 2, TrnsmssnRqstdGrFdk: -35 gear value, TransmissionMode5Indicator: 2, TransmissionMode6Indicator: 0, TransmissionMode7Indicator: 0, TransmissionMode8Indicator: 1, TrnsmssnRvrsGrShftInhtStts: 1, TransmissionWarningIndicator: 3, TransmissionMode9Indicator: 0, TransmissionMode10Indicator: 1, TrnsmssnArSpplPrssrIndtr: 7, TrnsmssnAtNtrlMnlRtrnStt: 0, TransmissionManualModeIndicator: 0)
 (1668644252.532582)  vcan0  18FE9EFE   [8]  F3 16 E9 6A 2D B5 B9 38 :: MBT1(EngineMainBearing1Temperature: -89.40625 degC, EngineMainBearing2Temperature: 582.28125 degC, EngineMainBearing3Temperature: 1176.40625 degC, EngineMainBearing4Temperature: 180.78125 degC)
 (1668644253.532779)  vcan0  18FE6DFE   [8]  9A 23 97 77 C8 21 5E 2F :: HTR(AxlrHtrOtptClntTmprtr: 114 degC, AxlrHtrInptArTmprtr: -5 degC, AxlrHtrOtptPwrPrnt: 60.400000000000006 %, AuxiliaryHeaterMode: 7, AuxiliaryHeaterWaterPumpStatus: 0, CabVentilation: 2, EngineHeatingZone: 0, CabHeatingZone: 3, ADRCompliantHeaterInstallation: 1)
 (1668644254.532988)  vcan0  18FE94FE   [8]  03 E3 CA 1E 09 DE 0C 00 :: EAC(EngineAuxiliaryCoolantPressure: 12 kPa, EngnAxlrClntTmprtr: 187 degC, SeaWaterPumpOutletPressure: 404 kPa, EngnClntPrssr1ExtnddRng: 120 kPa, EngnClntPrssr2ExtnddRng: 36 kPa, EngnClntPmpClntOtltPrssr: 444 kPa)
 (1668644255.533459)  vcan0  0C0DFEFE   [8]  73 65 31 29 00 43 63 36 :: TC2(TransmissionMode9: 3, TransmissionMode10: 0)
 (1668644256.533970)  vcan0  18FEAEFE   [8]  D7 BC 08 26 89 20 7F 33 :: AIR1(PneumaticSupplyPressure: 1720 kPa, ParkingandorTrailerAirPressure: 1504 kPa, ServiceBrakeCircuit1AirPressure: 64 kPa, ServiceBrakeCircuit2AirPressure: 304 kPa, AxlrEqpmntSpplPrssr: 1096 kPa, AirSuspensionSupplyPressure: 256 kPa, AirCompressorStatus: 3, PwrtrnCrtArSpplPrssr: 408 kPa)
 (1668644257.534224)  vcan0  18FE99FE   [8]  0B 71 44 68 FA 2B 86 2E :: TCI3(EngnTrhrgr1CmprssrIntkPrssr: -23.9140625 kPa, EngnTrhrgr2CmprssrIntkPrssr: -41.46875 kPa, EngnTrhrgr3CmprssrIntkPrssr: -162.046875 kPa, EngnTrhrgr4CmprssrIntkPrssr: -156.953125 kPa)
 (1668644258.534389)  vcan0  18FE56FE   [8]  9A 94 33 47 2B 0C AC 75 :: AT1T1I1(Aftrtrtmnt1DslExhstFldTnkVlm: 61.6 %, Atttt1DsExstFdTTpt1: 108 degC, Aftrtrtmnt1DslExhstFldTnkLvl: 1822.7 mm, Atttt1DsExstFdTLvVPFMI: 11 binary, AttttDsExstFdTLwLvIdt: 1, Atttt1DsExstFdT1TptPFMI: 12 binary, AftrtrtmntSCROprtrIndmntSvrt: 0, Aftrtrtmnt1DslExhstFldTnkHtr: 68.8 %, Atttt1DsExstFdT1HtPFMI: 21 binary)
 (1668644259.534655)  vcan0  18FEBFFE   [8]  DC 05 DA 7F 9E 3C 8D 1F :: EBC2(FrontAxleSpeed: 5.859375 km/h, RelativeSpeedFrontAxleLeftWheel: 5.8125 km/h, RltvSpdFrntAxlRghtWhl: 0.125 km/h, RelativeSpeedRearAxle1LeftWheel: 2.0625 km/h, RltvSpdRrAxl1RghtWhl: -4.0625 km/h, RelativeSpeedRearAxle2LeftWheel: 1.0 km/h, RltvSpdRrAxl2RghtWhl: -5.875 km/h)
 (1668644260.535184)  vcan0  0C1EFEFE   [8]  A5 F7 3C 40 FA A6 34 6B :: ALTC(AltrntrStpntVltgCmmnd: 63.397 V, AltrntrExttnMxmmCrrntLmt: 15.0 A, AlternatorTorqueRampTimeCommand: 6.4 s, AltrntrTrqRmpMxmmSpdCmmnd: 8000 rpm)
 (1668644261.535773)  vcan0  18FEAEFE   [8]  8D 2E F0 68 A6 AF BC 45 :: AIR1(PneumaticSupplyPressure: 1128 kPa, ParkingandorTrailerAirPressure: 368 kPa, ServiceBrakeCircuit1AirPressure: 1920 kPa, ServiceBrakeCircuit2AirPressure: 832 kPa, AxlrEqpmntSpplPrssr: 1328 kPa, AirSuspensionSupplyPressure: 1400 kPa, AirCompressorStatus: 0, PwrtrnCrtArSpplPrssr: 552 kPa)
 (1668644262.536124)  vcan0  18FE70FE   [8]  4F 1E 7E 39 9A C6 A5 30 :: CVW(PoweredVehicleWeight: 77590 kg, GrossCombinationVehicleWeight: 147180 kg)
 (1668644263.536579)  vcan0  00F02BFE   [8]  90 30 0C 47 34 EA 3C 28 :: CN(CrashType: 80 bit-mapped, CrashCounter: 8 count, CrashChecksum: 2 count)
 (1668644264.536989)  vcan0  18FE66FE   [8]  EE 2B E4 52 38 CD 07 47 :: BM(BatteryMainSwitchHoldState: 2)
 (1668644265.537282)  vcan0  18FE9AFE   [8]  32 29 10 2B AB 32 39 70 :: TCI2(EngnTrhrgr1CmprssrIntkTmprtr: 56.5625 degC, EngnTrhrgr2CmprssrIntkTmprtr: 71.5 degC, EngnTrhrgr3CmprssrIntkTmprtr: 132.34375 degC, EngnTrhrgr4CmprssrIntkTmprtr: 624.78125 degC)
 (1668644266.537791)  vcan0  18FE70FE   [8]  E6 09 5E 5D 82 EF 41 16 :: CVW(PoweredVehicleWeight: 25340 kg, GrossCombinationVehicleWeight: 239020 kg)
 (1668644267.538230)  vcan0  18FE6DFE   [8]  4C C6 45 59 8D 60 86 7E :: HTR(AxlrHtrOtptClntTmprtr: 36 degC, AxlrHtrInptArTmprtr: 158 degC, AxlrHtrOtptPwrPrnt: 27.6 %, AuxiliaryHeaterMode: 9, AuxiliaryHeaterWaterPumpStatus: 1, CabVentilation: 3, EngineHeatingZone: 0, CabHeatingZone: 2, ADRCompliantHeaterInstallation: 0)
 (1668644268.538356)  vcan0  18FE4FFE   [8]  66 4E 22 14 27 F5 B9 45 :: VDC1(VDCInformationSignal: 2, VDCFullyOperational: 1, VDCbrakelightrequest: 2, ROPEngineControlactive: 2, ROPBrakeControlactive: 3, YCEngineControlactive: 0, YCBrakeControlactive: 1, TrailerVDCActive: 2)
 (1668644269.538842)  vcan0  08F02DFE   [8]  29 0C BB 05 04 FB 93 45 :: ACCS(LtrlAlrtnExtnddRng: -288.87 m/(s*s), LngtdnlAlrtnExtnddRng: -305.33 m/(s*s), VrtlAlrtnExtnddRng: 322.6 m/(s*s), LtrlAlrtnFgrfMrtExtnddRng: 3, LngtdnlAlrtnFgrfMrtExtnddRng: 0, VrtlAlrtnFgrfMrtExtnddRng: 1, SpptVTsssRpttRtAtSs: 2)
 (1668644270.539279)  vcan0  18FE9CFE   [8]  F8 05 D3 37 A9 F2 D0 05 :: MBT3(EngineMainBearing9Temperature: -225.25 degC, EngineMainBearing10Temperature: 173.59375 degC, EngineMainBearing11Temperature: 1668.28125 degC, EngineMainBearing12Temperature: -226.5 degC)
 (1668646105.660316)  vcan0  18FE97FE   [8]  AD 07 CA 1D F8 79 C2 3F :: TCI5(EngnTrhrgr1TrnOtltTmprtr: -211.59375 degC, EngnTrhrgr2TrnOtltTmprtr: -34.6875 degC, EngnTrhrgr3TrnOtltTmprtr: 702.75 degC, EngnTrhrgr4TrnOtltTmprtr: 237.0625 degC)
 (1668646106.660482)  vcan0  18FE53FE   [8]  7F 0A 66 3F 32 EC 0E 4F :: RTC1(LwLmtThrshldfrMxmmRPMfrmRtrdr: 4064 rpm, HLtTsdMCtsRPMRtd: 320 rpm, LwLmtThrshldfrMxmmTrqfrmRtrdr: -23 %, HLtTsdMCtsTqRtd: -62 %, MaximumContinuousRetarderSpeed: 1600 rpm, MinimumContinuousRetarderSpeed: 7552 rpm, MaximumContinuousRetarderTorque: -111 %, MinimumContinuousRetarderTorque: -46 %)
 (1668646107.660877)  vcan0  0C0DFEFE   [8]  38 1E 93 4B 7F FA 7E 5A :: TC2(TransmissionMode9: 0, TransmissionMode10: 2)
 (1668646108.661670)  vcan0  18FE70FE   [8]  4C F8 33 0D F7 35 72 61 :: CVW(PoweredVehicleWeight: 635640 kg, GrossCombinationVehicleWeight: 33790 kg)
 (1668646109.661945)  vcan0  18FE99FE   [8]  03 25 59 23 06 EC F4 52 :: TCI3(EngnTrhrgr1CmprssrIntkPrssr: -175.9765625 kPa, EngnTrhrgr2CmprssrIntkPrssr: -179.3046875 kPa, EngnTrhrgr3CmprssrIntkPrssr: 222.046875 kPa, EngnTrhrgr4CmprssrIntkPrssr: -84.09375 kPa)
 (1668646110.662188)  vcan0  18FE5BFE   [8]  25 52 5B 28 63 EE C9 34 :: FLI2(LaneTrackingStatusRightSide: 1, LaneTrackingStatusLeftSide: 2, LnDprtrIndtnEnlStts: 0, DriverAlertnessLevel: 32.800000000000004 %, DrvrAlrtnssWrnngSstmStt: 3, LeftWheelLaneDepartureDistance: -85 cm, RightWheelLaneDepartureDistance: -26 cm, LaneDepartureWarningSystemState: 9, ForwardLaneImagerStatus: 12)
 (1668646111.662824)  vcan0  0C09FEFE   [8]  A2 CB 3C 55 5A A1 B4 3F :: SRASI(StaticRollAngle: 37 deg, StaticRollAngleStatus: 3)
 (1668646112.663105)  vcan0  08FE6EFE   [8]  23 B1 32 35 10 D3 3D 59 :: HRW(FrontAxleLeftWheelSpeed: 177.13671875 km/h, Frontaxlerightwheelspeed: 53.1953125 km/h, Rearaxleleftwheelspeed: 211.0625 km/h, Rearaxlerightwheelspeed: 89.23828125 km/h)
 (1668646113.663719)  vcan0  0C09FEFE   [8]  DE C9 46 57 50 93 EA 0C :: SRASI(StaticRollAngle: 97 deg, StaticRollAngleStatus: 1)
 (1668646114.664146)  vcan0  08F02DFE   [8]  25 4C 3E 2A DA C2 8F 03 :: ACCS(LtrlAlrtnExtnddRng: -125.07 m/(s*s), LngtdnlAlrtnExtnddRng: -211.86 m/(s*s), VrtlAlrtnExtnddRng: 178.82 m/(s*s), LtrlAlrtnFgrfMrtExtnddRng: 3, LngtdnlAlrtnFgrfMrtExtnddRng: 3, VrtlAlrtnFgrfMrtExtnddRng: 0, SpptVTsssRpttRtAtSs: 2)
 (1668646115.664634)  vcan0  0C99FEFE   [8]  9D 20 BD 31 87 CA 59 21 :: JLCM(Joystick1Lamp1Command: 1, Joystick1Lamp2Command: 3, Joystick1Lamp3Command: 1, Joystick1Lamp4Command: 2, Joystick1Lamp5Command: 0, Joystick1Lamp6Command: 0, Joystick1Lamp7Command: 2, Joystick1Lamp8Command: 0, Joystick1Lamp9Command: 1, Joystick1Lamp10Command: 3, Joystick2Lamp1Command: 3, Joystick2Lamp2Command: 2, Joystick2Lamp3Command: 1, Joystick2Lamp4Command: 0, Joystick2Lamp5Command: 3, Joystick2Lamp6Command: 0, Joystick2Lamp7Command: 3, Joystick2Lamp8Command: 1, Joystick2Lamp9Command: 0, Joystick2Lamp10Command: 2, Joystick3Lamp1Command: 2, Joystick3Lamp2Command: 2, Joystick3Lamp3Command: 0, Joystick3Lamp4Command: 3, Joystick3Lamp5Command: 1, Joystick3Lamp6Command: 2, Joystick3Lamp7Command: 1, Joystick3Lamp8Command: 1, Joystick3Lamp9Command: 1, Joystick3Lamp10Command: 0)
 (1668646116.665305)  vcan0  18FE69FE   [8]  26 14 4A 01 06 D5 BF 60 :: ET3(EngnIntkMnfld1TmprtrHghRsltn: -111.8125 degC, EngnClntTmprtrHghRsltn: -262.6875 degC, EngnIntkVlvAttnSstmOlTmprtr: 1431.1875 degC, EngnChrgArClr1OtltTmprtr: 500.96875 degC)
 (1668646117.665735)  vcan0  18FE5BFE   [8]  0D 15 AB 69 3F F3 52 2C :: FLI2(LaneTrackingStatusRightSide: 3, LaneTrackingStatusLeftSide: 0, LnDprtrIndtnEnlStts: 0, DriverAlertnessLevel: 8.4 %, DrvrAlrtnssWrnngSstmStt: 3, LeftWheelLaneDepartureDistance: -20 cm, RightWheelLaneDepartureDistance: -62 cm, LaneDepartureWarningSystemState: 2, ForwardLaneImagerStatus: 5)
 (1668646118.666099)  vcan0  0C01FEFE   [8]  B6 75 BF 53 8B EB 86 39 :: TC1(TrnsmssnGrShftInhtRqst: 2, TrnsmssnTrqCnvrtrLkpRqst: 1, DisengageDrivelineRequest: 3, TrnsmssnRvrsGrShftInhtRqst: 2, RequestedPercentClutchSlip: 46.800000000000004 %, TransmissionRequestedGear: 66 gear value, DsnggDffrntlLkRqstFrntAxl1: 3, DsnggDffrntlLkRqstFrntAxl2: 0, DsnggDffrntlLkRqstRrAxl1: 1, DsnggDffrntlLkRqstRrAxl2: 1, DsnggDffrntlLkRqstCntrl: 3, DsnggDffrntlLkRqstCntrlFrnt: 2, DsnggDffrntlLkRqstCntrlRr: 0, TrnsmssnLdRdtnInhtRqst: 2, TransmissionMode1: 3, TransmissionMode2: 2, TransmissionMode3: 2, TransmissionMode4: 3, TrnsmssnAtNtrlMnlRtrnRqst: 2, TransmissionRequestedLaunchGear: 1, TrnsmssnShftSltrDsplMdSwth: 2, TransmissionMode5: 1, TransmissionMode6: 2, TransmissionMode7: 3, TransmissionMode8: 0)
 (1668646119.666424)  vcan0  0CF013FE   [8]  20 A8 CF 25 8E 10 E0 5C :: SSI(PitchAngle: 22.08 deg, RollAngle: -44.641999999999996 deg, PitchRate: -55.524 deg/s, PitchAngleFigureofMerit: 0, RollAngleFigureofMerit: 0, PitchRateFigureofMerit: 2, PitchandRollCompensated: 3, RollandPitchMeasurementLatency: 46.0 ms)
 (1668646120.666732)  vcan0  18FE4EFE   [8]  4E 40 29 13 B3 62 3B 05 :: DC1(Positionofdoors: 14, RampWheelChairLiftPosition: 0, Status2ofdoors: 1)
 (1668646121.667096)  vcan0  18FE97FE   [8]  89 5E 1F 38 56 2E 78 5A :: TCI5(EngnTrhrgr1TrnOtltTmprtr: 483.28125 degC, EngnTrhrgr2TrnOtltTmprtr: 175.96875 degC, EngnTrhrgr3TrnOtltTmprtr: 97.6875 degC, EngnTrhrgr4TrnOtltTmprtr: 450.75 degC)
 (1668646122.667616)  vcan0  18FEBDFE   [8]  81 18 98 69 79 DF AA 0F :: FD1(EngineFan1EstimatedPercentSpeed: 51.6 %, FanDriveState: 8, FanSpeed: 3379.0 rpm, HydraulicFanMotorPressure: 28604.5 kPa, FanDriveBypassCommandStatus: 68.0 %)
 (1668646123.668291)  vcan0  0C0BFEFE   [8]  00 E0 95 10 57 A9 F1 66 :: AEBS2(DvtvtddAdvdEBSst: 0, AEBS2messageCounter: 6 count, AEBS2messagechecksum: 6 count)
 (1668646124.668773)  vcan0  18FE9AFE   [8]  06 CC EE 53 7C F5 2F 11 :: TCI2(EngnTrhrgr1CmprssrIntkTmprtr: 1359.1875 degC, EngnTrhrgr2CmprssrIntkTmprtr: 398.4375 degC, EngnTrhrgr3CmprssrIntkTmprtr: 1690.875 degC, EngnTrhrgr4CmprssrIntkTmprtr: -135.53125 degC)
 (1668646125.669148)  vcan0  0C1BFEFE   [8]  E9 F7 8E 72 1A 16 ED 42 :: HVES1C1(HVES1HghVltgBsCnntCmmnd: 1, HVES1PowerDownCommand: 2, HVES1HghVltgBsAtvIsltnTstCmmnd: 2, HVES1HghVltgBsPssvIsltnTstCmmnd: 3, HVES1CellBalancingCommand: 3, HVES1EnlIntrnlChrgrCmmnd: 1, HVES1OperationConsent: 3, HVES1HVtBsHSdRsstCtRqst: 3, HVES1HghVltgBsLwSdRsstrCnntRqst: 2)
 (1668646126.669474)  vcan0  08F110FE   [8]  C4 9D F1 50 40 2A 37 44 :: B2(DmnddBrkAppltnPrssr: 4038.8 kPa, BrakePedalSwitch2: 1)
 (1668646127.669724)  vcan0  00F02BFE   [8]  D2 2F 63 7E 4D 3F E2 2D :: CN(CrashType: 90 bit-mapped, CrashCounter: 13 count, CrashChecksum: 2 count)
 (1668646128.670169)  vcan0  18FE8FFE   [8]  5F BC 53 06 03 B5 A1 01 :: SP2(EngnExtrnlShtdwnArSpplPrssr: 24111.5 kPa)
 (1668646129.670589)  vcan0  18FEA6FE   [8]  E3 7E B6 6F 24 5D 71 27 :: IMT1(EngnTrhrgr1BstPrssr: 4060.375 kPa, EngnTrhrgr2BstPrssr: 3574.75 kPa, EngnTrhrgr3BstPrssr: 2980.5 kPa, EngnTrhrgr4BstPrssr: 1262.125 kPa)
 (1668646130.671179)  vcan0  0CF00DFE   [8]  6E 2D 0E 2C 72 9D 9A 3A :: LOI(BladeControlModeSwitch: 14, DesiredGradeOffsetSwitch: 6, BladeAutoModeCommand: 13, LftBldCntrlMdOprtrCntrl: 2, RghtBldCntrlMdOprtrCntrl: 14, LftDsrdBldOffstOprtrCntrl: 0, RghtDsrdBldOffstOprtrCntrl: 12, SdshftBldCntrlMdOprtrCntrl: 2, SdshftDsrdBldOffstOprtrCntrl: 2, StElvtnSnsr1RfrnElvtn: 3, StElvtnSnsr2RfrnElvtn: 1)
 (1668646131.671475)  vcan0  18FEC1FE   [8]  5C CA 2F 1D FB FB B9 72 :: VDHR(TtlVhlDstnHghRsltn: 2448356300 m, TripDistanceHighResolution: 9623956455 m)
 (1668646132.672007)  vcan0  0C0BFEFE   [8]  A4 08 06 4E 7C 14 52 5C :: AEBS2(DvtvtddAdvdEBSst: 0, AEBS2messageCounter: 12 count, AEBS2messagechecksum: 5 count)
 (1668646133.672401)  vcan0  0C0DFEFE   [8]  FD 19 1A 58 7C F4 E7 6C :: TC2(TransmissionMode9: 1, TransmissionMode10: 3)
 (1668646134.672756)  vcan0  08F062FE   [8]  A6 BE 18 6F 82 C0 D6 40 :: ETC12(TrnsmssnHdrsttLp1Prssr: 48806 kPa, TrnsmssnHdrsttLp2Prssr: 28440 kPa, TrnsmssnDrtnlOtptShftSpd: 17155 rpm, TrnsmssnIntrmdtShftSpd: 2074.75 rpm)
 (1668652811.488127)  vcan0  0C08FEFE   [8]  7E 0B 8D 52 66 AB 5E 3C :: AUXIO5(AuxiliaryIOChannel6: 2942 count, AuxiliaryIOChannel5: 21133 count, AuxiliaryIOChannel4: 43878 count, AuxiliaryIOChannel3: 15454 count)
 (1668652812.488324)  vcan0  04F032FE   [8]  06 03 E5 44 C1 06 1F 55 :: LDISP(MeasuredLinearDisplacement: 77.4 mm, LnrDsplmntSnsrSnsrFgrfMrt: 1)
 (1668652813.488571)  vcan0  18FEBFFE   [8]  4B 92 3E 59 0E A8 0A 65 :: EBC2(FrontAxleSpeed: 146.29296875 km/h, RelativeSpeedFrontAxleLeftWheel: -3.9375 km/h, RltvSpdFrntAxlRghtWhl: -2.25 km/h, RelativeSpeedRearAxle1LeftWheel: -6.9375 km/h, RltvSpdRrAxl1RghtWhl: 2.6875 km/h, RelativeSpeedRearAxle2LeftWheel: -7.1875 km/h, RltvSpdRrAxl2RghtWhl: -1.5 km/h)
 (1668652814.488830)  vcan0  18FE8FFE   [8]  58 41 1A 72 0B 11 9C 03 :: SP2(EngnExtrnlShtdwnArSpplPrssr: 8364.0 kPa)
 (1668652815.489356)  vcan0  0C0BFEFE   [8]  11 23 62 33 70 25 B4 1D :: AEBS2(DvtvtddAdvdEBSst: 1, AEBS2messageCounter: 13 count, AEBS2messagechecksum: 1 count)
 (1668652816.489612)  vcan0  18FED6FE   [8]  5D 3D 18 2D 90 8D CB 58 :: HSI1(HrdSstmPrttnOvrrdSwth: 1, HrdSstmPrplsnClntLvlSwth: 3, HrdSstmPwrEltrnsClntLvlSwth: 1, HrdSstmOffBrdChrgrCnntnStts: 1, HrdSstmRgnrtvBrkngDslSwth: 1, HrdSstmBrkPdlRgnrtvBrkngDslSwth: 3, HrdSstmPrplsnDslSwth: 3, HybridSystemShutdownSwitch: 0, HrdSstmCstngRgnrtvBrkngLvlSltr: 9.600000000000001 %, PwrEltrnsClntFllSwth: 1, PrplsnMtrClntFllSwth: 3)
 (1668652817.489884)  vcan0  18FEA6FE   [8]  7B C5 C7 7A B9 DA 45 75 :: IMT1(EngnTrhrgr1BstPrssr: 6319.375 kPa, EngnTrhrgr2BstPrssr: 3928.875 kPa, EngnTrhrgr3BstPrssr: 6999.125 kPa, EngnTrhrgr4BstPrssr: 3752.625 kPa)
 (1668652818.490116)  vcan0  18FEC1FE   [8]  33 4B 5A 67 CD 90 86 37 :: VDHR(TtlVhlDstnHghRsltn: 8669853695 m, TripDistanceHighResolution: 4657828865 m)
 (1668652819.490304)  vcan0  0C1EFEFE   [8]  30 B0 28 69 92 74 B2 62 :: ALTC(AltrntrStpntVltgCmmnd: 45.104 V, AltrntrExttnMxmmCrrntLmt: 10.0 A, AlternatorTorqueRampTimeCommand: 10.5 s, AltrntrTrqRmpMxmmSpdCmmnd: 4672 rpm)
 (1668652820.490685)  vcan0  18FEA6FE   [8]  23 07 03 60 06 C5 DF 00 :: IMT1(EngnTrhrgr1BstPrssr: 228.375 kPa, EngnTrhrgr2BstPrssr: 3072.375 kPa, EngnTrhrgr3BstPrssr: 6304.75 kPa, EngnTrhrgr4BstPrssr: 27.875 kPa)
 (1668652821.491073)  vcan0  08F110FE   [8]  11 91 67 01 85 D0 6C 53 :: B2(DmnddBrkAppltnPrssr: 3713.7000000000003 kPa, BrakePedalSwitch2: 3)
 (1668652822.491440)  vcan0  18FE6AFE   [8]  13 6F 4F 77 8B D3 51 18 :: EFS(EngineOilLevelRemoteReservoir: 7.6000000000000005 %, EngnFlSpplPmpIntkAsltPrssr: 222 kPa, EngnFlFltrstnsdDffrntlPrssr: 158 kPa, EngineWasteOilReservoirLevel: 47.6 %, EngineOilFilterOutletPressure: 556 kPa, EngineOilPrimingPumpSwitch: 3, EngineOilPrimingState: 0, EngineOilPreHeatedState: 1, EngineCoolantPreheatedState: 3, EngineVentilationStatus: 1, FuelPumpPrimerStatus: 2, EngnFlSpplPmpIntkPrssr: 48 kPa)
 (1668652823.491888)  vcan0  0C09FEFE   [8]  3E 11 CB 42 D6 65 90 71 :: SRASI(StaticRollAngle: -63 deg, StaticRollAngleStatus: 1)
 (1668652824.492088)  vcan0  18FEAEFE   [8]  D3 76 1C 7B 2F A7 AA 63 :: AIR1(PneumaticSupplyPressure: 1688 kPa, ParkingandorTrailerAirPressure: 944 kPa, ServiceBrakeCircuit1AirPressure: 224 kPa, ServiceBrakeCircuit2AirPressure: 984 kPa, AxlrEqpmntSpplPrssr: 376 kPa, AirSuspensionSupplyPressure: 1336 kPa, AirCompressorStatus: 2, PwrtrnCrtArSpplPrssr: 792 kPa)
 (1668652825.492562)  vcan0  0CF015FE   [8]  41 0B A7 33 40 CA 0C 17 :: RGTACRP(RqstdGnrtrTtlACRtvPwr: -1133414591 VA, RqstdGnrtrOvrllPwrFtr: 2.16015625, RqstdGnrtrOvrllPwrFtrLggng: 0)
 (1668652826.493050)  vcan0  08F062FE   [8]  A0 DE 1D 2D 9D 07 25 44 :: ETC12(TrnsmssnHdrsttLp1Prssr: 56992 kPa, TrnsmssnHdrsttLp2Prssr: 11549 kPa, TrnsmssnDrtnlOtptShftSpd: -30178 rpm, TrnsmssnIntrmdtShftSpd: 2180.625 rpm)
 (1668652827.493288)  vcan0  18FE9AFE   [8]  85 1A 2E 24 18 CD EC 3E :: TCI2(EngnTrhrgr1CmprssrIntkTmprtr: -60.84375 degC, EngnTrhrgr2CmprssrIntkTmprtr: 16.4375 degC, EngnTrhrgr3CmprssrIntkTmprtr: 1367.75 degC, EngnTrhrgr4CmprssrIntkTmprtr: 230.375 degC)
 (1668652828.493480)  vcan0  0C0DFEFE   [8]  D8 59 78 47 4B 18 47 26 :: TC2(TransmissionMode9: 0, TransmissionMode10: 2)
 (1668652829.493846)  vcan0  0C01FEFE   [8]  BF B0 3A 5A 7C C8 6F 0F :: TC1(TrnsmssnGrShftInhtRqst: 3, TrnsmssnTrqCnvrtrLkpRqst: 3, DisengageDrivelineRequest: 3, TrnsmssnRvrsGrShftInhtRqst: 2, RequestedPercentClutchSlip: 70.4 %, TransmissionRequestedGear: -67 gear value, DsnggDffrntlLkRqstFrntAxl1: 2, DsnggDffrntlLkRqstFrntAxl2: 2, DsnggDffrntlLkRqstRrAxl1: 1, DsnggDffrntlLkRqstRrAxl2: 1, DsnggDffrntlLkRqstCntrl: 0, DsnggDffrntlLkRqstCntrlFrnt: 3, DsnggDffrntlLkRqstCntrlRr: 3, TrnsmssnLdRdtnInhtRqst: 1, TransmissionMode1: 0, TransmissionMode2: 2, TransmissionMode3: 0, TransmissionMode4: 3, TrnsmssnAtNtrlMnlRtrnRqst: 3, TransmissionRequestedLaunchGear: 11, TrnsmssnShftSltrDsplMdSwth: 1, TransmissionMode5: 3, TransmissionMode6: 3, TransmissionMode7: 0, TransmissionMode8: 0)
 (1668652830.494395)  vcan0  18FE9DFE   [8]  98 99 F0 2B 9F CF 72 6F :: MBT2(EngineMainBearing5Temperature: 955.75 degC, EngineMainBearing6Temperature: 78.5 degC, EngineMainBearing7Temperature: 1387.96875 degC, EngineMainBearing8Temperature: 618.5625 degC)
 (1668652831.494673)  vcan0  0C1EFEFE   [8]  AA 38 EB 64 B1 60 DA 70 :: ALTC(AltrntrStpntVltgCmmnd: 14.506 V, AltrntrExttnMxmmCrrntLmt: 58.75 A, AlternatorTorqueRampTimeCommand: 10.0 s, AltrntrTrqRmpMxmmSpdCmmnd: 5664 rpm)
 (1668652832.494963)  vcan0  18FE6BFE   [8]  22 83 44 5A C4 CF 29 68 :: DI(Driver1identification: 34 ASCII, Driver2identification: 131 ASCII)
 (1668652833.495356)  vcan0  18FEADFE   [8]  5B D4 BC 24 03 E1 F4 2A :: EBC3(BApptPssHRFtAxLtW: 455 kPa, BApptPssHRFtAxRtW: 1060 kPa, BApptPssHRRAx1LtW: 940 kPa, BApptPssHRRAx1RtW: 180 kPa, BApptPssHRRAx2LtW: 15 kPa, BApptPssHRRAx2RtW: 1125 kPa, BApptPssHRRAx3LtW: 1220 kPa, BApptPssHRRAx3RtW: 210 kPa)
 (1668652834.495665)  vcan0  18FED5FE   [8]  A2 CD 3F 54 D6 57 11 26 :: AS(AlternatorSpeed: 26321.0 rpm, Alternator1Status: 3, Alternator2Status: 3, Alternator3Status: 3, Alternator4Status: 0)
 (1668652835.496040)  vcan0  0CF00AFE   [8]  F4 D7 5E 07 17 63 B8 59 :: EGF1(EngnExhstGsRrltn1MssFlwRt: 2764.2000000000003 kg/h, EngineIntakeAirMassFlowRate: 94.30000000000001 kg/h, EngnExhstGsRrltn2MssFlwRt: 1268.3500000000001 kg/h)
 (1668652836.496603)  vcan0  18FE8FFE   [8]  B7 07 32 58 B7 41 D6 06 :: SP2(EngnExtrnlShtdwnArSpplPrssr: 987.5 kPa)
 (1668652837.497148)  vcan0  0C0DFEFE   [8]  0B C5 D0 01 3C 5C 04 2B :: TC2(TransmissionMode9: 3, TransmissionMode10: 2)
 (1668652838.497804)  vcan0  18FEA4FE   [8]  17 5D B5 20 15 B6 7C 72 :: ET2(EngineOilTemperature2: 471.71875 degC, EngineECUTemperature: -11.34375 degC, EngnExhstGsRrltn1DffrntlPrssr: 114.1640625 kPa, EngnExhstGsRrltn1Tmprtr: 642.875 degC)
 (1668652839.498302)  vcan0  18FE6AFE   [8]  F1 85 20 77 D4 66 B7 4C :: EFS(EngineOilLevelRemoteReservoir: 96.4 %, EngnFlSpplPmpIntkAsltPrssr: 266 kPa, EngnFlFltrstnsdDffrntlPrssr: 64 kPa, EngineWasteOilReservoirLevel: 47.6 %, EngineOilFilterOutletPressure: 848 kPa, EngineOilPrimingPumpSwitch: 2, EngineOilPrimingState: 1, EngineOilPreHeatedState: 2, EngineCoolantPreheatedState: 1, EngineVentilationStatus: 7, FuelPumpPrimerStatus: 2, EngnFlSpplPmpIntkPrssr: 152 kPa)
 (1668652840.498960)  vcan0  0C08FEFE   [8]  5C 23 3E 30 6C 00 A8 78 :: AUXIO5(AuxiliaryIOChannel6: 9052 count, AuxiliaryIOChannel5: 12350 count, AuxiliaryIOChannel4: 108 count, AuxiliaryIOChannel3: 30888 count)
 (1668652841.499556)  vcan0  0C1DFEFE   [8]  CE 85 3B 6A 16 39 93 5D :: EIC(EngineTimingAdvance: 67.609375 deg)
 (1668652842.499953)  vcan0  08F110FE   [8]  C5 B8 A5 77 38 BC D7 37 :: B2(DmnddBrkAppltnPrssr: 4730.1 kPa, BrakePedalSwitch2: 1)
 (1668652843.500332)  vcan0  08FE6EFE   [8]  47 BF 61 1D 93 90 94 5C :: HRW(FrontAxleLeftWheelSpeed: 191.27734375 km/h, Frontaxlerightwheelspeed: 29.37890625 km/h, Rearaxleleftwheelspeed: 144.57421875 km/h, Rearaxlerightwheelspeed: 92.578125 km/h)
 (1668652844.500693)  vcan0  0C0DFEFE   [8]  A0 2B AE 34 35 5E D4 30 :: TC2(TransmissionMode9: 0, TransmissionMode10: 0)
 (1668655402.489303)  vcan0  0CF018FE   [8]  54 A8 B3 3E F7 1A C5 08 :: KL2(EngineCylinder9KnockLevel: 84 %, EngineCylinder10KnockLevel: 168 %, EngineCylinder11KnockLevel: 179 %, EngineCylinder12KnockLevel: 62 %, EngineCylinder13KnockLevel: 247 %, EngineCylinder14KnockLevel: 26 %, EngineCylinder15KnockLevel: 197 %, EngineCylinder16KnockLevel: 8 %)
 (1668655403.489440)  vcan0  0CF014FE   [8]  FD E1 A0 55 94 31 92 75 :: BI(RelativeBladeHeight: 2585.3 mm, BladeRotationAngle: -28.75 deg, RtvBdHtdBdRttAMstLt: 74.0 ms, RltvBldHghtFgrfMrt: 1, BladeRotationAngleFigureofMerit: 0)
 (1668655404.489739)  vcan0  0CF00AFE   [8]  6A 5E 14 0C E9 8F 1D 07 :: EGF1(EngnExhstGsRrltn1MssFlwRt: 1208.5 kg/h, EngineIntakeAirMassFlowRate: 154.60000000000002 kg/h, EngnExhstGsRrltn2MssFlwRt: 1842.0500000000002 kg/h)
 (1668655405.490021)  vcan0  18FE9EFE   [8]  F3 06 86 52 7A 14 8B 1A :: MBT1(EngineMainBearing1Temperature: -217.40625 degC, EngineMainBearing2Temperature: 387.1875 degC, EngineMainBearing3Temperature: -109.1875 degC, EngineMainBearing4Temperature: -60.65625 degC)
 (1668655406.490267)  vcan0  0CF00DFE   [8]  52 F2 91 50 BF 97 49 12 :: LOI(BladeControlModeSwitch: 2, DesiredGradeOffsetSwitch: 5, BladeAutoModeCommand: 2, LftBldCntrlMdOprtrCntrl: 15, RghtBldCntrlMdOprtrCntrl: 1, LftDsrdBldOffstOprtrCntrl: 9, RghtDsrdBldOffstOprtrCntrl: 0, SdshftBldCntrlMdOprtrCntrl: 5, SdshftDsrdBldOffstOprtrCntrl: 15, StElvtnSnsr1RfrnElvtn: 3, StElvtnSnsr2RfrnElvtn: 2)
 (1668655407.490463)  vcan0  0CF014FE   [8]  C3 E0 51 62 8F F6 E3 32 :: BI(RelativeBladeHeight: 2553.9000000000005 mm, BladeRotationAngle: -3.3671875 deg, RtvBdHtdBdRttAMstLt: 71.5 ms, RltvBldHghtFgrfMrt: 2, BladeRotationAngleFigureofMerit: 1)
 (1668655408.490670)  vcan0  18FE53FE   [8]  CC 0B CD 6D 5C 07 8A 77 :: RTC1(LwLmtThrshldfrMxmmRPMfrmRtrdr: 6528 rpm, HLtTsdMCtsRPMRtd: 352 rpm, LwLmtThrshldfrMxmmTrqfrmRtrdr: 80 %, HLtTsdMCtsTqRtd: -16 %, MaximumContinuousRetarderSpeed: 2944 rpm, MinimumContinuousRetarderSpeed: 224 rpm, MaximumContinuousRetarderTorque: 13 %, MinimumContinuousRetarderTorque: -6 %)
 (1668655409.490965)  vcan0  0C08FEFE   [8]  15 86 28 74 2E D1 EF 2E :: AUXIO5(AuxiliaryIOChannel6: 34325 count, AuxiliaryIOChannel5: 29736 count, AuxiliaryIOChannel4: 53550 count, AuxiliaryIOChannel3: 12015 count)
 (1668655410.491210)  vcan0  18FEA6FE   [8]  8C 47 1D 5F F8 FE 32 4A :: IMT1(EngnTrhrgr1BstPrssr: 2289.5 kPa, EngnTrhrgr2BstPrssr: 3043.625 kPa, EngnTrhrgr3BstPrssr: 8159.0 kPa, EngnTrhrgr4BstPrssr: 2374.25 kPa)
 (1668655411.491431)  vcan0  18FE54FE   [8]  A7 61 A8 42 B0 12 FE 28 :: ECT1(ELwLtTsdMxRPME: 5344 rpm, EHLtTsdMCtsERPM: 3104 rpm, ELwLtTsdMxTqE: 43 %, EHLtTsdMCtsTqE: -59 %, EngineMaximumContinuousRPM: 5632 rpm, EngineMinimumContinuousRPM: 576 rpm, EngineMaximumContinuousTorque: 129 %, EngineMinimumContinuousTorque: -85 %)
 (1668655412.491646)  vcan0  0CD2FEFE   [8]  8B 74 51 7D 05 BB B1 67 :: ASC2(Atmttrtnhlpldtrnsfr: 3, KneelingRequestLeftSide: 2, KneelingRequestRightSide: 0, KneelingControlModeRequest: 2, NominalLevelRequestFrontAxle: 4, NominalLevelRequestRearAxle: 7, LevelControlModeRequest: 1, LiftAxle1PositionCommand: 1, LiftAxle2PositionCommand: 1, DamperStiffnessRequestFrontAxle: 50.0 %, DamperStiffnessRequestRearAxle: 2.0 %, DmprStffnssRqstLftTgAxl: 74.8 %, KneelingCommandFrontAxle: 1, KneelingCommandRearAxle: 0, Prohibitairsuspensioncontrol: 3, AllwLvlCntrlDrngBrkngCmmnd: 2, SpdDpndntLvlCntrlRqst: 3, PrhtAtmtArSspnsnCntrl: 1, Memorylevelrequest: 6)
 (1668655413.492106)  vcan0  0CF002FE   [8]  0C FB A5 5A 02 9D 52 3D :: ETC1(TransmissionDrivelineEngaged: 0, TrnsmssnTrqCnvrtrLkpEnggd: 3, TransmissionShiftInProcess: 0, TrnsmssnTrqCnvrtrLkpTrnstnnPrss: 0, Transmission1OutputShaftSpeed: 5311.375 rpm, PercentClutchSlip: 36.0 %, EngineMomentaryOverspeedEnable: 2, ProgressiveShiftDisable: 0, MmntrEngnMxmmPwrEnl: 0, Transmission1InputShaftSpeed: 2643.625 rpm, SAddssCtDvTsssCt: 61 SA)
 (1668655414.492738)  vcan0  0CF00AFE   [8]  6D AD 57 60 6C FB 66 49 :: EGF1(EngnExhstGsRrltn1MssFlwRt: 2219.85 kg/h, EngineIntakeAirMassFlowRate: 1233.15 kg/h, EngnExhstGsRrltn2MssFlwRt: 3218.2000000000003 kg/h)
 (1668655415.493422)  vcan0  0C0DFEFE   [8]  48 32 D7 1C 5F 02 ED 1B :: TC2(TransmissionMode9: 0, TransmissionMode10: 2)
 (1668655416.493878)  vcan0  0C1EFEFE   [8]  6B 74 E8 01 B2 F4 7E 6C :: ALTC(AltrntrStpntVltgCmmnd: 29.803 V, AltrntrExttnMxmmCrrntLmt: 58.0 A, AlternatorTorqueRampTimeCommand: 0.1 s, AltrntrTrqRmpMxmmSpdCmmnd: 5696 rpm)
 (1668655417.494480)  vcan0  18FE4FFE   [8]  B8 C8 C3 3E 75 D5 D0 4E :: VDC1(VDCInformationSignal: 0, VDCFullyOperational: 2, VDCbrakelightrequest: 3, ROPEngineControlactive: 0, ROPBrakeControlactive: 2, YCEngineControlactive: 0, YCBrakeControlactive: 3, TrailerVDCActive: 3)
 (1668655418.494693)  vcan0  0CD1FEFE   [8]  DD 35 0E 49 41 E1 9D 3C :: ASC6(LevelPresetFrontAxleLeft: -1821.1 mm, LevelPresetFrontAxleRight: -1329.8 mm, LevelPresetRearAxleLeft: 2566.5 mm, LevelPresetRearAxleRight: -1648.3 mm)
 (1668655419.494903)  vcan0  0C00FEFE   [8]  4F E0 98 37 57 67 C6 30 :: TSC1(EngineOverrideControlMode: 3, EngnRqstdSpdCntrlCndtns: 3, OverrideControlModePriority: 0, EngineRequestedSpeedSpeedLimit: 4892.0 rpm, EngnRqstdTrqTrqLmt: -70 %, TSC1TransmissionRate: 7, TSC1ControlPurpose: 10, EngineRequestedTorqueFractional: 0.875 %, MessageCounter: 0 count, MessageChecksum: 3 count)
 (1668655420.495250)  vcan0  0CD2FEFE   [8]  80 87 82 54 E3 AE E3 0F :: ASC2(Atmttrtnhlpldtrnsfr: 0, KneelingRequestLeftSide: 0, KneelingRequestRightSide: 0, KneelingControlModeRequest: 2, NominalLevelRequestFrontAxle: 7, NominalLevelRequestRearAxle: 8, LevelControlModeRequest: 2, LiftAxle1PositionCommand: 0, LiftAxle2PositionCommand: 2, DamperStiffnessRequestFrontAxle: 33.6 %, DamperStiffnessRequestRearAxle: 90.80000000000001 %, DmprStffnssRqstLftTgAxl: 69.60000000000001 %, KneelingCommandFrontAxle: 3, KneelingCommandRearAxle: 0, Prohibitairsuspensioncontrol: 2, AllwLvlCntrlDrngBrkngCmmnd: 3, SpdDpndntLvlCntrlRqst: 3, PrhtAtmtArSspnsnCntrl: 3, Memorylevelrequest: 0)
 (1668655421.495457)  vcan0  18FE69FE   [8]  16 CB 63 4F 8A 10 8C 52 :: ET3(EngnIntkMnfld1TmprtrHghRsltn: 1351.6875 degC, EngnClntTmprtrHghRsltn: 362.09375 degC, EngnIntkVlvAttnSstmOlTmprtr: -140.6875 degC, EngnChrgArClr1OtltTmprtr: 387.375 degC)
 (1668655422.495819)  vcan0  18FE5BFE   [8]  8D D5 2C 06 15 85 DD 4F :: FLI2(LaneTrackingStatusRightSide: 3, LaneTrackingStatusLeftSide: 0, LnDprtrIndtnEnlStts: 2, DriverAlertnessLevel: 85.2 %, DrvrAlrtnssWrnngSstmStt: 4, LeftWheelLaneDepartureDistance: -119 cm, RightWheelLaneDepartureDistance: -104 cm, LaneDepartureWarningSystemState: 13, ForwardLaneImagerStatus: 13)
 (1668655423.496176)  vcan0  18FEADFE   [8]  FC FA BA 45 21 80 83 2A :: EBC3(BApptPssHRFtAxLtW: 1260 kPa, BApptPssHRFtAxRtW: 1250 kPa, BApptPssHRRAx1LtW: 930 kPa, BApptPssHRRAx1RtW: 345 kPa, BApptPssHRRAx2LtW: 165 kPa, BApptPssHRRAx2RtW: 640 kPa, BApptPssHRRAx3LtW: 655 kPa, BApptPssHRRAx3RtW: 210 kPa)
 (1668655424.496490)  vcan0  0CF00AFE   [8]  FF 51 DB 7A 8E 2D DB 0A :: EGF1(EngnExhstGsRrltn1MssFlwRt: 1049.55 kg/h, EngineIntakeAirMassFlowRate: 1572.5500000000002 kg/h, EngnExhstGsRrltn2MssFlwRt: 583.1 kg/h)
 (1668655425.496994)  vcan0  0C1DFEFE   [8]  EB 38 19 37 D6 5F B2 27 :: EIC(EngineTimingAdvance: -86.1640625 deg)
 (1668655426.497130)  vcan0  18FE4FFE   [8]  51 34 E2 0D 41 D4 9A 29 :: VDC1(VDCInformationSignal: 1, VDCFullyOperational: 0, VDCbrakelightrequest: 1, ROPEngineControlactive: 0, ROPBrakeControlactive: 1, YCEngineControlactive: 3, YCBrakeControlactive: 0, TrailerVDCActive: 2)
 (1668655427.497505)  vcan0  0C0BFEFE   [8]  77 C7 F4 76 F9 9C 5E 68 :: AEBS2(DvtvtddAdvdEBSst: 3, AEBS2messageCounter: 8 count, AEBS2messagechecksum: 6 count)
 (1668655428.497795)  vcan0  0CF018FE   [8]  2B 51 EB 12 D6 D2 6C 31 :: KL2(EngineCylinder9KnockLevel: 43 %, EngineCylinder10KnockLevel: 81 %, EngineCylinder11KnockLevel: 235 %, EngineCylinder12KnockLevel: 18 %, EngineCylinder13KnockLevel: 214 %, EngineCylinder14KnockLevel: 210 %, EngineCylinder15KnockLevel: 108 %, EngineCylinder16KnockLevel: 49 %)
 (1668655445.504917)  vcan0  0CF002FE   [8]  83 01 FB 43 F1 CC 28 05 :: ETC1(TransmissionDrivelineEngaged: 3, TrnsmssnTrqCnvrtrLkpEnggd: 0, TransmissionShiftInProcess: 0, TrnsmssnTrqCnvrtrLkpTrnstnnPrss: 2, Transmission1OutputShaftSpeed: 8032.125 rpm, PercentClutchSlip: 26.8 %, EngineMomentaryOverspeedEnable: 1, ProgressiveShiftDisable: 0, MmntrEngnMxmmPwrEnl: 3, Transmission1InputShaftSpeed: 1305.5 rpm, SAddssCtDvTsssCt: 5 SA)
 (1668655446.505106)  vcan0  0CF016FE   [8]  06 30 07 3C 7C 72 49 0C :: CCS(EngineCylinder1CombustionStatus: 2, EngineCylinder2CombustionStatus: 1, EngineCylinder3CombustionStatus: 0, EngineCylinder4CombustionStatus: 0, EngineCylinder5CombustionStatus: 0, EngineCylinder6CombustionStatus: 0, EngineCylinder7CombustionStatus: 3, EngineCylinder8CombustionStatus: 0, EngineCylinder9CombustionStatus: 3, EngnClndr10CmstnStts: 1, EngnClndr11CmstnStts: 0, EngnClndr12CmstnStts: 0, EngnClndr13CmstnStts: 0, EngnClndr14CmstnStts: 3, EngnClndr15CmstnStts: 3, EngnClndr16CmstnStts: 0, EngnClndr17CmstnStts: 0, EngnClndr18CmstnStts: 3, EngnClndr19CmstnStts: 3, EngnClndr20CmstnStts: 1, EngnClndr21CmstnStts: 2, EngnClndr22CmstnStts: 0, EngnClndr23CmstnStts: 3, EngnClndr24CmstnStts: 1)
 (1668655447.505414)  vcan0  0CD1FEFE   [8]  CA 32 AE 5D 75 D6 E2 3F :: ASC6(LevelPresetFrontAxleLeft: -1899.8 mm, LevelPresetFrontAxleRight: -801.7999999999997 mm, LevelPresetRearAxleLeft: 2290.1000000000004 mm, LevelPresetRearAxleRight: -1564.6 mm)
 (1668655448.504532)  vcan0  18FE6BFE   [8]  87 D2 B3 67 4F CE C5 6E :: DI(Driver1identification: 135 ASCII, Driver2identification: 210 ASCII)
 (1668655449.504806)  vcan0  0CF004FE   [8]  1B 45 26 23 4D 3B 90 55 :: EEC1(EngineTorqueMode: 11, AtlEngnPrntTrqFrtnl: 0.125 %, DrvrsDmndEngnPrntTrq: -56 %, ActualEnginePercentTorque: -87 %, EngineSpeed: 2468.375 rpm, SrAddrssfCntrllngDvfrEngnCntrl: 59 SA, EngineStarterMode: 0, EngineDemandPercentTorque: -40 %)
 (1668655450.505057)  vcan0  18FE53FE   [8]  D5 6A 9E 47 C6 84 08 25 :: RTC1(LwLmtThrshldfrMxmmRPMfrmRtrdr: 6816 rpm, HLtTsdMCtsRPMRtd: 3392 rpm, LwLmtThrshldfrMxmmTrqfrmRtrdr: 33 %, HLtTsdMCtsTqRtd: -54 %, MaximumContinuousRetarderSpeed: 6336 rpm, MinimumContinuousRetarderSpeed: 4224 rpm, MaximumContinuousRetarderTorque: -117 %, MinimumContinuousRetarderTorque: -88 %)
 (1668655451.505335)  vcan0  0CF00AFE   [8]  34 CB 9E 29 9C 59 12 6D :: EGF1(EngnExhstGsRrltn1MssFlwRt: 2601.0 kg/h, EngineIntakeAirMassFlowRate: 532.7 kg/h, EngnExhstGsRrltn2MssFlwRt: 1147.0 kg/h)
 (1668655452.505458)  vcan0  18FE70FE   [8]  4E 31 8B 18 59 CA 39 00 :: CVW(PoweredVehicleWeight: 126220 kg, GrossCombinationVehicleWeight: 62830 kg)
 (1668655453.505678)  vcan0  18FE58FE   [8]  B2 72 90 1A 13 5C 5C 2E :: ASC4(BellowPressureFrontAxleLeft: 2936.2000000000003 kPa, BellowPressureFrontAxleRight: 680.0 kPa, BellowPressureRearAxleLeft: 2357.1 kPa, BellowPressureRearAxleRight: 1186.8 kPa)
 (1668655454.505892)  vcan0  18FEADFE   [8]  5A 8A 69 75 EB 8E FD 21 :: EBC3(BApptPssHRFtAxLtW: 450 kPa, BApptPssHRFtAxRtW: 690 kPa, BApptPssHRRAx1LtW: 525 kPa, BApptPssHRRAx1RtW: 585 kPa, BApptPssHRRAx2LtW: 1175 kPa, BApptPssHRRAx2RtW: 710 kPa, BApptPssHRRAx3LtW: 1265 kPa, BApptPssHRRAx3RtW: 165 kPa)
 (1668655455.506490)  vcan0  0CF003FE   [8]  47 CA F1 23 6E 90 F8 65 :: EEC2(AcceleratorPedal1LowIdleSwitch: 3, AcceleratorPedalKickdownSwitch: 1, RoadSpeedLimitStatus: 0, AcceleratorPedal2LowIdleSwitch: 1, AcceleratorPedalPosition1: 80.80000000000001 %, EnginePercentLoadAtCurrentSpeed: 241 %, RemoteAcceleratorPedalPosition: 14.0 %, AcceleratorPedal2Position: 44.0 %, VhlAlrtnRtLmtStts: 0, MmntrEngnMxmmPwrEnlFdk: 0, DPFThermalManagementActive: 1, SCRThermalManagementActive: 2, AtlMxmmAvllEngnPrntTrq: 99.2 %, EstimatedPumpingPercentTorque: -24 %)
 (1668655456.506701)  vcan0  18FE6DFE   [8]  62 6B 42 5D 74 C0 FF 21 :: HTR(AxlrHtrOtptClntTmprtr: 58 degC, AxlrHtrInptArTmprtr: 67 degC, AxlrHtrOtptPwrPrnt: 26.400000000000002 %, AuxiliaryHeaterMode: 13, AuxiliaryHeaterWaterPumpStatus: 0, CabVentilation: 1, EngineHeatingZone: 3, CabHeatingZone: 1, ADRCompliantHeaterInstallation: 0)
 (1668655457.507011)  vcan0  18FE56FE   [8]  FE A1 3D 2F 3E F3 AD 7F :: AT1T1I1(Aftrtrtmnt1DslExhstFldTnkVlm: 101.60000000000001 %, Atttt1DsExstFdTTpt1: 121 degC, Aftrtrtmnt1DslExhstFldTnkLvl: 1209.3 mm, Atttt1DsExstFdTLvVPFMI: 30 binary, AttttDsExstFdTLwLvIdt: 1, Atttt1DsExstFdT1TptPFMI: 19 binary, AftrtrtmntSCROprtrIndmntSvrt: 7, Aftrtrtmnt1DslExhstFldTnkHtr: 69.2 %, Atttt1DsExstFdT1HtPFMI: 31 binary)
 (1668655458.507349)  vcan0  18FE4CFE   [8]  92 35 D8 10 C6 C5 61 67 :: ML(RearBlackOutMarkerSelect: 2, FrontBlackOutMarkerLampSelect: 0, ConvoyLampSelect: 1, ConvoyDrivingLampSelect: 2, BlackOutBrakeStopLampSelect: 3, NightVisionIlluminatorSelect: 0, BlackOutWorkLampSelect: 0, OprtrsBlkOtIntnstSltn: 41.2 %)
 (1668655459.508079)  vcan0  18FE96FE   [8]  48 77 FD 14 E1 0A 88 0A :: TCW(EngnTrhrgrWstgtAttr1Pstn: 28.8 %, EngnTrhrgrWstgtAttr2Pstn: 47.6 %, EngnTrhrgrWstgtAttr3Pstn: 101.2 %, EngnTrhrgrWstgtAttr4Pstn: 8.0 %, EngnTrhrgrWstgtAttrCntrlArPrssr: 900 kPa, EngnTrhrgrWstgtAttr1DsrdPstn: 4.0 %, EngnTrhrgrWstgtAttr1PrlmnrFMI: 8 binary, EngnTrhrgrWstgtAttr1TmprtrStts: 4, EngnTrhrgrWstgtAttr2DsrdPstn: 4.0 %)
 (1668655460.508845)  vcan0  18FE52FE   [8]  5E 49 19 62 B6 75 26 52 :: VEP3(AltrntrCrrntHghRngRsltn: -660.9 A, SLIBttr1NtCrrntHghRngRsltn: -344.3499999999999 A, SLIBattery2NetCurrent: -93.29999999999995 A)
 (1668655461.509077)  vcan0  0CD1FEFE   [8]  4D F0 07 61 EA 40 C5 7B :: ASC6(LevelPresetFrontAxleLeft: 2951.7000000000007 mm, LevelPresetFrontAxleRight: -716.0999999999999 mm, LevelPresetRearAxleLeft: -1538.1999999999998 mm, LevelPresetRearAxleRight: -31.5 mm)
 (1668655462.509723)  vcan0  18FEC0FE   [8]  C9 11 49 07 39 72 50 14 :: SERV(ServiceComponentIdentificationA: 201 ID, ServiceDistance: -67110 km, ServiceComponentIdentificationB: 7 ID, ServiceDelayCalendarTimeBased: -68 weeks, ServiceComponentIdentificationC: 114 ID, SrvDlOprtnlTmBsd: -26927 h)
 (1668655463.510155)  vcan0  18FE97FE   [8]  6A C7 FD 7F EB E4 E0 2E :: TCI5(EngnTrhrgr1TrnOtltTmprtr: 1322.3125 degC, EngnTrhrgr2TrnOtltTmprtr: 750.90625 degC, EngnTrhrgr3TrnOtltTmprtr: 1558.34375 degC, EngnTrhrgr4TrnOtltTmprtr: 102.0 degC)
 (1668655464.510689)  vcan0  18FE98FE   [8]  B6 59 9A 13 45 6F 4A 24 :: TCI4(EngnTrhrgr1TrnIntkTmprtr: 444.6875 degC, EngnTrhrgr2TrnIntkTmprtr: -116.1875 degC, EngnTrhrgr3TrnIntkTmprtr: 617.15625 degC, EngnTrhrgr4TrnIntkTmprtr: 17.3125 degC)
 (1668655465.510983)  vcan0  18FE6AFE   [8]  23 DD 38 65 8C 39 3C 48 :: EFS(EngineOilLevelRemoteReservoir: 14.0 %, EngnFlSpplPmpIntkAsltPrssr: 442 kPa, EngnFlFltrstnsdDffrntlPrssr: 112 kPa, EngineWasteOilReservoirLevel: 40.400000000000006 %, EngineOilFilterOutletPressure: 560 kPa, EngineOilPrimingPumpSwitch: 1, EngineOilPrimingState: 2, EngineOilPreHeatedState: 3, EngineCoolantPreheatedState: 0, EngineVentilationStatus: 4, FuelPumpPrimerStatus: 3, EngnFlSpplPmpIntkPrssr: 144 kPa)
 (1668655466.511611)  vcan0  18FE8FFE   [8]  81 2D 00 3C EF A4 7E 25 :: SP2(EngnExtrnlShtdwnArSpplPrssr: 5824.5 kPa)
 (1668655467.512211)  vcan0  18FE5BFE   [8]  5C F0 10 1F ED 46 BC 54 :: FLI2(LaneTrackingStatusRightSide: 3, LaneTrackingStatusLeftSide: 1, LnDprtrIndtnEnlStts: 1, DriverAlertnessLevel: 96.0 %, DrvrAlrtnssWrnngSstmStt: 0, LeftWheelLaneDepartureDistance: -94 cm, RightWheelLaneDepartureDistance: 112 cm, LaneDepartureWarningSystemState: 12, ForwardLaneImagerStatus: 11)
 (1668655468.512914)  vcan0  18FEBDFE   [8]  AB 89 04 42 7F 7C 94 65 :: FD1(EngineFan1EstimatedPercentSpeed: 68.4 %, FanDriveState: 9, FanSpeed: 2112.5 rpm, HydraulicFanMotorPressure: 15935.5 kPa, FanDriveBypassCommandStatus: 59.2 %)
 (1668655469.513519)  vcan0  0C00FEFE   [8]  4A F1 BD 53 C8 F3 91 7A :: TSC1(EngineOverrideControlMode: 2, EngnRqstdSpdCntrlCndtns: 2, OverrideControlModePriority: 0, EngineRequestedSpeedSpeedLimit: 6078.125 rpm, EngnRqstdTrqTrqLmt: -42 %, TSC1TransmissionRate: 0, TSC1ControlPurpose: 25, EngineRequestedTorqueFractional: 0.375 %, MessageCounter: 10 count, MessageChecksum: 7 count)
 (1668655587.565348)  vcan0  18FE50FE   [8]  76 15 56 32 04 AF 14 05 :: BT1(SLIBattery1Temperature: 78 degC, SLIBattery2Temperature: -19 degC, SLIBattery3Temperature: 46 degC, SLIBattery4Temperature: 10 degC)
 (1668655588.565558)  vcan0  04F031FE   [8]  20 EA 48 42 1F C3 F0 4D :: WAND(WandAngle: 55.872 deg, WandSensorFigureofMerit: 0)
 (1668655589.565762)  vcan0  18FEBDFE   [8]  4E BE 6E 7B 00 A3 EB 3E :: FD1(EngineFan1EstimatedPercentSpeed: 31.200000000000003 %, FanDriveState: 14, FanSpeed: 3949.75 rpm, HydraulicFanMotorPressure: 20864.0 kPa, FanDriveBypassCommandStatus: 94.0 %)
 (1668655590.566029)  vcan0  18FE68FE   [8]  BC 0A 63 0F 2B EF 6C 07 :: VF(HydraulicTemperature: 148 degC, HdrlOlFltrRstrtnSwth: 2, WinchOilPressureSwitch: 2, HydraulicOilLevel: 39.6 %)
 (1668655591.566728)  vcan0  18FE70FE   [8]  C1 1A ED 12 E2 8D A4 19 :: CVW(PoweredVehicleWeight: 68490 kg, GrossCombinationVehicleWeight: 48450 kg)
 (1668655592.567422)  vcan0  08F110FE   [8]  DC 99 0E 44 7A 81 3B 37 :: B2(DmnddBrkAppltnPrssr: 3938.8 kPa, BrakePedalSwitch2: 2)
 (1668655593.567689)  vcan0  18FEC0FE   [8]  37 A0 0D 2A F3 0B 5D 4B :: SERV(ServiceComponentIdentificationA: 55 ID, ServiceDistance: -143195 km, ServiceComponentIdentificationB: 42 ID, ServiceDelayCalendarTimeBased: 118 weeks, ServiceComponentIdentificationC: 11 ID, SrvDlOprtnlTmBsd: -12834 h)
 (1668655594.568439)  vcan0  08F062FE   [8]  1E 21 19 4C 5E 8D C1 6A :: ETC12(TrnsmssnHdrsttLp1Prssr: 8478 kPa, TrnsmssnHdrsttLp2Prssr: 19481 kPa, TrnsmssnDrtnlOtptShftSpd: 4063 rpm, TrnsmssnIntrmdtShftSpd: 3416.125 rpm)
 (1668655595.568706)  vcan0  18FEC1FE   [8]  03 DC CF 12 0D A2 42 2D :: VDHR(TtlVhlDstnHghRsltn: 1578060815 m, TripDistanceHighResolution: 3796707905 m)
 (1668655596.569073)  vcan0  0C99FEFE   [8]  8C C5 3B 26 21 14 9E 72 :: JLCM(Joystick1Lamp1Command: 0, Joystick1Lamp2Command: 3, Joystick1Lamp3Command: 0, Joystick1Lamp4Command: 2, Joystick1Lamp5Command: 1, Joystick1Lamp6Command: 1, Joystick1Lamp7Command: 0, Joystick1Lamp8Command: 3, Joystick1Lamp9Command: 3, Joystick1Lamp10Command: 2, Joystick2Lamp1Command: 3, Joystick2Lamp2Command: 0, Joystick2Lamp3Command: 2, Joystick2Lamp4Command: 1, Joystick2Lamp5Command: 2, Joystick2Lamp6Command: 0, Joystick2Lamp7Command: 1, Joystick2Lamp8Command: 0, Joystick2Lamp9Command: 2, Joystick2Lamp10Command: 0, Joystick3Lamp1Command: 0, Joystick3Lamp2Command: 1, Joystick3Lamp3Command: 1, Joystick3Lamp4Command: 0, Joystick3Lamp5Command: 2, Joystick3Lamp6Command: 3, Joystick3Lamp7Command: 1, Joystick3Lamp8Command: 2, Joystick3Lamp9Command: 2, Joystick3Lamp10Command: 0)
 (1668655597.569517)  vcan0  18FE6DFE   [8]  7A 59 B9 67 97 29 F4 24 :: HTR(AxlrHtrOtptClntTmprtr: 82 degC, AxlrHtrInptArTmprtr: 49 degC, AxlrHtrOtptPwrPrnt: 74.0 %, AuxiliaryHeaterMode: 7, AuxiliaryHeaterWaterPumpStatus: 3, CabVentilation: 1, EngineHeatingZone: 1, CabHeatingZone: 2, ADRCompliantHeaterInstallation: 1)
 (1668655598.569853)  vcan0  18FE97FE   [8]  C3 94 32 3F B7 13 3D 67 :: TCI5(EngnTrhrgr1TrnOtltTmprtr: 917.09375 degC, EngnTrhrgr2TrnOtltTmprtr: 232.5625 degC, EngnTrhrgr3TrnOtltTmprtr: -115.28125 degC, EngnTrhrgr4TrnOtltTmprtr: 552.90625 degC)
 (1668655599.570158)  vcan0  0C99FEFE   [8]  37 2A 43 49 05 D2 AB 62 :: JLCM(Joystick1Lamp1Command: 3, Joystick1Lamp2Command: 1, Joystick1Lamp3Command: 3, Joystick1Lamp4Command: 0, Joystick1Lamp5Command: 2, Joystick1Lamp6Command: 2, Joystick1Lamp7Command: 2, Joystick1Lamp8Command: 0, Joystick1Lamp9Command: 3, Joystick1Lamp10Command: 0, Joystick2Lamp1Command: 0, Joystick2Lamp2Command: 1, Joystick2Lamp3Command: 1, Joystick2Lamp4Command: 2, Joystick2Lamp5Command: 0, Joystick2Lamp6Command: 1, Joystick2Lamp7Command: 1, Joystick2Lamp8Command: 1, Joystick2Lamp9Command: 0, Joystick2Lamp10Command: 0, Joystick3Lamp1Command: 2, Joystick3Lamp2Command: 0, Joystick3Lamp3Command: 1, Joystick3Lamp4Command: 3, Joystick3Lamp5Command: 3, Joystick3Lamp6Command: 2, Joystick3Lamp7Command: 2, Joystick3Lamp8Command: 2, Joystick3Lamp9Command: 2, Joystick3Lamp10Command: 0)
 (1668655600.570383)  vcan0  0C1EFEFE   [8]  DF 3E 7D 13 C1 DC 0E 72 :: ALTC(AltrntrStpntVltgCmmnd: 16.095 V, AltrntrExttnMxmmCrrntLmt: 31.25 A, AlternatorTorqueRampTimeCommand: 1.9000000000000001 s, AltrntrTrqRmpMxmmSpdCmmnd: 6176 rpm)
 (1668655601.570996)  vcan0  18FEBFFE   [8]  C8 6A 86 4D 83 F7 FB 04 :: EBC2(FrontAxleSpeed: 106.78125 km/h, RelativeSpeedFrontAxleLeftWheel: 0.5625 km/h, RltvSpdFrntAxlRghtWhl: -3.0 km/h, RelativeSpeedRearAxle1LeftWheel: 0.375 km/h, RltvSpdRrAxl1RghtWhl: 7.625 km/h, RelativeSpeedRearAxle2LeftWheel: 7.875 km/h, RltvSpdRrAxl2RghtWhl: -7.5625 km/h)
 (1668655602.571514)  vcan0  08F110FE   [8]  99 44 92 3E 5F 91 0A 49 :: B2(DmnddBrkAppltnPrssr: 1756.1000000000001 kPa, BrakePedalSwitch2: 2)
 (1668655603.571747)  vcan0  18FE6DFE   [8]  75 D2 1B 7A 96 31 18 73 :: HTR(AxlrHtrOtptClntTmprtr: 77 degC, AxlrHtrInptArTmprtr: 170 degC, AxlrHtrOtptPwrPrnt: 10.8 %, AuxiliaryHeaterMode: 10, AuxiliaryHeaterWaterPumpStatus: 2, CabVentilation: 1, EngineHeatingZone: 1, CabHeatingZone: 2, ADRCompliantHeaterInstallation: 1)
 (1668655604.572312)  vcan0  18FE4EFE   [8]  B3 10 16 4A B5 52 31 3F :: DC1(Positionofdoors: 3, RampWheelChairLiftPosition: 3, Status2ofdoors: 2)
 (1668655605.573006)  vcan0  18FE94FE   [8]  F8 D2 BA 29 B8 2E 01 52 :: EAC(EngineAuxiliaryCoolantPressure: 992 kPa, EngnAxlrClntTmprtr: 170 degC, SeaWaterPumpOutletPressure: 372 kPa, EngnClntPrssr1ExtnddRng: 164 kPa, EngnClntPrssr2ExtnddRng: 736 kPa, EngnClntPmpClntOtltPrssr: 92 kPa)
 (1668655606.573176)  vcan0  0C1DFEFE   [8]  DB D7 EF 43 44 F4 3C 78 :: EIC(EngineTimingAdvance: 231.7109375 deg)
 (1668655607.573729)  vcan0  18FE52FE   [8]  CE F3 1F 75 BF 4D F6 5F :: VEP3(AltrntrCrrntHghRngRsltn: 1520.7000000000003 A, SLIBttr1NtCrrntHghRngRsltn: -100.84999999999991 A, SLIBattery2NetCurrent: -604.8499999999999 A)
 (1668655608.573993)  vcan0  18FEA6FE   [8]  C4 BE 64 2B 82 E2 28 1F :: IMT1(EngnTrhrgr1BstPrssr: 6104.5 kPa, EngnTrhrgr2BstPrssr: 1388.5 kPa, EngnTrhrgr3BstPrssr: 7248.25 kPa, EngnTrhrgr4BstPrssr: 997.0 kPa)
 (1668655609.574202)  vcan0  18FEBDFE   [8]  DA 4C 9A 2F BA 0C 6C 68 :: FD1(EngineFan1EstimatedPercentSpeed: 87.2 %, FanDriveState: 12, FanSpeed: 1523.25 rpm, HydraulicFanMotorPressure: 1629.0 kPa, FanDriveBypassCommandStatus: 43.2 %)
 (1668655610.574845)  vcan0  18FEAEFE   [8]  F0 7D BB 72 99 4B E9 7B :: AIR1(PneumaticSupplyPressure: 1920 kPa, ParkingandorTrailerAirPressure: 1000 kPa, ServiceBrakeCircuit1AirPressure: 1496 kPa, ServiceBrakeCircuit2AirPressure: 912 kPa, AxlrEqpmntSpplPrssr: 1224 kPa, AirSuspensionSupplyPressure: 600 kPa, AirCompressorStatus: 1, PwrtrnCrtArSpplPrssr: 984 kPa)
 (1668655611.575169)  vcan0  0C08FEFE   [8]  31 9E 49 3D 62 B6 6F 49 :: AUXIO5(AuxiliaryIOChannel6: 40497 count, AuxiliaryIOChannel5: 15689 count, AuxiliaryIOChannel4: 46690 count, AuxiliaryIOChannel3: 18799 count)
 (1668655612.575401)  vcan0  04F031FE   [8]  55 4C 7C 21 FB FA 01 08 :: WAND(WandAngle: -24.918 deg, WandSensorFigureofMerit: 0)
 (1668655613.575781)  vcan0  18FED5FE   [8]  F4 7B EA 3C 70 CD 1D 02 :: AS(AlternatorSpeed: 15866.0 rpm, Alternator1Status: 2, Alternator2Status: 2, Alternator3Status: 2, Alternator4Status: 3)
 (1668655614.576031)  vcan0  18FED6FE   [8]  86 B7 B5 23 23 DE 33 4C :: HSI1(HrdSstmPrttnOvrrdSwth: 2, HrdSstmPrplsnClntLvlSwth: 1, HrdSstmPwrEltrnsClntLvlSwth: 0, HrdSstmOffBrdChrgrCnntnStts: 2, HrdSstmRgnrtvBrkngDslSwth: 3, HrdSstmBrkPdlRgnrtvBrkngDslSwth: 1, HrdSstmPrplsnDslSwth: 3, HybridSystemShutdownSwitch: 2, HrdSstmCstngRgnrtvBrkngLvlSltr: 72.4 %, PwrEltrnsClntFllSwth: 3, PrplsnMtrClntFllSwth: 0)
 (1668655615.576240)  vcan0  18FE99FE   [8]  76 80 42 75 1C B1 EE 75 :: TCI3(EngnTrhrgr1CmprssrIntkPrssr: 6.921875 kPa, EngnTrhrgr2CmprssrIntkPrssr: -15.484375 kPa, EngnTrhrgr3CmprssrIntkPrssr: 104.21875 kPa, EngnTrhrgr4CmprssrIntkPrssr: -14.140625 kPa)
 (1668655616.576514)  vcan0  18FE94FE   [8]  73 EB 11 74 F7 88 DE 39 :: EAC(EngineAuxiliaryCoolantPressure: 460 kPa, EngnAxlrClntTmprtr: 195 degC, SeaWaterPumpOutletPressure: 34 kPa, EngnClntPrssr1ExtnddRng: 464 kPa, EngnClntPrssr2ExtnddRng: 988 kPa, EngnClntPmpClntOtltPrssr: 272 kPa)
 (1668656169.478758)  vcan0  0CF003FE   [8]  85 C8 BE 07 CD 30 F9 74 :: EEC2(AcceleratorPedal1LowIdleSwitch: 1, AcceleratorPedalKickdownSwitch: 1, RoadSpeedLimitStatus: 0, AcceleratorPedal2LowIdleSwitch: 2, AcceleratorPedalPosition1: 80.0 %, EnginePercentLoadAtCurrentSpeed: 190 %, RemoteAcceleratorPedalPosition: 2.8000000000000003 %, AcceleratorPedal2Position: 82.0 %, VhlAlrtnRtLmtStts: 0, MmntrEngnMxmmPwrEnlFdk: 0, DPFThermalManagementActive: 3, SCRThermalManagementActive: 0, AtlMxmmAvllEngnPrntTrq: 99.60000000000001 %, EstimatedPumpingPercentTorque: -9 %)
 (1668656168.548569)  vcan0  18FEBFFE   [8]  93 22 24 64 A1 4F 4A 0E :: EBC2(FrontAxleSpeed: 34.57421875 km/h, RelativeSpeedFrontAxleLeftWheel: -5.5625 km/h, RltvSpdFrntAxlRghtWhl: -1.5625 km/h, RelativeSpeedRearAxle1LeftWheel: 2.25 km/h, RltvSpdRrAxl1RghtWhl: -2.875 km/h, RelativeSpeedRearAxle2LeftWheel: -3.1875 km/h, RltvSpdRrAxl2RghtWhl: -6.9375 km/h)
 (1668656169.548764)  vcan0  18FE4FFE   [8]  83 E4 64 13 AA 99 76 37 :: VDC1(VDCInformationSignal: 3, VDCFullyOperational: 0, VDCbrakelightrequest: 0, ROPEngineControlactive: 0, ROPBrakeControlactive: 1, YCEngineControlactive: 2, YCBrakeControlactive: 3, TrailerVDCActive: 0)
 (1668656170.549454)  vcan0  18FEA4FE   [8]  88 26 E3 2F C0 36 23 69 :: ET2(EngineOilTemperature2: 35.25 degC, EngineECUTemperature: 110.09375 degC, EngnExhstGsRrltn1DffrntlPrssr: -140.5 kPa, EngnExhstGsRrltn1Tmprtr: 568.09375 degC)
 (1668656171.549696)  vcan0  18FE8FFE   [8]  D2 86 B0 41 88 79 F0 32 :: SP2(EngnExtrnlShtdwnArSpplPrssr: 17257.0 kPa)
 (1668656172.550457)  vcan0  08F02CFE   [8]  B8 5D 52 39 DC AC 0E 0B :: MSI2(MagnetForwardCurrent: 23992 A, MagnetReverseCurrent: 82 A, MaterialLiftSwitch: 1, MaterialDropSwitch: 2, GnrtrCrrntBstAtvStts: 3, MaterialLiftActiveStatus: 0, MaterialDropActiveStatus: 0, LiftRelayControl: 3, DropRelayControl: 1, MagnetGeneratorControl: 3)
 (1668656173.550715)  vcan0  18FE51FE   [8]  8E 5D FD 37 E5 50 1E 1D :: ACC2(ACCusagedemand: 2, RequestedACCDistanceMode: 4)
 (1668656174.551031)  vcan0  18FE98FE   [8]  D4 24 20 13 04 EC 9E 4A :: TCI4(EngnTrhrgr1TrnIntkTmprtr: 21.625 degC, EngnTrhrgr2TrnIntkTmprtr: -120.0 degC, EngnTrhrgr3TrnIntkTmprtr: 1615.125 degC, EngnTrhrgr4TrnIntkTmprtr: 323.9375 degC)
 (1668656175.551766)  vcan0  0CF004FE   [8]  A5 54 A8 71 88 68 C9 69 :: EEC1(EngineTorqueMode: 5, AtlEngnPrntTrqFrtnl: 1.25 %, DrvrsDmndEngnPrntTrq: -41 %, ActualEnginePercentTorque: 43 %, EngineSpeed: 4366.125 rpm, SrAddrssfCntrllngDvfrEngnCntrl: 104 SA, EngineStarterMode: 9, EngineDemandPercentTorque: -20 %)
 (1668656176.552104)  vcan0  18FEC0FE   [8]  31 EF 51 2D D3 F4 79 67 :: SERV(ServiceComponentIdentificationA: 49 ID, ServiceDistance: -55760 km, ServiceComponentIdentificationB: 45 ID, ServiceDelayCalendarTimeBased: 86 weeks, ServiceComponentIdentificationC: 244 ID, SrvDlOprtnlTmBsd: -5638 h)
 (1668656177.552817)  vcan0  18FEAEFE   [8]  E5 49 D8 2C 59 BD 38 6F :: AIR1(PneumaticSupplyPressure: 1832 kPa, ParkingandorTrailerAirPressure: 584 kPa, ServiceBrakeCircuit1AirPressure: 1728 kPa, ServiceBrakeCircuit2AirPressure: 352 kPa, AxlrEqpmntSpplPrssr: 712 kPa, AirSuspensionSupplyPressure: 1512 kPa, AirCompressorStatus: 0, PwrtrnCrtArSpplPrssr: 888 kPa)
 (1668656178.553037)  vcan0  00F02BFE   [8]  E4 94 79 42 EC DF 5C 53 :: CN(CrashType: 20 bit-mapped, CrashCounter: 3 count, CrashChecksum: 5 count)
 (1668656179.553241)  vcan0  18FE70FE   [8]  93 81 24 28 6F C4 C1 66 :: CVW(PoweredVehicleWeight: 331710 kg, GrossCombinationVehicleWeight: 102760 kg)
 (1668656180.553931)  vcan0  18FE4CFE   [8]  FA D4 0C 23 F7 EA A4 16 :: ML(RearBlackOutMarkerSelect: 2, FrontBlackOutMarkerLampSelect: 2, ConvoyLampSelect: 3, ConvoyDrivingLampSelect: 3, BlackOutBrakeStopLampSelect: 0, NightVisionIlluminatorSelect: 3, BlackOutWorkLampSelect: 0, OprtrsBlkOtIntnstSltn: 8.8 %)
 (1668656181.554268)  vcan0  18FE54FE   [8]  65 45 10 2F C9 71 55 58 :: ECT1(ELwLtTsdMxRPME: 3232 rpm, EHLtTsdMCtsERPM: 2208 rpm, ELwLtTsdMxTqE: -109 %, EHLtTsdMCtsTqE: -78 %, EngineMaximumContinuousRPM: 6432 rpm, EngineMinimumContinuousRPM: 3616 rpm, EngineMaximumContinuousTorque: -40 %, EngineMinimumContinuousTorque: -37 %)
 (1668656182.554529)  vcan0  18FE68FE   [8]  CE E2 9F 5C 81 CF A7 11 :: VF(HydraulicTemperature: 166 degC, HdrlOlFltrRstrtnSwth: 2, WinchOilPressureSwitch: 0, HydraulicOilLevel: 63.6 %)
 (1668656183.554847)  vcan0  18FE50FE   [8]  53 13 F4 2C 10 2D A5 49 :: BT1(SLIBattery1Temperature: 43 degC, SLIBattery2Temperature: -21 degC, SLIBattery3Temperature: 204 degC, SLIBattery4Temperature: 4 degC)
 (1668656184.555125)  vcan0  04F032FE   [8]  E1 03 4D 0D E4 51 C5 5C :: LDISP(MeasuredLinearDisplacement: 99.30000000000001 mm, LnrDsplmntSnsrSnsrFgrfMrt: 1)
 (1668656185.555417)  vcan0  00F02BFE   [8]  03 F1 AD 27 89 A6 6D 4E :: CN(CrashType: 15 bit-mapped, CrashCounter: 14 count, CrashChecksum: 4 count)
 (1668656186.555700)  vcan0  18FE52FE   [8]  DD 6C 2A 78 BB 95 BF 7B :: VEP3(AltrntrCrrntHghRngRsltn: -206.54999999999995 A, SLIBttr1NtCrrntHghRngRsltn: -61.899999999999864 A, SLIBattery2NetCurrent: 316.5500000000002 A)
 (1668656187.555886)  vcan0  08F02DFE   [8]  10 A5 27 25 A0 DF 97 28 :: ACCS(LtrlAlrtnExtnddRng: 102.56 m/(s*s), LngtdnlAlrtnExtnddRng: -224.89 m/(s*s), VrtlAlrtnExtnddRng: 252.48000000000002 m/(s*s), LtrlAlrtnFgrfMrtExtnddRng: 3, LngtdnlAlrtnFgrfMrtExtnddRng: 1, VrtlAlrtnFgrfMrtExtnddRng: 1, SpptVTsssRpttRtAtSs: 2)
 (1668656188.556207)  vcan0  0CD2FEFE   [8]  10 0E 1E 47 84 74 11 6B :: ASC2(Atmttrtnhlpldtrnsfr: 0, KneelingRequestLeftSide: 0, KneelingRequestRightSide: 1, KneelingControlModeRequest: 0, NominalLevelRequestFrontAxle: 14, NominalLevelRequestRearAxle: 0, LevelControlModeRequest: 14, LiftAxle1PositionCommand: 1, LiftAxle2PositionCommand: 0, DamperStiffnessRequestFrontAxle: 28.400000000000002 %, DamperStiffnessRequestRearAxle: 52.800000000000004 %, DmprStffnssRqstLftTgAxl: 46.400000000000006 %, KneelingCommandFrontAxle: 1, KneelingCommandRearAxle: 0, Prohibitairsuspensioncontrol: 1, AllwLvlCntrlDrngBrkngCmmnd: 0, SpdDpndntLvlCntrlRqst: 3, PrhtAtmtArSspnsnCntrl: 2, Memorylevelrequest: 6)
 (1668656189.556493)  vcan0  18FED6FE   [8]  B2 C6 5E 77 18 F6 35 13 :: HSI1(HrdSstmPrttnOvrrdSwth: 2, HrdSstmPrplsnClntLvlSwth: 0, HrdSstmPwrEltrnsClntLvlSwth: 3, HrdSstmOffBrdChrgrCnntnStts: 2, HrdSstmRgnrtvBrkngDslSwth: 2, HrdSstmBrkPdlRgnrtvBrkngDslSwth: 1, HrdSstmPrplsnDslSwth: 0, HybridSystemShutdownSwitch: 3, HrdSstmCstngRgnrtvBrkngLvlSltr: 37.6 %, PwrEltrnsClntFllSwth: 3, PrplsnMtrClntFllSwth: 1)
 (1668656190.556792)  vcan0  18FE5BFE   [8]  FD 18 16 5F 12 CB 42 36 :: FLI2(LaneTrackingStatusRightSide: 3, LaneTrackingStatusLeftSide: 3, LnDprtrIndtnEnlStts: 3, DriverAlertnessLevel: 9.600000000000001 %, DrvrAlrtnssWrnngSstmStt: 6, LeftWheelLaneDepartureDistance: -30 cm, RightWheelLaneDepartureDistance: -107 cm, LaneDepartureWarningSystemState: 2, ForwardLaneImagerStatus: 4)
 (1668656191.557107)  vcan0  08F02DFE   [8]  09 A2 F0 2F 77 10 53 65 :: ACCS(LtrlAlrtnExtnddRng: 94.81 m/(s*s), LngtdnlAlrtnExtnddRng: -197.28 m/(s*s), VrtlAlrtnExtnddRng: -277.85 m/(s*s), LtrlAlrtnFgrfMrtExtnddRng: 3, LngtdnlAlrtnFgrfMrtExtnddRng: 0, VrtlAlrtnFgrfMrtExtnddRng: 1, SpptVTsssRpttRtAtSs: 1)
 (1668656192.557401)  vcan0  08F110FE   [8]  9E A4 BB 33 45 F3 F2 41 :: B2(DmnddBrkAppltnPrssr: 4214.2 kPa, BrakePedalSwitch2: 3)
 (1668656193.557588)  vcan0  08FE6EFE   [8]  0E 54 95 42 98 06 E7 6E :: HRW(FrontAxleLeftWheelSpeed: 84.0546875 km/h, Frontaxlerightwheelspeed: 66.58203125 km/h, Rearaxleleftwheelspeed: 6.59375 km/h, Rearaxlerightwheelspeed: 110.90234375 km/h)
 (1668656194.557963)  vcan0  18FE67FE   [8]  64 54 8D 6E 79 0A 34 7C :: CCC(AxlrHtrMxmmOtptPwr: 43208 W)
 (1668656195.558337)  vcan0  0CF013FE   [8]  BE 40 24 65 7D FB E1 23 :: SSI(PitchAngle: -30.851999999999997 deg, RollAngle: -12.216000000000001 deg, PitchRate: 64.762 deg/s, PitchAngleFigureofMerit: 1, RollAngleFigureofMerit: 0, PitchRateFigureofMerit: 2, PitchandRollCompensated: 3, RollandPitchMeasurementLatency: 17.5 ms)
 (1668656224.568744)  vcan0  18FE55FE   [8]  66 98 C0 62 96 EE 4D 26 :: GFD(SpecificHeatRatio: 39.014 Ratio, ReferenceEngineGasMassFlowRate: 1264.0 kg/h, Fuelenergycontent: 238.5859375 MJ/(Nm*Nm*Nm))
 (1668656225.568982)  vcan0  18FE4AFE   [8]  AD 1E 65 66 23 7C 55 5A :: ETC7(TrnsmssnCrrntRngDsplBlnkStt: 1, TransmissionServiceIndicator: 3, TrnsmssnRqstdRngDsplBlnkStt: 2, TrnsmssnRqstdRngDsplFlshStt: 2, TrnsmssnRdfrBrkRls: 2, ActiveShiftConsoleIndicator: 3, TransmissionEngineCrankEnable: 1, TrnsmssnShftInhtIndtr: 0, TransmissionMode4Indicator: 1, TransmissionMode3Indicator: 1, TransmissionMode2Indicator: 2, TransmissionMode1Indicator: 1, TrnsmssnRqstdGrFdk: -23 gear value, TransmissionMode5Indicator: 3, TransmissionMode6Indicator: 0, TransmissionMode7Indicator: 2, TransmissionMode8Indicator: 0, TrnsmssnRvrsGrShftInhtStts: 0, TransmissionWarningIndicator: 3, TransmissionMode9Indicator: 3, TransmissionMode10Indicator: 1, TrnsmssnArSpplPrssrIndtr: 5, TrnsmssnAtNtrlMnlRtrnStt: 2, TransmissionManualModeIndicator: 1)
 (1668656226.569279)  vcan0  0C0AFEFE   [8]  F8 CF C3 42 30 C2 2D 04 :: CCVS2(CruiseControlDisableCommand: 0, CruiseControlResumeCommand: 2, CruiseControlPauseCommand: 3, CruiseControlSetCommand: 3, IdleSpeedRequest: 6265.875 rpm, IdleControlEnableState: 2, IdleControlRequestActivation: 0, RemoteRoadSpeedLimitRequest: 48 km/h)
 (1668656229.498348)  vcan0  18FE6AFE   [8]  E8 41 61 3D 17 29 E3 3F :: EFS(EngineOilLevelRemoteReservoir: 92.80000000000001 %, EngnFlSpplPmpIntkAsltPrssr: 130 kPa, EngnFlFltrstnsdDffrntlPrssr: 194 kPa, EngineWasteOilReservoirLevel: 24.400000000000002 %, EngineOilFilterOutletPressure: 92 kPa, EngineOilPrimingPumpSwitch: 1, EngineOilPrimingState: 2, EngineOilPreHeatedState: 2, EngineCoolantPreheatedState: 0, EngineVentilationStatus: 3, FuelPumpPrimerStatus: 0, EngnFlSpplPmpIntkPrssr: 126 kPa)
 (1668656228.724359)  vcan0  04F032FE   [8]  D4 53 9C 63 44 BE A9 4E :: LDISP(MeasuredLinearDisplacement: 2146.0 mm, LnrDsplmntSnsrSnsrFgrfMrt: 0)
 (1668656229.724684)  vcan0  00F02BFE   [8]  22 EC E6 79 32 9D D3 38 :: CN(CrashType: 10 bit-mapped, CrashCounter: 8 count, CrashChecksum: 3 count)
 (1668656230.724936)  vcan0  0C1EFEFE   [8]  33 D8 22 4F 0F A8 11 7E :: ALTC(AltrntrStpntVltgCmmnd: 55.347 V, AltrntrExttnMxmmCrrntLmt: 8.5 A, AlternatorTorqueRampTimeCommand: 7.9 s, AltrntrTrqRmpMxmmSpdCmmnd: 480 rpm)
 (1668656231.725231)  vcan0  18FEBFFE   [8]  D5 90 63 23 05 DA 2A 7D :: EBC2(FrontAxleSpeed: 144.83203125 km/h, RelativeSpeedFrontAxleLeftWheel: -1.625 km/h, RltvSpdFrntAxlRghtWhl: -5.625 km/h, RelativeSpeedRearAxle1LeftWheel: -7.5 km/h, RltvSpdRrAxl1RghtWhl: 5.8125 km/h, RelativeSpeedRearAxle2LeftWheel: -5.1875 km/h, RltvSpdRrAxl2RghtWhl: 0.0 km/h)
 (1668656232.725617)  vcan0  18FE96FE   [8]  35 25 93 3E 49 D0 D6 44 :: TCW(EngnTrhrgrWstgtAttr1Pstn: 21.200000000000003 %, EngnTrhrgrWstgtAttr2Pstn: 14.8 %, EngnTrhrgrWstgtAttr3Pstn: 58.800000000000004 %, EngnTrhrgrWstgtAttr4Pstn: 24.8 %, EngnTrhrgrWstgtAttrCntrlArPrssr: 292 kPa, EngnTrhrgrWstgtAttr1DsrdPstn: 83.2 %, EngnTrhrgrWstgtAttr1PrlmnrFMI: 22 binary, EngnTrhrgrWstgtAttr1TmprtrStts: 6, EngnTrhrgrWstgtAttr2DsrdPstn: 27.200000000000003 %)
 (1668656233.725930)  vcan0  0C1CFEFE   [8]  B0 AC C7 48 AD CC 88 17 :: TC3(TransmissionOverrideControlMode: 0, TrnsmssnOvrrdCntrlMdPrrt: 0, MessageCounter: 11 count, TrnsmssnRqstdOtptShftSpd: 4747.25 rpm, TrnsmssnRqstdTrqTrqLmt: -53 %, MessageChecksum: 23 count)
 (1668656234.726215)  vcan0  18FEBDFE   [8]  4D 16 EB 5B 13 65 49 7A :: FD1(EngineFan1EstimatedPercentSpeed: 30.8 %, FanDriveState: 6, FanSpeed: 2941.375 rpm, HydraulicFanMotorPressure: 12937.5 kPa, FanDriveBypassCommandStatus: 29.200000000000003 %)
 (1668656235.726516)  vcan0  0CD1FEFE   [8]  D2 55 60 4D C0 83 AE 60 :: ASC6(LevelPresetFrontAxleLeft: -1003.0 mm, LevelPresetFrontAxleRight: -1219.1999999999998 mm, LevelPresetRearAxleLeft: 172.80000000000018 mm, LevelPresetRearAxleRight: -725.0 mm)
 (1668656236.726839)  vcan0  18FE67FE   [8]  A8 B5 C8 0A B8 53 72 23 :: CCC(AxlrHtrMxmmOtptPwr: 93008 W)
 (1668656237.727119)  vcan0  0C99FEFE   [8]  62 7D 71 68 A0 95 D3 60 :: JLCM(Joystick1Lamp1Command: 2, Joystick1Lamp2Command: 0, Joystick1Lamp3Command: 2, Joystick1Lamp4Command: 1, Joystick1Lamp5Command: 1, Joystick1Lamp6Command: 3, Joystick1Lamp7Command: 3, Joystick1Lamp8Command: 1, Joystick1Lamp9Command: 1, Joystick1Lamp10Command: 0, Joystick2Lamp1Command: 3, Joystick2Lamp2Command: 1, Joystick2Lamp3Command: 0, Joystick2Lamp4Command: 2, Joystick2Lamp5Command: 2, Joystick2Lamp6Command: 1, Joystick2Lamp7Command: 0, Joystick2Lamp8Command: 0, Joystick2Lamp9Command: 2, Joystick2Lamp10Command: 2, Joystick3Lamp1Command: 1, Joystick3Lamp2Command: 1, Joystick3Lamp3Command: 1, Joystick3Lamp4Command: 2, Joystick3Lamp5Command: 3, Joystick3Lamp6Command: 0, Joystick3Lamp7Command: 1, Joystick3Lamp8Command: 3, Joystick3Lamp9Command: 0, Joystick3Lamp10Command: 0)
 (1668656238.727751)  vcan0  0CF00DFE   [8]  7A 87 13 1D 74 E9 6F 44 :: LOI(BladeControlModeSwitch: 10, DesiredGradeOffsetSwitch: 7, BladeAutoModeCommand: 7, LftBldCntrlMdOprtrCntrl: 8, RghtBldCntrlMdOprtrCntrl: 3, LftDsrdBldOffstOprtrCntrl: 1, RghtDsrdBldOffstOprtrCntrl: 13, SdshftBldCntrlMdOprtrCntrl: 1, SdshftDsrdBldOffstOprtrCntrl: 4, StElvtnSnsr1RfrnElvtn: 3, StElvtnSnsr2RfrnElvtn: 1)
 (1668656239.728175)  vcan0  18FE4FFE   [8]  F1 20 6B 6A 96 D5 56 3E :: VDC1(VDCInformationSignal: 1, VDCFullyOperational: 0, VDCbrakelightrequest: 3, ROPEngineControlactive: 0, ROPBrakeControlactive: 0, YCEngineControlactive: 2, YCBrakeControlactive: 0, TrailerVDCActive: 3)
 (1668656240.728425)  vcan0  18FE97FE   [8]  D1 7D 49 08 CA AD 79 0D :: TCI5(EngnTrhrgr1TrnOtltTmprtr: 733.53125 degC, EngnTrhrgr2TrnOtltTmprtr: -206.71875 degC, EngnTrhrgr3TrnOtltTmprtr: 1117.3125 degC, EngnTrhrgr4TrnOtltTmprtr: -165.21875 degC)
 (1668656241.728965)  vcan0  18FE9AFE   [8]  4A AF CA 37 9F 3E DD 30 :: TCI2(EngnTrhrgr1CmprssrIntkTmprtr: 1129.3125 degC, EngnTrhrgr2CmprssrIntkTmprtr: 173.3125 degC, EngnTrhrgr3CmprssrIntkTmprtr: 227.96875 degC, EngnTrhrgr4CmprssrIntkTmprtr: 117.90625 degC)
 (1668656242.729719)  vcan0  18FE4BFE   [8]  BF 6E 98 79 D4 63 70 6F :: TCFG2(TransmissionTorqueLimit: 28351 Nm, TransmissionReferenceTorque: 31128 Nm, TrnsmssnCmmntnsFlrIdlTrqLmt: 87 %)
 (1668656243.730497)  vcan0  18FE9AFE   [8]  40 2E 3D 73 84 10 38 38 :: TCI2(EngnTrhrgr1CmprssrIntkTmprtr: 97.0 degC, EngnTrhrgr2CmprssrIntkTmprtr: 648.90625 degC, EngnTrhrgr3CmprssrIntkTmprtr: -140.875 degC, EngnTrhrgr4CmprssrIntkTmprtr: 176.75 degC)
 (1668656244.731144)  vcan0  0CD1FEFE   [8]  CC 0B 17 31 D1 26 23 14 :: ASC6(LevelPresetFrontAxleLeft: -2898.0 mm, LevelPresetFrontAxleRight: -1943.3 mm, LevelPresetRearAxleLeft: -2206.3 mm, LevelPresetRearAxleRight: -2684.5 mm)
 (1668656245.731372)  vcan0  18FEADFE   [8]  EF D7 3E 15 A4 7C 83 61 :: EBC3(BApptPssHRFtAxLtW: 1195 kPa, BApptPssHRFtAxRtW: 1075 kPa, BApptPssHRRAx1LtW: 310 kPa, BApptPssHRRAx1RtW: 105 kPa, BApptPssHRRAx2LtW: 820 kPa, BApptPssHRRAx2RtW: 620 kPa, BApptPssHRRAx3LtW: 655 kPa, BApptPssHRRAx3RtW: 485 kPa)
 (1668656246.731622)  vcan0  18FE59FE   [8]  34 20 BC 53 4C 32 4C 6C :: ASC3(RelativeLevelFrontAxleLeft: -2375.6 mm, RelativeLevelFrontAxleRight: -1056.4 mm, RelativeLevelRearAxleLeft: -1912.3999999999999 mm, RelativeLevelRearAxleRight: -427.5999999999999 mm)
 (1668656247.731842)  vcan0  18FE70FE   [8]  AA 2A 67 16 AF AF BD 54 :: CVW(PoweredVehicleWeight: 109220 kg, GrossCombinationVehicleWeight: 57350 kg)
 (1668656248.732576)  vcan0  18FE69FE   [8]  37 5E F5 18 29 37 D1 71 :: ET3(EngnIntkMnfld1TmprtrHghRsltn: 480.71875 degC, EngnClntTmprtrHghRsltn: -73.34375 degC, EngnIntkVlvAttnSstmOlTmprtr: 168.28125 degC, EngnChrgArClr1OtltTmprtr: 637.53125 degC)
 (1668656249.733129)  vcan0  18FEA4FE   [8]  08 50 2D 6A 1A 58 3C 5C :: ET2(EngineOilTemperature2: 367.25 degC, EngineECUTemperature: 576.40625 degC, EngnExhstGsRrltn1DffrntlPrssr: -73.796875 kPa, EngnExhstGsRrltn1Tmprtr: 464.875 degC)
 (1668656260.737398)  vcan0  0CF00AFE   [8]  78 74 EE 2F 1C DE FA 30 :: EGF1(EngnExhstGsRrltn1MssFlwRt: 1490.8000000000002 kg/h, EngineIntakeAirMassFlowRate: 613.5 kg/h, EngnExhstGsRrltn2MssFlwRt: 2843.0 kg/h)
 (1668656261.737562)  vcan0  0CF00DFE   [8]  89 61 14 01 3B F4 50 2D :: LOI(BladeControlModeSwitch: 9, DesiredGradeOffsetSwitch: 8, BladeAutoModeCommand: 1, LftBldCntrlMdOprtrCntrl: 6, RghtBldCntrlMdOprtrCntrl: 4, LftDsrdBldOffstOprtrCntrl: 1, RghtDsrdBldOffstOprtrCntrl: 1, SdshftBldCntrlMdOprtrCntrl: 0, SdshftDsrdBldOffstOprtrCntrl: 11, StElvtnSnsr1RfrnElvtn: 3, StElvtnSnsr2RfrnElvtn: 0)
 (1668656262.737824)  vcan0  0CF00CFE   [8]  38 8D 17 03 73 1B EF 2E :: ETC8(TrnsmssnTrqCnvrtrRt: 36.152 Ratio, TrnsmssnClthCnvrtrInptSpd: 98.875 rpm, TransmissionShiftInhibitReason: 115, TrnsmssnTrqCnvrtrLkpInhtRsn: 27, TrnsmssnTrqCnvrtrLkpInhtIndtr: 3)
 (1668656263.738115)  vcan0  0CF015FE   [8]  BC 1C 8B 74 0B 24 AC 7A :: RGTACRP(RqstdGnrtrTtlACRtvPwr: -44726084 VA, RqstdGnrtrOvrllPwrFtr: -0.43682861328125, RqstdGnrtrOvrllPwrFtrLggng: 0)
 (1668656264.738564)  vcan0  08F110FE   [8]  C5 BC 36 1E B2 DA 10 28 :: B2(DmnddBrkAppltnPrssr: 4832.5 kPa, BrakePedalSwitch2: 2)
 (1668656265.738714)  vcan0  18FE6DFE   [8]  9F 83 05 5C 7B A4 66 31 :: HTR(AxlrHtrOtptClntTmprtr: 119 degC, AxlrHtrInptArTmprtr: 91 degC, AxlrHtrOtptPwrPrnt: 2.0 %, AuxiliaryHeaterMode: 12, AuxiliaryHeaterWaterPumpStatus: 3, CabVentilation: 2, EngineHeatingZone: 3, CabHeatingZone: 1, ADRCompliantHeaterInstallation: 0)
 (1668656266.738842)  vcan0  0C0AFEFE   [8]  1D C7 57 7B 27 05 5C 77 :: CCVS2(CruiseControlDisableCommand: 1, CruiseControlResumeCommand: 3, CruiseControlPauseCommand: 1, CruiseControlSetCommand: 0, IdleSpeedRequest: 2808.875 rpm, IdleControlEnableState: 3, IdleControlRequestActivation: 2, RemoteRoadSpeedLimitRequest: 39 km/h)
 (1668656267.739652)  vcan0  18FE99FE   [8]  E7 3C F6 06 6D 50 63 1D :: TCI3(EngnTrhrgr1CmprssrIntkPrssr: -128.1953125 kPa, EngnTrhrgr2CmprssrIntkPrssr: -236.078125 kPa, EngnTrhrgr3CmprssrIntkPrssr: -89.1484375 kPa, EngnTrhrgr4CmprssrIntkPrssr: -191.2265625 kPa)
 (1668656268.739927)  vcan0  0C1EFEFE   [8]  61 62 52 67 EF 1B 50 04 :: ALTC(AltrntrStpntVltgCmmnd: 25.185000000000002 V, AltrntrExttnMxmmCrrntLmt: 20.5 A, AlternatorTorqueRampTimeCommand: 10.3 s, AltrntrTrqRmpMxmmSpdCmmnd: 7648 rpm)
 (1668656269.740451)  vcan0  18FE4CFE   [8]  04 BF 7F 39 21 51 92 70 :: ML(RearBlackOutMarkerSelect: 0, FrontBlackOutMarkerLampSelect: 1, ConvoyLampSelect: 0, ConvoyDrivingLampSelect: 0, BlackOutBrakeStopLampSelect: 1, NightVisionIlluminatorSelect: 1, BlackOutWorkLampSelect: 0, OprtrsBlkOtIntnstSltn: 44.800000000000004 %)
 (1668656270.740704)  vcan0  18FEBDFE   [8]  C1 73 E9 67 9A C5 80 20 :: FD1(EngineFan1EstimatedPercentSpeed: 77.2 %, FanDriveState: 3, FanSpeed: 3325.125 rpm, HydraulicFanMotorPressure: 25293.0 kPa, FanDriveBypassCommandStatus: 51.2 %)
 (1668656271.741186)  vcan0  18FE99FE   [8]  6B FE D8 7A 23 27 95 21 :: TCI3(EngnTrhrgr1CmprssrIntkPrssr: 258.8359375 kPa, EngnTrhrgr2CmprssrIntkPrssr: -4.3125 kPa, EngnTrhrgr3CmprssrIntkPrssr: -171.7265625 kPa, EngnTrhrgr4CmprssrIntkPrssr: -182.8359375 kPa)
 (1668656272.741471)  vcan0  0C1EFEFE   [8]  4B 0E 19 2A 5B B4 AC 24 :: ALTC(AltrntrStpntVltgCmmnd: 3.6590000000000003 V, AltrntrExttnMxmmCrrntLmt: 6.25 A, AlternatorTorqueRampTimeCommand: 4.2 s, AltrntrTrqRmpMxmmSpdCmmnd: 2912 rpm)
 (1668656273.741742)  vcan0  18FEBFFE   [8]  21 12 42 6F 18 D1 37 19 :: EBC2(FrontAxleSpeed: 18.12890625 km/h, RelativeSpeedFrontAxleLeftWheel: -3.6875 km/h, RltvSpdFrntAxlRghtWhl: -0.875 km/h, RelativeSpeedRearAxle1LeftWheel: -6.3125 km/h, RltvSpdRrAxl1RghtWhl: 5.25 km/h, RelativeSpeedRearAxle2LeftWheel: -4.375 km/h, RltvSpdRrAxl2RghtWhl: -6.25 km/h)
 (1668656274.741963)  vcan0  18FE4BFE   [8]  2D 38 91 3D DD 8D 6E 37 :: TCFG2(TransmissionTorqueLimit: 14381 Nm, TransmissionReferenceTorque: 15761 Nm, TrnsmssnCmmntnsFlrIdlTrqLmt: 96 %)
 (1668656275.742618)  vcan0  04F031FE   [8]  3B 8C 1D 46 7C 11 74 13 :: WAND(WandAngle: 7.798000000000002 deg, WandSensorFigureofMerit: 1)
 (1668656276.743225)  vcan0  0CD1FEFE   [8]  3B E6 25 1E 99 D8 CB 0E :: ASC6(LevelPresetFrontAxleLeft: 2693.9000000000005 mm, LevelPresetFrontAxleRight: -2428.3 mm, LevelPresetRearAxleLeft: 2344.9000000000005 mm, LevelPresetRearAxleRight: -2821.3 mm)
 (1668656277.743470)  vcan0  18FE4AFE   [8]  61 66 66 19 80 15 C2 15 :: ETC7(TrnsmssnCrrntRngDsplBlnkStt: 1, TransmissionServiceIndicator: 0, TrnsmssnRqstdRngDsplBlnkStt: 2, TrnsmssnRqstdRngDsplFlshStt: 1, TrnsmssnRdfrBrkRls: 2, ActiveShiftConsoleIndicator: 1, TransmissionEngineCrankEnable: 2, TrnsmssnShftInhtIndtr: 1, TransmissionMode4Indicator: 2, TransmissionMode3Indicator: 1, TransmissionMode2Indicator: 2, TransmissionMode1Indicator: 1, TrnsmssnRqstdGrFdk: -100 gear value, TransmissionMode5Indicator: 0, TransmissionMode6Indicator: 0, TransmissionMode7Indicator: 0, TransmissionMode8Indicator: 2, TrnsmssnRvrsGrShftInhtStts: 1, TransmissionWarningIndicator: 1, TransmissionMode9Indicator: 1, TransmissionMode10Indicator: 0, TrnsmssnArSpplPrssrIndtr: 2, TrnsmssnAtNtrlMnlRtrnStt: 0, TransmissionManualModeIndicator: 3)
 (1668656278.743700)  vcan0  18FE58FE   [8]  57 37 46 4E E1 77 14 7D :: ASC4(BellowPressureFrontAxleLeft: 1416.7 kPa, BellowPressureFrontAxleRight: 2003.8000000000002 kPa, BellowPressureRearAxleLeft: 3068.9 kPa, BellowPressureRearAxleRight: 3202.0 kPa)
 (1668656279.743982)  vcan0  18FE8DFE   [8]  54 B7 BA 55 E5 36 94 36 :: VEP2(BatteryPotentialPowerInput2: 2346.6 V, ECUPowerOutputSupplyVoltage1: 1097.3 V, ECUPowerOutputSupplyVoltage2: 702.6500000000001 V, ECUPowerOutputSupplyVoltage3: 698.6 V)
 (1668656280.744228)  vcan0  18FE94FE   [8]  61 36 F1 19 A7 AA 7D 1E :: EAC(EngineAuxiliaryCoolantPressure: 388 kPa, EngnAxlrClntTmprtr: 14 degC, SeaWaterPumpOutletPressure: 482 kPa, EngnClntPrssr1ExtnddRng: 100 kPa, EngnClntPrssr2ExtnddRng: 668 kPa, EngnClntPmpClntOtltPrssr: 340 kPa)
 (1668656281.744649)  vcan0  18FEC0FE   [8]  89 93 22 0F 12 A9 56 19 :: SERV(ServiceComponentIdentificationA: 137 ID, ServiceDistance: -116380 km, ServiceComponentIdentificationB: 15 ID, ServiceDelayCalendarTimeBased: -107 weeks, ServiceComponentIdentificationC: 169 ID, SrvDlOprtnlTmBsd: -25641 h)
 (1668656282.745001)  vcan0  18FEA6FE   [8]  ED E4 A4 31 5D B7 6F 43 :: IMT1(EngnTrhrgr1BstPrssr: 7325.625 kPa, EngnTrhrgr2BstPrssr: 1588.5 kPa, EngnTrhrgr3BstPrssr: 5867.625 kPa, EngnTrhrgr4BstPrssr: 2157.875 kPa)
 (1668656283.745170)  vcan0  18FEBDFE   [8]  C4 51 16 03 7E C9 B1 32 :: FD1(EngineFan1EstimatedPercentSpeed: 78.4 %, FanDriveState: 1, FanSpeed: 98.75 rpm, HydraulicFanMotorPressure: 25791.0 kPa, FanDriveBypassCommandStatus: 70.8 %)
 (1668656284.745403)  vcan0  0CF002FE   [8]  A7 E2 33 4F AB 01 43 70 :: ETC1(TransmissionDrivelineEngaged: 3, TrnsmssnTrqCnvrtrLkpEnggd: 1, TransmissionShiftInProcess: 2, TrnsmssnTrqCnvrtrLkpTrnstnnPrss: 2, Transmission1OutputShaftSpeed: 1660.25 rpm, PercentClutchSlip: 31.6 %, EngineMomentaryOverspeedEnable: 3, ProgressiveShiftDisable: 2, MmntrEngnMxmmPwrEnl: 2, Transmission1InputShaftSpeed: 2144.125 rpm, SAddssCtDvTsssCt: 112 SA)
 (1668656285.746072)  vcan0  18FE69FE   [8]  3C 4E 62 43 E6 8D 60 36 :: ET3(EngnIntkMnfld1TmprtrHghRsltn: 352.875 degC, EngnClntTmprtrHghRsltn: 266.0625 degC, EngnIntkVlvAttnSstmOlTmprtr: 862.1875 degC, EngnChrgArClr1OtltTmprtr: 162.0 degC)
 (1668656286.746360)  vcan0  18FE58FE   [8]  4C 5E F7 68 22 74 86 54 :: ASC4(BellowPressureFrontAxleLeft: 2414.0 kPa, BellowPressureFrontAxleRight: 2687.1000000000004 kPa, BellowPressureRearAxleLeft: 2973.0 kPa, BellowPressureRearAxleRight: 2163.8 kPa)
 (1668656289.673129)  vcan0  18FE68FE   [8]  84 73 E8 05 83 DA EC 6D :: VF(HydraulicTemperature: 92 degC, HdrlOlFltrRstrtnSwth: 3, WinchOilPressureSwitch: 0, HydraulicOilLevel: 92.80000000000001 %)
 (1668656288.748840)  vcan0  18FE98FE   [8]  29 D9 3C 40 DB 11 33 3C :: TCI4(EngnTrhrgr1TrnIntkTmprtr: 1464.28125 degC, EngnTrhrgr2TrnIntkTmprtr: 240.875 degC, EngnTrhrgr3TrnIntkTmprtr: -130.15625 degC, EngnTrhrgr4TrnIntkTmprtr: 208.59375 degC)
 (1668658372.810338)  vcan0  0C00FEFE   [8]  05 04 DF 16 85 8B 5F 56 :: TSC1(EngineOverrideControlMode: 1, EngnRqstdSpdCntrlCndtns: 1, OverrideControlModePriority: 0, EngineRequestedSpeedSpeedLimit: 7136.5 rpm, EngnRqstdTrqTrqLmt: -103 %, TSC1TransmissionRate: 5, TSC1ControlPurpose: 16, EngineRequestedTorqueFractional: 1.375 %, MessageCounter: 6 count, MessageChecksum: 5 count)
 (1668658373.810507)  vcan0  0CF015FE   [8]  83 6E C1 3F FE C8 94 7B :: RGTACRP(RqstdGnrtrTtlACRtvPwr: -930358653 VA, RqstdGnrtrOvrllPwrFtr: 2.1405029296875, RqstdGnrtrOvrllPwrFtrLggng: 0)
 (1668658374.810669)  vcan0  0CF014FE   [8]  DE EC 08 62 82 CF 90 1D :: BI(RelativeBladeHeight: 2863.8 mm, BladeRotationAngle: -3.9375 deg, RtvBdHtdBdRttAMstLt: 65.0 ms, RltvBldHghtFgrfMrt: 3, BladeRotationAngleFigureofMerit: 3)
 (1668658375.810830)  vcan0  18FE51FE   [8]  D9 17 11 4B 65 02 1F 63 :: ACC2(ACCusagedemand: 1, RequestedACCDistanceMode: 6)
 (1668658376.811087)  vcan0  08F02CFE   [8]  38 01 B5 42 EE F3 0E 24 :: MSI2(MagnetForwardCurrent: 312 A, MagnetReverseCurrent: 181 A, MaterialLiftSwitch: 2, MaterialDropSwitch: 0, GnrtrCrrntBstAtvStts: 0, MaterialLiftActiveStatus: 1, MaterialDropActiveStatus: 2, LiftRelayControl: 3, DropRelayControl: 2, MagnetGeneratorControl: 3)
 (1668658377.811364)  vcan0  0C99FEFE   [8]  FC 19 93 5B B4 A6 B7 36 :: JLCM(Joystick1Lamp1Command: 0, Joystick1Lamp2Command: 3, Joystick1Lamp3Command: 3, Joystick1Lamp4Command: 3, Joystick1Lamp5Command: 1, Joystick1Lamp6Command: 2, Joystick1Lamp7Command: 1, Joystick1Lamp8Command: 0, Joystick1Lamp9Command: 3, Joystick1Lamp10Command: 0, Joystick2Lamp1Command: 1, Joystick2Lamp2Command: 2, Joystick2Lamp3Command: 3, Joystick2Lamp4Command: 2, Joystick2Lamp5Command: 1, Joystick2Lamp6Command: 1, Joystick2Lamp7Command: 0, Joystick2Lamp8Command: 1, Joystick2Lamp9Command: 3, Joystick2Lamp10Command: 2, Joystick3Lamp1Command: 2, Joystick3Lamp2Command: 1, Joystick3Lamp3Command: 2, Joystick3Lamp4Command: 2, Joystick3Lamp5Command: 3, Joystick3Lamp6Command: 1, Joystick3Lamp7Command: 3, Joystick3Lamp8Command: 2, Joystick3Lamp9Command: 2, Joystick3Lamp10Command: 1)
 (1668658378.811576)  vcan0  18FEAEFE   [8]  B1 A0 15 38 FE 60 42 63 :: AIR1(PneumaticSupplyPressure: 1416 kPa, ParkingandorTrailerAirPressure: 1280 kPa, ServiceBrakeCircuit1AirPressure: 168 kPa, ServiceBrakeCircuit2AirPressure: 448 kPa, AxlrEqpmntSpplPrssr: 2032 kPa, AirSuspensionSupplyPressure: 768 kPa, AirCompressorStatus: 2, PwrtrnCrtArSpplPrssr: 792 kPa)
 (1668658379.812238)  vcan0  0C1CFEFE   [8]  CE 9A 30 46 B5 B4 C8 1F :: TC3(TransmissionOverrideControlMode: 2, TrnsmssnOvrrdCntrlMdPrrt: 3, MessageCounter: 12 count, TrnsmssnRqstdOtptShftSpd: -4921.25 rpm, TrnsmssnRqstdTrqTrqLmt: -55 %, MessageChecksum: 31 count)
 (1668658380.812963)  vcan0  04F031FE   [8]  E1 B3 75 75 C9 3E A6 4D :: WAND(WandAngle: 28.098 deg, WandSensorFigureofMerit: 1)
 (1668658381.813255)  vcan0  18FE96FE   [8]  95 E4 7C 30 7C 37 0C 30 :: TCW(EngnTrhrgrWstgtAttr1Pstn: 59.6 %, EngnTrhrgrWstgtAttr2Pstn: 91.2 %, EngnTrhrgrWstgtAttr3Pstn: 49.6 %, EngnTrhrgrWstgtAttr4Pstn: 19.200000000000003 %, EngnTrhrgrWstgtAttrCntrlArPrssr: 496 kPa, EngnTrhrgrWstgtAttr1DsrdPstn: 22.0 %, EngnTrhrgrWstgtAttr1PrlmnrFMI: 12 binary, EngnTrhrgrWstgtAttr1TmprtrStts: 0, EngnTrhrgrWstgtAttr2DsrdPstn: 19.200000000000003 %)
 (1668658382.813918)  vcan0  18FE6AFE   [8]  F1 A7 D4 2B 81 3B EB 46 :: EFS(EngineOilLevelRemoteReservoir: 96.4 %, EngnFlSpplPmpIntkAsltPrssr: 334 kPa, EngnFlFltrstnsdDffrntlPrssr: 424 kPa, EngineWasteOilReservoirLevel: 17.2 %, EngineOilFilterOutletPressure: 516 kPa, EngineOilPrimingPumpSwitch: 3, EngineOilPrimingState: 2, EngineOilPreHeatedState: 3, EngineCoolantPreheatedState: 0, EngineVentilationStatus: 3, FuelPumpPrimerStatus: 1, EngnFlSpplPmpIntkPrssr: 140 kPa)
 (1668658383.814289)  vcan0  18FE53FE   [8]  64 31 6C 12 04 AA AC 06 :: RTC1(LwLmtThrshldfrMxmmRPMfrmRtrdr: 3200 rpm, HLtTsdMCtsRPMRtd: 1568 rpm, LwLmtThrshldfrMxmmTrqfrmRtrdr: -17 %, HLtTsdMCtsTqRtd: -107 %, MaximumContinuousRetarderSpeed: 128 rpm, MinimumContinuousRetarderSpeed: 5440 rpm, MaximumContinuousRetarderTorque: 47 %, MinimumContinuousRetarderTorque: -119 %)
 (1668658384.815019)  vcan0  00F02BFE   [8]  11 A3 DF 6F E2 96 B5 68 :: CN(CrashType: 85 bit-mapped, CrashCounter: 8 count, CrashChecksum: 6 count)
 (1668658385.815785)  vcan0  18FE4EFE   [8]  20 32 1C 24 BB AE C6 33 :: DC1(Positionofdoors: 0, RampWheelChairLiftPosition: 2, Status2ofdoors: 0)
 (1668658386.816367)  vcan0  18FE9AFE   [8]  7D 45 01 1B F4 AF 7B 76 :: TCI2(EngnTrhrgr1CmprssrIntkTmprtr: 282.90625 degC, EngnTrhrgr2CmprssrIntkTmprtr: -56.96875 degC, EngnTrhrgr3CmprssrIntkTmprtr: 1134.625 degC, EngnTrhrgr4CmprssrIntkTmprtr: 674.84375 degC)
 (1668658389.728622)  vcan0  18FE94FE   [8]  77 E3 5E 78 F0 C9 0E 52 :: EAC(EngineAuxiliaryCoolantPressure: 476 kPa, EngnAxlrClntTmprtr: 187 degC, SeaWaterPumpOutletPressure: 188 kPa, EngnClntPrssr1ExtnddRng: 480 kPa, EngnClntPrssr2ExtnddRng: 960 kPa, EngnClntPmpClntOtltPrssr: 402 kPa)
 (1668658388.812591)  vcan0  0C00FEFE   [8]  18 AA ED 63 A1 6A 24 0A :: TSC1(EngineOverrideControlMode: 0, EngnRqstdSpdCntrlCndtns: 2, OverrideControlModePriority: 1, EngineRequestedSpeedSpeedLimit: 7605.25 rpm, EngnRqstdTrqTrqLmt: -26 %, TSC1TransmissionRate: 1, TSC1ControlPurpose: 20, EngineRequestedTorqueFractional: 1.25 %, MessageCounter: 10 count, MessageChecksum: 0 count)
 (1668658389.812888)  vcan0  0C00FEFE   [8]  EC C4 FB 20 6F 05 55 50 :: TSC1(EngineOverrideControlMode: 0, EngnRqstdSpdCntrlCndtns: 3, OverrideControlModePriority: 2, EngineRequestedSpeedSpeedLimit: 8056.5 rpm, EngnRqstdTrqTrqLmt: -93 %, TSC1TransmissionRate: 7, TSC1ControlPurpose: 13, EngineRequestedTorqueFractional: 0.625 %, MessageCounter: 0 count, MessageChecksum: 5 count)
 (1668658390.813522)  vcan0  0C01FEFE   [8]  C7 1C 11 64 50 B9 CA 45 :: TC1(TrnsmssnGrShftInhtRqst: 3, TrnsmssnTrqCnvrtrLkpRqst: 1, DisengageDrivelineRequest: 0, TrnsmssnRvrsGrShftInhtRqst: 3, RequestedPercentClutchSlip: 11.200000000000001 %, TransmissionRequestedGear: -108 gear value, DsnggDffrntlLkRqstFrntAxl1: 0, DsnggDffrntlLkRqstFrntAxl2: 1, DsnggDffrntlLkRqstRrAxl1: 2, DsnggDffrntlLkRqstRrAxl2: 1, DsnggDffrntlLkRqstCntrl: 0, DsnggDffrntlLkRqstCntrlFrnt: 0, DsnggDffrntlLkRqstCntrlRr: 1, TrnsmssnLdRdtnInhtRqst: 1, TransmissionMode1: 1, TransmissionMode2: 2, TransmissionMode3: 3, TransmissionMode4: 2, TrnsmssnAtNtrlMnlRtrnRqst: 2, TransmissionRequestedLaunchGear: 2, TrnsmssnShftSltrDsplMdSwth: 3, TransmissionMode5: 1, TransmissionMode6: 1, TransmissionMode7: 0, TransmissionMode8: 1)
 (1668658391.813960)  vcan0  08FE6EFE   [8]  5B 9E 70 59 E5 9D 47 76 :: HRW(FrontAxleLeftWheelSpeed: 158.35546875 km/h, Frontaxlerightwheelspeed: 89.4375 km/h, Rearaxleleftwheelspeed: 157.89453125 km/h, Rearaxlerightwheelspeed: 118.27734375 km/h)
 (1668658392.814275)  vcan0  0CD2FEFE   [8]  57 1C 6B 20 D6 45 1C 22 :: ASC2(Atmttrtnhlpldtrnsfr: 3, KneelingRequestLeftSide: 1, KneelingRequestRightSide: 1, KneelingControlModeRequest: 1, NominalLevelRequestFrontAxle: 12, NominalLevelRequestRearAxle: 1, LevelControlModeRequest: 11, LiftAxle1PositionCommand: 2, LiftAxle2PositionCommand: 1, DamperStiffnessRequestFrontAxle: 12.8 %, DamperStiffnessRequestRearAxle: 85.60000000000001 %, DmprStffnssRqstLftTgAxl: 27.6 %, KneelingCommandFrontAxle: 0, KneelingCommandRearAxle: 3, Prohibitairsuspensioncontrol: 1, AllwLvlCntrlDrngBrkngCmmnd: 0, SpdDpndntLvlCntrlRqst: 2, PrhtAtmtArSspnsnCntrl: 0, Memorylevelrequest: 2)
 (1668658393.814509)  vcan0  04F032FE   [8]  D9 25 C5 3D 3A 77 88 34 :: LDISP(MeasuredLinearDisplacement: 968.9000000000001 mm, LnrDsplmntSnsrSnsrFgrfMrt: 1)
 (1668658394.814844)  vcan0  0CF015FE   [8]  59 F8 B3 56 4C 1A 68 24 :: RGTACRP(RqstdGnrtrTtlACRtvPwr: -545364903 VA, RqstdGnrtrOvrllPwrFtr: -0.589111328125, RqstdGnrtrOvrllPwrFtrLggng: 0)
 (1668658395.815165)  vcan0  0CF018FE   [8]  5B 9A 33 0D 6C 4C 84 48 :: KL2(EngineCylinder9KnockLevel: 91 %, EngineCylinder10KnockLevel: 154 %, EngineCylinder11KnockLevel: 51 %, EngineCylinder12KnockLevel: 13 %, EngineCylinder13KnockLevel: 108 %, EngineCylinder14KnockLevel: 76 %, EngineCylinder15KnockLevel: 132 %, EngineCylinder16KnockLevel: 72 %)
 (1668658372.810338)  vcan0  0C00FEFE   [8]  05 04 DF 16 85 8B 5F 56 :: TSC1(EngineOverrideControlMode: 1, EngnRqstdSpdCntrlCndtns: 1, OverrideControlModePriority: 0, EngineRequestedSpeedSpeedLimit: 7136.5 rpm, EngnRqstdTrqTrqLmt: -103 %, TSC1TransmissionRate: 5, TSC1ControlPurpose: 16, EngineRequestedTorqueFractional: 1.375 %, MessageCounter: 6 count, MessageChecksum: 5 count)
 (1668658373.810507)  vcan0  0CF015FE   [8]  83 6E C1 3F FE C8 94 7B :: RGTACRP(RqstdGnrtrTtlACRtvPwr: -930358653 VA, RqstdGnrtrOvrllPwrFtr: 2.1405029296875, RqstdGnrtrOvrllPwrFtrLggng: 0)
 (1668658374.810669)  vcan0  0CF014FE   [8]  DE EC 08 62 82 CF 90 1D :: BI(RelativeBladeHeight: 2863.8 mm, BladeRotationAngle: -3.9375 deg, RtvBdHtdBdRttAMstLt: 65.0 ms, RltvBldHghtFgrfMrt: 3, BladeRotationAngleFigureofMerit: 3)
 (1668658375.810830)  vcan0  18FE51FE   [8]  D9 17 11 4B 65 02 1F 63 :: ACC2(ACCusagedemand: 1, RequestedACCDistanceMode: 6)
 (1668658376.811087)  vcan0  08F02CFE   [8]  38 01 B5 42 EE F3 0E 24 :: MSI2(MagnetForwardCurrent: 312 A, MagnetReverseCurrent: 181 A, MaterialLiftSwitch: 2, MaterialDropSwitch: 0, GnrtrCrrntBstAtvStts: 0, MaterialLiftActiveStatus: 1, MaterialDropActiveStatus: 2, LiftRelayControl: 3, DropRelayControl: 2, MagnetGeneratorControl: 3)
 (1668658377.811364)  vcan0  0C99FEFE   [8]  FC 19 93 5B B4 A6 B7 36 :: JLCM(Joystick1Lamp1Command: 0, Joystick1Lamp2Command: 3, Joystick1Lamp3Command: 3, Joystick1Lamp4Command: 3, Joystick1Lamp5Command: 1, Joystick1Lamp6Command: 2, Joystick1Lamp7Command: 1, Joystick1Lamp8Command: 0, Joystick1Lamp9Command: 3, Joystick1Lamp10Command: 0, Joystick2Lamp1Command: 1, Joystick2Lamp2Command: 2, Joystick2Lamp3Command: 3, Joystick2Lamp4Command: 2, Joystick2Lamp5Command: 1, Joystick2Lamp6Command: 1, Joystick2Lamp7Command: 0, Joystick2Lamp8Command: 1, Joystick2Lamp9Command: 3, Joystick2Lamp10Command: 2, Joystick3Lamp1Command: 2, Joystick3Lamp2Command: 1, Joystick3Lamp3Command: 2, Joystick3Lamp4Command: 2, Joystick3Lamp5Command: 3, Joystick3Lamp6Command: 1, Joystick3Lamp7Command: 3, Joystick3Lamp8Command: 2, Joystick3Lamp9Command: 2, Joystick3Lamp10Command: 1)
 (1668658378.811576)  vcan0  18FEAEFE   [8]  B1 A0 15 38 FE 60 42 63 :: AIR1(PneumaticSupplyPressure: 1416 kPa, ParkingandorTrailerAirPressure: 1280 kPa, ServiceBrakeCircuit1AirPressure: 168 kPa, ServiceBrakeCircuit2AirPressure: 448 kPa, AxlrEqpmntSpplPrssr: 2032 kPa, AirSuspensionSupplyPressure: 768 kPa, AirCompressorStatus: 2, PwrtrnCrtArSpplPrssr: 792 kPa)
 (1668658379.812238)  vcan0  0C1CFEFE   [8]  CE 9A 30 46 B5 B4 C8 1F :: TC3(TransmissionOverrideControlMode: 2, TrnsmssnOvrrdCntrlMdPrrt: 3, MessageCounter: 12 count, TrnsmssnRqstdOtptShftSpd: -4921.25 rpm, TrnsmssnRqstdTrqTrqLmt: -55 %, MessageChecksum: 31 count)
 (1668658380.812963)  vcan0  04F031FE   [8]  E1 B3 75 75 C9 3E A6 4D :: WAND(WandAngle: 28.098 deg, WandSensorFigureofMerit: 1)
 (1668658381.813255)  vcan0  18FE96FE   [8]  95 E4 7C 30 7C 37 0C 30 :: TCW(EngnTrhrgrWstgtAttr1Pstn: 59.6 %, EngnTrhrgrWstgtAttr2Pstn: 91.2 %, EngnTrhrgrWstgtAttr3Pstn: 49.6 %, EngnTrhrgrWstgtAttr4Pstn: 19.200000000000003 %, EngnTrhrgrWstgtAttrCntrlArPrssr: 496 kPa, EngnTrhrgrWstgtAttr1DsrdPstn: 22.0 %, EngnTrhrgrWstgtAttr1PrlmnrFMI: 12 binary, EngnTrhrgrWstgtAttr1TmprtrStts: 0, EngnTrhrgrWstgtAttr2DsrdPstn: 19.200000000000003 %)
