 (1667769184.123221)  vcan0  18FE58FE   [8]  FA 8E C8 11 6D 35 B6 66 :: ASC4(BellowPressureFrontAxleLeft: 3660.2000000000003 kPa, BellowPressureFrontAxleRight: 455.20000000000005 kPa, BellowPressureRearAxleLeft: 1367.7 kPa, BellowPressureRearAxleRight: 2629.4 kPa)
 (1667769185.123929)  vcan0  08F062FE   [8]  D3 33 DD 5A 97 5D E7 6A :: ETC12(TrnsmssnHdrsttLp1Prssr: 13267 kPa, TrnsmssnHdrsttLp2Prssr: 23261 kPa, TrnsmssnDrtnlOtptShftSpd: -8168 rpm, TrnsmssnIntrmdtShftSpd: 3420.875 rpm)
 (1667769186.124287)  vcan0  18FEAEFE   [8]  AF FD B9 36 86 15 D3 32 :: AIR1(PneumaticSupplyPressure: 1400 kPa, ParkingandorTrailerAirPressure: 2024 kPa, ServiceBrakeCircuit1AirPressure: 1480 kPa, ServiceBrakeCircuit2AirPressure: 432 kPa, AxlrEqpmntSpplPrssr: 1072 kPa, AirSuspensionSupplyPressure: 168 kPa, AirCompressorStatus: 3, PwrtrnCrtArSpplPrssr: 400 kPa)
 (1667769187.124771)  vcan0  18FE9CFE   [8]  3B 52 DD 45 04 BA 89 38 :: MBT3(EngineMainBearing9Temperature: 384.84375 degC, EngineMainBearing10Temperature: 285.90625 degC, EngineMainBearing11Temperature: 1215.125 degC, EngineMainBearing12Temperature: 179.28125 degC)
 (1667769188.125088)  vcan0  0C1CFEFE   [8]  27 05 1B 50 57 7E B0 2E :: TC3(TransmissionOverrideControlMode: 3, TrnsmssnOvrrdCntrlMdPrrt: 1, MessageCounter: 2 count, TrnsmssnRqstdOtptShftSpd: -6302.5 rpm, TrnsmssnRqstdTrqTrqLmt: -45 %, MessageChecksum: 46 count)
 (1667769189.125489)  vcan0  08F02CFE   [8]  6F E1 06 13 42 87 8F 64 :: MSI2(MagnetForwardCurrent: 57711 A, MagnetReverseCurrent: 6 A, MaterialLiftSwitch: 3, MaterialDropSwitch: 0, GnrtrCrrntBstAtvStts: 1, MaterialLiftActiveStatus: 0, MaterialDropActiveStatus: 2, LiftRelayControl: 0, DropRelayControl: 0, MagnetGeneratorControl: 1)
 (1667769190.125643)  vcan0  04F031FE   [8]  D1 21 DB 17 14 3A 3B 33 :: WAND(WandAngle: -46.686 deg, WandSensorFigureofMerit: 3)
 (1667769191.126258)  vcan0  0C1BFEFE   [8]  D9 51 99 1B 61 F5 1A 7A :: HVES1C1(HVES1HghVltgBsCnntCmmnd: 1, HVES1PowerDownCommand: 2, HVES1HghVltgBsAtvIsltnTstCmmnd: 1, HVES1HghVltgBsPssvIsltnTstCmmnd: 3, HVES1CellBalancingCommand: 1, HVES1EnlIntrnlChrgrCmmnd: 0, HVES1OperationConsent: 1, HVES1HVtBsHSdRsstCtRqst: 1, HVES1HghVltgBsLwSdRsstrCnntRqst: 1)
 (1667769192.126533)  vcan0  08F110FE   [8]  9B B8 C3 2E 6C 63 80 74 :: B2(DmnddBrkAppltnPrssr: 4725.900000000001 kPa, BrakePedalSwitch2: 3)
 (1667769193.126773)  vcan0  18FE4EFE   [8]  A3 B3 BE 18 7E 56 F7 0D :: DC1(Positionofdoors: 3, RampWheelChairLiftPosition: 2, Status2ofdoors: 2)
 (1667769194.126972)  vcan0  0C08FEFE   [8]  41 7E 9A 34 78 E5 BF 1F :: AUXIO5(AuxiliaryIOChannel6: 32321 count, AuxiliaryIOChannel5: 13466 count, AuxiliaryIOChannel4: 58744 count, AuxiliaryIOChannel3: 8127 count)
 (1667769195.127299)  vcan0  18FEADFE   [8]  97 DE 34 2D 4B 19 9D 7A :: EBC3(BApptPssHRFtAxLtW: 755 kPa, BApptPssHRFtAxRtW: 1110 kPa, BApptPssHRRAx1LtW: 260 kPa, BApptPssHRRAx1RtW: 225 kPa, BApptPssHRRAx2LtW: 375 kPa, BApptPssHRRAx2RtW: 125 kPa, BApptPssHRRAx3LtW: 785 kPa, BApptPssHRRAx3RtW: 610 kPa)
 (1667769196.127765)  vcan0  0C0DFEFE   [8]  10 B8 77 54 FB 16 57 31 :: TC2(TransmissionMode9: 0, TransmissionMode10: 0)
 (1667769197.128145)  vcan0  18FE6BFE   [8]  E2 6D D1 02 36 69 34 77 :: DI(Driver1identification: 226 ASCII, Driver2identification: 109 ASCII)
 (1667769198.128609)  vcan0  18FE53FE   [8]  33 AB 83 64 5D 6E 4F 47 :: RTC1(LwLmtThrshldfrMxmmRPMfrmRtrdr: 1632 rpm, HLtTsdMCtsRPMRtd: 5472 rpm, LwLmtThrshldfrMxmmTrqfrmRtrdr: 6 %, HLtTsdMCtsTqRtd: -25 %, MaximumContinuousRetarderSpeed: 2976 rpm, MinimumContinuousRetarderSpeed: 3520 rpm, MaximumContinuousRetarderTorque: -46 %, MinimumContinuousRetarderTorque: -54 %)
 (1667769199.129189)  vcan0  0C1DFEFE   [8]  26 CD F5 1E CC 4F 56 5A :: EIC(EngineTimingAdvance: 210.296875 deg)
 (1667769200.129642)  vcan0  08F02DFE   [8]  A7 20 E6 07 9D 71 31 72 :: ACCS(LtrlAlrtnExtnddRng: -236.41 m/(s*s), LngtdnlAlrtnExtnddRng: -299.78 m/(s*s), VrtlAlrtnExtnddRng: -29.149999999999977 m/(s*s), LtrlAlrtnFgrfMrtExtnddRng: 1, LngtdnlAlrtnFgrfMrtExtnddRng: 0, VrtlAlrtnFgrfMrtExtnddRng: 3, SpptVTsssRpttRtAtSs: 0)
 (1667769201.130243)  vcan0  0CF004FE   [8]  88 DF 9D 20 76 C3 CA 0D :: EEC1(EngineTorqueMode: 8, AtlEngnPrntTrqFrtnl: 1.0 %, DrvrsDmndEngnPrntTrq: 98 %, ActualEnginePercentTorque: 32 %, EngineSpeed: 3780.0 rpm, SrAddrssfCntrllngDvfrEngnCntrl: 195 SA, EngineStarterMode: 10, EngineDemandPercentTorque: -112 %)
 (1667769202.130660)  vcan0  18FE53FE   [8]  1E E6 AE 55 11 7C 8E 3C :: RTC1(LwLmtThrshldfrMxmmRPMfrmRtrdr: 960 rpm, HLtTsdMCtsRPMRtd: 7360 rpm, LwLmtThrshldfrMxmmTrqfrmRtrdr: 49 %, HLtTsdMCtsTqRtd: -40 %, MaximumContinuousRetarderSpeed: 544 rpm, MinimumContinuousRetarderSpeed: 3968 rpm, MaximumContinuousRetarderTorque: 17 %, MinimumContinuousRetarderTorque: -65 %)
 (1667769203.131253)  vcan0  18FE50FE   [8]  F3 2A 38 2F B5 2F 4D 55 :: BT1(SLIBattery1Temperature: 203 degC, SLIBattery2Temperature: 2 degC, SLIBattery3Temperature: 16 degC, SLIBattery4Temperature: 7 degC)
 (1667769204.131799)  vcan0  18FE6AFE   [8]  9E E3 F2 34 F6 AD E7 09 :: EFS(EngineOilLevelRemoteReservoir: 63.2 %, EngnFlSpplPmpIntkAsltPrssr: 454 kPa, EngnFlFltrstnsdDffrntlPrssr: 484 kPa, EngineWasteOilReservoirLevel: 20.8 %, EngineOilFilterOutletPressure: 984 kPa, EngineOilPrimingPumpSwitch: 1, EngineOilPrimingState: 3, EngineOilPreHeatedState: 2, EngineCoolantPreheatedState: 2, EngineVentilationStatus: 7, FuelPumpPrimerStatus: 0, EngnFlSpplPmpIntkPrssr: 18 kPa)
 (1667769205.132411)  vcan0  0CF013FE   [8]  B7 D1 63 21 8D 8C 1C 37 :: SSI(PitchAngle: 43.373999999999995 deg, RollAngle: -46.906 deg, PitchRate: 7.962000000000003 deg/s, PitchAngleFigureofMerit: 0, RollAngleFigureofMerit: 3, PitchRateFigureofMerit: 1, PitchandRollCompensated: 0, RollandPitchMeasurementLatency: 27.5 ms)
 (1667769206.132951)  vcan0  18FE52FE   [8]  66 1D BC 78 9D 44 94 0B :: VEP3(AltrntrCrrntHghRngRsltn: -1223.7 A, SLIBttr1NtCrrntHghRngRsltn: -54.59999999999991 A, SLIBattery2NetCurrent: -721.75 A)
 (1667769207.133278)  vcan0  0C99FEFE   [8]  9C 7E E7 02 7F B2 65 0E :: JLCM(Joystick1Lamp1Command: 0, Joystick1Lamp2Command: 3, Joystick1Lamp3Command: 1, Joystick1Lamp4Command: 2, Joystick1Lamp5Command: 2, Joystick1Lamp6Command: 3, Joystick1Lamp7Command: 3, Joystick1Lamp8Command: 1, Joystick1Lamp9Command: 3, Joystick1Lamp10Command: 1, Joystick2Lamp1Command: 2, Joystick2Lamp2Command: 3, Joystick2Lamp3Command: 2, Joystick2Lamp4Command: 0, Joystick2Lamp5Command: 0, Joystick2Lamp6Command: 0, Joystick2Lamp7Command: 3, Joystick2Lamp8Command: 3, Joystick2Lamp9Command: 3, Joystick2Lamp10Command: 1, Joystick3Lamp1Command: 2, Joystick3Lamp2Command: 0, Joystick3Lamp3Command: 3, Joystick3Lamp4Command: 2, Joystick3Lamp5Command: 1, Joystick3Lamp6Command: 1, Joystick3Lamp7Command: 2, Joystick3Lamp8Command: 1, Joystick3Lamp9Command: 2, Joystick3Lamp10Command: 3)
 (1667769208.133685)  vcan0  18FE53FE   [8]  D7 99 9C 45 B3 5D E9 72 :: RTC1(LwLmtThrshldfrMxmmRPMfrmRtrdr: 6880 rpm, HLtTsdMCtsRPMRtd: 4896 rpm, LwLmtThrshldfrMxmmTrqfrmRtrdr: 31 %, HLtTsdMCtsTqRtd: -56 %, MaximumContinuousRetarderSpeed: 5728 rpm, MinimumContinuousRetarderSpeed: 2976 rpm, MaximumContinuousRetarderTorque: 108 %, MinimumContinuousRetarderTorque: -11 %)
 (1667769209.134078)  vcan0  08FE6EFE   [8]  69 33 02 37 D9 2A DF 11 :: HRW(FrontAxleLeftWheelSpeed: 51.41015625 km/h, Frontaxlerightwheelspeed: 55.0078125 km/h, Rearaxleleftwheelspeed: 42.84765625 km/h, Rearaxlerightwheelspeed: 17.87109375 km/h)
 (1667769210.134684)  vcan0  18FE68FE   [8]  3D 54 F7 0C 81 4B C5 19 :: VF(HydraulicTemperature: 21 degC, HdrlOlFltrRstrtnSwth: 0, WinchOilPressureSwitch: 1, HydraulicOilLevel: 98.80000000000001 %)
 (1667769211.135202)  vcan0  0C1BFEFE   [8]  26 AF 27 16 09 2B 63 3A :: HVES1C1(HVES1HghVltgBsCnntCmmnd: 2, HVES1PowerDownCommand: 1, HVES1HghVltgBsAtvIsltnTstCmmnd: 2, HVES1HghVltgBsPssvIsltnTstCmmnd: 0, HVES1CellBalancingCommand: 3, HVES1EnlIntrnlChrgrCmmnd: 3, HVES1OperationConsent: 2, HVES1HVtBsHSdRsstCtRqst: 2, HVES1HghVltgBsLwSdRsstrCnntRqst: 3)
 (1667769184.123221)  vcan0  18FE58FE   [8]  FA 8E C8 11 6D 35 B6 66 :: ASC4(BellowPressureFrontAxleLeft: 3660.2000000000003 kPa, BellowPressureFrontAxleRight: 455.20000000000005 kPa, BellowPressureRearAxleLeft: 1367.7 kPa, BellowPressureRearAxleRight: 2629.4 kPa)
 (1667769185.123929)  vcan0  08F062FE   [8]  D3 33 DD 5A 97 5D E7 6A :: ETC12(TrnsmssnHdrsttLp1Prssr: 13267 kPa, TrnsmssnHdrsttLp2Prssr: 23261 kPa, TrnsmssnDrtnlOtptShftSpd: -8168 rpm, TrnsmssnIntrmdtShftSpd: 3420.875 rpm)
 (1667769186.124287)  vcan0  18FEAEFE   [8]  AF FD B9 36 86 15 D3 32 :: AIR1(PneumaticSupplyPressure: 1400 kPa, ParkingandorTrailerAirPressure: 2024 kPa, ServiceBrakeCircuit1AirPressure: 1480 kPa, ServiceBrakeCircuit2AirPressure: 432 kPa, AxlrEqpmntSpplPrssr: 1072 kPa, AirSuspensionSupplyPressure: 168 kPa, AirCompressorStatus: 3, PwrtrnCrtArSpplPrssr: 400 kPa)
 (1667769187.124771)  vcan0  18FE9CFE   [8]  3B 52 DD 45 04 BA 89 38 :: MBT3(EngineMainBearing9Temperature: 384.84375 degC, EngineMainBearing10Temperature: 285.90625 degC, EngineMainBearing11Temperature: 1215.125 degC, EngineMainBearing12Temperature: 179.28125 degC)
 (1667769188.125088)  vcan0  0C1CFEFE   [8]  27 05 1B 50 57 7E B0 2E :: TC3(TransmissionOverrideControlMode: 3, TrnsmssnOvrrdCntrlMdPrrt: 1, MessageCounter: 2 count, TrnsmssnRqstdOtptShftSpd: -6302.5 rpm, TrnsmssnRqstdTrqTrqLmt: -45 %, MessageChecksum: 46 count)
 (1667769189.125489)  vcan0  08F02CFE   [8]  6F E1 06 13 42 87 8F 64 :: MSI2(MagnetForwardCurrent: 57711 A, MagnetReverseCurrent: 6 A, MaterialLiftSwitch: 3, MaterialDropSwitch: 0, GnrtrCrrntBstAtvStts: 1, MaterialLiftActiveStatus: 0, MaterialDropActiveStatus: 2, LiftRelayControl: 0, DropRelayControl: 0, MagnetGeneratorControl: 1)
 (1667769190.125643)  vcan0  04F031FE   [8]  D1 21 DB 17 14 3A 3B 33 :: WAND(WandAngle: -46.686 deg, WandSensorFigureofMerit: 3)
 (1667769191.126258)  vcan0  0C1BFEFE   [8]  D9 51 99 1B 61 F5 1A 7A :: HVES1C1(HVES1HghVltgBsCnntCmmnd: 1, HVES1PowerDownCommand: 2, HVES1HghVltgBsAtvIsltnTstCmmnd: 1, HVES1HghVltgBsPssvIsltnTstCmmnd: 3, HVES1CellBalancingCommand: 1, HVES1EnlIntrnlChrgrCmmnd: 0, HVES1OperationConsent: 1, HVES1HVtBsHSdRsstCtRqst: 1, HVES1HghVltgBsLwSdRsstrCnntRqst: 1)
 (1667769192.126533)  vcan0  08F110FE   [8]  9B B8 C3 2E 6C 63 80 74 :: B2(DmnddBrkAppltnPrssr: 4725.900000000001 kPa, BrakePedalSwitch2: 3)
 (1667769193.126773)  vcan0  18FE4EFE   [8]  A3 B3 BE 18 7E 56 F7 0D :: DC1(Positionofdoors: 3, RampWheelChairLiftPosition: 2, Status2ofdoors: 2)
 (1667769194.126972)  vcan0  0C08FEFE   [8]  41 7E 9A 34 78 E5 BF 1F :: AUXIO5(AuxiliaryIOChannel6: 32321 count, AuxiliaryIOChannel5: 13466 count, AuxiliaryIOChannel4: 58744 count, AuxiliaryIOChannel3: 8127 count)
 (1667769195.127299)  vcan0  18FEADFE   [8]  97 DE 34 2D 4B 19 9D 7A :: EBC3(BApptPssHRFtAxLtW: 755 kPa, BApptPssHRFtAxRtW: 1110 kPa, BApptPssHRRAx1LtW: 260 kPa, BApptPssHRRAx1RtW: 225 kPa, BApptPssHRRAx2LtW: 375 kPa, BApptPssHRRAx2RtW: 125 kPa, BApptPssHRRAx3LtW: 785 kPa, BApptPssHRRAx3RtW: 610 kPa)
 (1667769196.127765)  vcan0  0C0DFEFE   [8]  10 B8 77 54 FB 16 57 31 :: TC2(TransmissionMode9: 0, TransmissionMode10: 0)
 (1667769197.128145)  vcan0  18FE6BFE   [8]  E2 6D D1 02 36 69 34 77 :: DI(Driver1identification: 226 ASCII, Driver2identification: 109 ASCII)
 (1667769198.128609)  vcan0  18FE53FE   [8]  33 AB 83 64 5D 6E 4F 47 :: RTC1(LwLmtThrshldfrMxmmRPMfrmRtrdr: 1632 rpm, HLtTsdMCtsRPMRtd: 5472 rpm, LwLmtThrshldfrMxmmTrqfrmRtrdr: 6 %, HLtTsdMCtsTqRtd: -25 %, MaximumContinuousRetarderSpeed: 2976 rpm, MinimumContinuousRetarderSpeed: 3520 rpm, MaximumContinuousRetarderTorque: -46 %, MinimumContinuousRetarderTorque: -54 %)
 (1667769199.129189)  vcan0  0C1DFEFE   [8]  26 CD F5 1E CC 4F 56 5A :: EIC(EngineTimingAdvance: 210.296875 deg)
 (1667769200.129642)  vcan0  08F02DFE   [8]  A7 20 E6 07 9D 71 31 72 :: ACCS(LtrlAlrtnExtnddRng: -236.41 m/(s*s), LngtdnlAlrtnExtnddRng: -299.78 m/(s*s), VrtlAlrtnExtnddRng: -29.149999999999977 m/(s*s), LtrlAlrtnFgrfMrtExtnddRng: 1, LngtdnlAlrtnFgrfMrtExtnddRng: 0, VrtlAlrtnFgrfMrtExtnddRng: 3, SpptVTsssRpttRtAtSs: 0)
 (1667769201.130243)  vcan0  0CF004FE   [8]  88 DF 9D 20 76 C3 CA 0D :: EEC1(EngineTorqueMode: 8, AtlEngnPrntTrqFrtnl: 1.0 %, DrvrsDmndEngnPrntTrq: 98 %, ActualEnginePercentTorque: 32 %, EngineSpeed: 3780.0 rpm, SrAddrssfCntrllngDvfrEngnCntrl: 195 SA, EngineStarterMode: 10, EngineDemandPercentTorque: -112 %)
 (1667769202.130660)  vcan0  18FE53FE   [8]  1E E6 AE 55 11 7C 8E 3C :: RTC1(LwLmtThrshldfrMxmmRPMfrmRtrdr: 960 rpm, HLtTsdMCtsRPMRtd: 7360 rpm, LwLmtThrshldfrMxmmTrqfrmRtrdr: 49 %, HLtTsdMCtsTqRtd: -40 %, MaximumContinuousRetarderSpeed: 544 rpm, MinimumContinuousRetarderSpeed: 3968 rpm, MaximumContinuousRetarderTorque: 17 %, MinimumContinuousRetarderTorque: -65 %)
 (1667769203.131253)  vcan0  18FE50FE   [8]  F3 2A 38 2F B5 2F 4D 55 :: BT1(SLIBattery1Temperature: 203 degC, SLIBattery2Temperature: 2 degC, SLIBattery3Temperature: 16 degC, SLIBattery4Temperature: 7 degC)
 (1667769204.131799)  vcan0  18FE6AFE   [8]  9E E3 F2 34 F6 AD E7 09 :: EFS(EngineOilLevelRemoteReservoir: 63.2 %, EngnFlSpplPmpIntkAsltPrssr: 454 kPa, EngnFlFltrstnsdDffrntlPrssr: 484 kPa, EngineWasteOilReservoirLevel: 20.8 %, EngineOilFilterOutletPressure: 984 kPa, EngineOilPrimingPumpSwitch: 1, EngineOilPrimingState: 3, EngineOilPreHeatedState: 2, EngineCoolantPreheatedState: 2, EngineVentilationStatus: 7, FuelPumpPrimerStatus: 0, EngnFlSpplPmpIntkPrssr: 18 kPa)
 (1667769205.132411)  vcan0  0CF013FE   [8]  B7 D1 63 21 8D 8C 1C 37 :: SSI(PitchAngle: 43.373999999999995 deg, RollAngle: -46.906 deg, PitchRate: 7.962000000000003 deg/s, PitchAngleFigureofMerit: 0, RollAngleFigureofMerit: 3, PitchRateFigureofMerit: 1, PitchandRollCompensated: 0, RollandPitchMeasurementLatency: 27.5 ms)
 (1667769206.132951)  vcan0  18FE52FE   [8]  66 1D BC 78 9D 44 94 0B :: VEP3(AltrntrCrrntHghRngRsltn: -1223.7 A, SLIBttr1NtCrrntHghRngRsltn: -54.59999999999991 A, SLIBattery2NetCurrent: -721.75 A)
 (1667769207.133278)  vcan0  0C99FEFE   [8]  9C 7E E7 02 7F B2 65 0E :: JLCM(Joystick1Lamp1Command: 0, Joystick1Lamp2Command: 3, Joystick1Lamp3Command: 1, Joystick1Lamp4Command: 2, Joystick1Lamp5Command: 2, Joystick1Lamp6Command: 3, Joystick1Lamp7Command: 3, Joystick1Lamp8Command: 1, Joystick1Lamp9Command: 3, Joystick1Lamp10Command: 1, Joystick2Lamp1Command: 2, Joystick2Lamp2Command: 3, Joystick2Lamp3Command: 2, Joystick2Lamp4Command: 0, Joystick2Lamp5Command: 0, Joystick2Lamp6Command: 0, Joystick2Lamp7Command: 3, Joystick2Lamp8Command: 3, Joystick2Lamp9Command: 3, Joystick2Lamp10Command: 1, Joystick3Lamp1Command: 2, Joystick3Lamp2Command: 0, Joystick3Lamp3Command: 3, Joystick3Lamp4Command: 2, Joystick3Lamp5Command: 1, Joystick3Lamp6Command: 1, Joystick3Lamp7Command: 2, Joystick3Lamp8Command: 1, Joystick3Lamp9Command: 2, Joystick3Lamp10Command: 3)
 (1667769208.133685)  vcan0  18FE53FE   [8]  D7 99 9C 45 B3 5D E9 72 :: RTC1(LwLmtThrshldfrMxmmRPMfrmRtrdr: 6880 rpm, HLtTsdMCtsRPMRtd: 4896 rpm, LwLmtThrshldfrMxmmTrqfrmRtrdr: 31 %, HLtTsdMCtsTqRtd: -56 %, MaximumContinuousRetarderSpeed: 5728 rpm, MinimumContinuousRetarderSpeed: 2976 rpm, MaximumContinuousRetarderTorque: 108 %, MinimumContinuousRetarderTorque: -11 %)
 (1667769209.134078)  vcan0  08FE6EFE   [8]  69 33 02 37 D9 2A DF 11 :: HRW(FrontAxleLeftWheelSpeed: 51.41015625 km/h, Frontaxlerightwheelspeed: 55.0078125 km/h, Rearaxleleftwheelspeed: 42.84765625 km/h, Rearaxlerightwheelspeed: 17.87109375 km/h)
 (1667769210.134684)  vcan0  18FE68FE   [8]  3D 54 F7 0C 81 4B C5 19 :: VF(HydraulicTemperature: 21 degC, HdrlOlFltrRstrtnSwth: 0, WinchOilPressureSwitch: 1, HydraulicOilLevel: 98.80000000000001 %)
 (1667769211.135202)  vcan0  0C1BFEFE   [8]  26 AF 27 16 09 2B 63 3A :: HVES1C1(HVES1HghVltgBsCnntCmmnd: 2, HVES1PowerDownCommand: 1, HVES1HghVltgBsAtvIsltnTstCmmnd: 2, HVES1HghVltgBsPssvIsltnTstCmmnd: 0, HVES1CellBalancingCommand: 3, HVES1EnlIntrnlChrgrCmmnd: 3, HVES1OperationConsent: 2, HVES1HVtBsHSdRsstCtRqst: 2, HVES1HghVltgBsLwSdRsstrCnntRqst: 3)
 (1667769184.123221)  vcan0  18FE58FE   [8]  FA 8E C8 11 6D 35 B6 66 :: ASC4(BellowPressureFrontAxleLeft: 3660.2000000000003 kPa, BellowPressureFrontAxleRight: 455.20000000000005 kPa, BellowPressureRearAxleLeft: 1367.7 kPa, BellowPressureRearAxleRight: 2629.4 kPa)
 (1667769185.123929)  vcan0  08F062FE   [8]  D3 33 DD 5A 97 5D E7 6A :: ETC12(TrnsmssnHdrsttLp1Prssr: 13267 kPa, TrnsmssnHdrsttLp2Prssr: 23261 kPa, TrnsmssnDrtnlOtptShftSpd: -8168 rpm, TrnsmssnIntrmdtShftSpd: 3420.875 rpm)
 (1667769186.124287)  vcan0  18FEAEFE   [8]  AF FD B9 36 86 15 D3 32 :: AIR1(PneumaticSupplyPressure: 1400 kPa, ParkingandorTrailerAirPressure: 2024 kPa, ServiceBrakeCircuit1AirPressure: 1480 kPa, ServiceBrakeCircuit2AirPressure: 432 kPa, AxlrEqpmntSpplPrssr: 1072 kPa, AirSuspensionSupplyPressure: 168 kPa, AirCompressorStatus: 3, PwrtrnCrtArSpplPrssr: 400 kPa)
 (1667769187.124771)  vcan0  18FE9CFE   [8]  3B 52 DD 45 04 BA 89 38 :: MBT3(EngineMainBearing9Temperature: 384.84375 degC, EngineMainBearing10Temperature: 285.90625 degC, EngineMainBearing11Temperature: 1215.125 degC, EngineMainBearing12Temperature: 179.28125 degC)
 (1667769188.125088)  vcan0  0C1CFEFE   [8]  27 05 1B 50 57 7E B0 2E :: TC3(TransmissionOverrideControlMode: 3, TrnsmssnOvrrdCntrlMdPrrt: 1, MessageCounter: 2 count, TrnsmssnRqstdOtptShftSpd: -6302.5 rpm, TrnsmssnRqstdTrqTrqLmt: -45 %, MessageChecksum: 46 count)
 (1667769189.125489)  vcan0  08F02CFE   [8]  6F E1 06 13 42 87 8F 64 :: MSI2(MagnetForwardCurrent: 57711 A, MagnetReverseCurrent: 6 A, MaterialLiftSwitch: 3, MaterialDropSwitch: 0, GnrtrCrrntBstAtvStts: 1, MaterialLiftActiveStatus: 0, MaterialDropActiveStatus: 2, LiftRelayControl: 0, DropRelayControl: 0, MagnetGeneratorControl: 1)
 (1667769190.125643)  vcan0  04F031FE   [8]  D1 21 DB 17 14 3A 3B 33 :: WAND(WandAngle: -46.686 deg, WandSensorFigureofMerit: 3)
 (1667769191.126258)  vcan0  0C1BFEFE   [8]  D9 51 99 1B 61 F5 1A 7A :: HVES1C1(HVES1HghVltgBsCnntCmmnd: 1, HVES1PowerDownCommand: 2, HVES1HghVltgBsAtvIsltnTstCmmnd: 1, HVES1HghVltgBsPssvIsltnTstCmmnd: 3, HVES1CellBalancingCommand: 1, HVES1EnlIntrnlChrgrCmmnd: 0, HVES1OperationConsent: 1, HVES1HVtBsHSdRsstCtRqst: 1, HVES1HghVltgBsLwSdRsstrCnntRqst: 1)
 (1667769192.126533)  vcan0  08F110FE   [8]  9B B8 C3 2E 6C 63 80 74 :: B2(DmnddBrkAppltnPrssr: 4725.900000000001 kPa, BrakePedalSwitch2: 3)
 (1667769193.126773)  vcan0  18FE4EFE   [8]  A3 B3 BE 18 7E 56 F7 0D :: DC1(Positionofdoors: 3, RampWheelChairLiftPosition: 2, Status2ofdoors: 2)
 (1667769194.126972)  vcan0  0C08FEFE   [8]  41 7E 9A 34 78 E5 BF 1F :: AUXIO5(AuxiliaryIOChannel6: 32321 count, AuxiliaryIOChannel5: 13466 count, AuxiliaryIOChannel4: 58744 count, AuxiliaryIOChannel3: 8127 count)
 (1667769195.127299)  vcan0  18FEADFE   [8]  97 DE 34 2D 4B 19 9D 7A :: EBC3(BApptPssHRFtAxLtW: 755 kPa, BApptPssHRFtAxRtW: 1110 kPa, BApptPssHRRAx1LtW: 260 kPa, BApptPssHRRAx1RtW: 225 kPa, BApptPssHRRAx2LtW: 375 kPa, BApptPssHRRAx2RtW: 125 kPa, BApptPssHRRAx3LtW: 785 kPa, BApptPssHRRAx3RtW: 610 kPa)
 (1667769196.127765)  vcan0  0C0DFEFE   [8]  10 B8 77 54 FB 16 57 31 :: TC2(TransmissionMode9: 0, TransmissionMode10: 0)
 (1667769197.128145)  vcan0  18FE6BFE   [8]  E2 6D D1 02 36 69 34 77 :: DI(Driver1identification: 226 ASCII, Driver2identification: 109 ASCII)
 (1667769198.128609)  vcan0  18FE53FE   [8]  33 AB 83 64 5D 6E 4F 47 :: RTC1(LwLmtThrshldfrMxmmRPMfrmRtrdr: 1632 rpm, HLtTsdMCtsRPMRtd: 5472 rpm, LwLmtThrshldfrMxmmTrqfrmRtrdr: 6 %, HLtTsdMCtsTqRtd: -25 %, MaximumContinuousRetarderSpeed: 2976 rpm, MinimumContinuousRetarderSpeed: 3520 rpm, MaximumContinuousRetarderTorque: -46 %, MinimumContinuousRetarderTorque: -54 %)
 (1667769199.129189)  vcan0  0C1DFEFE   [8]  26 CD F5 1E CC 4F 56 5A :: EIC(EngineTimingAdvance: 210.296875 deg)
 (1667769200.129642)  vcan0  08F02DFE   [8]  A7 20 E6 07 9D 71 31 72 :: ACCS(LtrlAlrtnExtnddRng: -236.41 m/(s*s), LngtdnlAlrtnExtnddRng: -299.78 m/(s*s), VrtlAlrtnExtnddRng: -29.149999999999977 m/(s*s), LtrlAlrtnFgrfMrtExtnddRng: 1, LngtdnlAlrtnFgrfMrtExtnddRng: 0, VrtlAlrtnFgrfMrtExtnddRng: 3, SpptVTsssRpttRtAtSs: 0)
 (1667769201.130243)  vcan0  0CF004FE   [8]  88 DF 9D 20 76 C3 CA 0D :: EEC1(EngineTorqueMode: 8, AtlEngnPrntTrqFrtnl: 1.0 %, DrvrsDmndEngnPrntTrq: 98 %, ActualEnginePercentTorque: 32 %, EngineSpeed: 3780.0 rpm, SrAddrssfCntrllngDvfrEngnCntrl: 195 SA, EngineStarterMode: 10, EngineDemandPercentTorque: -112 %)
 (1667769202.130660)  vcan0  18FE53FE   [8]  1E E6 AE 55 11 7C 8E 3C :: RTC1(LwLmtThrshldfrMxmmRPMfrmRtrdr: 960 rpm, HLtTsdMCtsRPMRtd: 7360 rpm, LwLmtThrshldfrMxmmTrqfrmRtrdr: 49 %, HLtTsdMCtsTqRtd: -40 %, MaximumContinuousRetarderSpeed: 544 rpm, MinimumContinuousRetarderSpeed: 3968 rpm, MaximumContinuousRetarderTorque: 17 %, MinimumContinuousRetarderTorque: -65 %)
 (1667769203.131253)  vcan0  18FE50FE   [8]  F3 2A 38 2F B5 2F 4D 55 :: BT1(SLIBattery1Temperature: 203 degC, SLIBattery2Temperature: 2 degC, SLIBattery3Temperature: 16 degC, SLIBattery4Temperature: 7 degC)
 (1667769204.131799)  vcan0  18FE6AFE   [8]  9E E3 F2 34 F6 AD E7 09 :: EFS(EngineOilLevelRemoteReservoir: 63.2 %, EngnFlSpplPmpIntkAsltPrssr: 454 kPa, EngnFlFltrstnsdDffrntlPrssr: 484 kPa, EngineWasteOilReservoirLevel: 20.8 %, EngineOilFilterOutletPressure: 984 kPa, EngineOilPrimingPumpSwitch: 1, EngineOilPrimingState: 3, EngineOilPreHeatedState: 2, EngineCoolantPreheatedState: 2, EngineVentilationStatus: 7, FuelPumpPrimerStatus: 0, EngnFlSpplPmpIntkPrssr: 18 kPa)
 (1667769205.132411)  vcan0  0CF013FE   [8]  B7 D1 63 21 8D 8C 1C 37 :: SSI(PitchAngle: 43.373999999999995 deg, RollAngle: -46.906 deg, PitchRate: 7.962000000000003 deg/s, PitchAngleFigureofMerit: 0, RollAngleFigureofMerit: 3, PitchRateFigureofMerit: 1, PitchandRollCompensated: 0, RollandPitchMeasurementLatency: 27.5 ms)
 (1667769206.132951)  vcan0  18FE52FE   [8]  66 1D BC 78 9D 44 94 0B :: VEP3(AltrntrCrrntHghRngRsltn: -1223.7 A, SLIBttr1NtCrrntHghRngRsltn: -54.59999999999991 A, SLIBattery2NetCurrent: -721.75 A)
 (1667769207.133278)  vcan0  0C99FEFE   [8]  9C 7E E7 02 7F B2 65 0E :: JLCM(Joystick1Lamp1Command: 0, Joystick1Lamp2Command: 3, Joystick1Lamp3Command: 1, Joystick1Lamp4Command: 2, Joystick1Lamp5Command: 2, Joystick1Lamp6Command: 3, Joystick1Lamp7Command: 3, Joystick1Lamp8Command: 1, Joystick1Lamp9Command: 3, Joystick1Lamp10Command: 1, Joystick2Lamp1Command: 2, Joystick2Lamp2Command: 3, Joystick2Lamp3Command: 2, Joystick2Lamp4Command: 0, Joystick2Lamp5Command: 0, Joystick2Lamp6Command: 0, Joystick2Lamp7Command: 3, Joystick2Lamp8Command: 3, Joystick2Lamp9Command: 3, Joystick2Lamp10Command: 1, Joystick3Lamp1Command: 2, Joystick3Lamp2Command: 0, Joystick3Lamp3Command: 3, Joystick3Lamp4Command: 2, Joystick3Lamp5Command: 1, Joystick3Lamp6Command: 1, Joystick3Lamp7Command: 2, Joystick3Lamp8Command: 1, Joystick3Lamp9Command: 2, Joystick3Lamp10Command: 3)
 (1667769208.133685)  vcan0  18FE53FE   [8]  D7 99 9C 45 B3 5D E9 72 :: RTC1(LwLmtThrshldfrMxmmRPMfrmRtrdr: 6880 rpm, HLtTsdMCtsRPMRtd: 4896 rpm, LwLmtThrshldfrMxmmTrqfrmRtrdr: 31 %, HLtTsdMCtsTqRtd: -56 %, MaximumContinuousRetarderSpeed: 5728 rpm, MinimumContinuousRetarderSpeed: 2976 rpm, MaximumContinuousRetarderTorque: 108 %, MinimumContinuousRetarderTorque: -11 %)
 (1667769209.134078)  vcan0  08FE6EFE   [8]  69 33 02 37 D9 2A DF 11 :: HRW(FrontAxleLeftWheelSpeed: 51.41015625 km/h, Frontaxlerightwheelspeed: 55.0078125 km/h, Rearaxleleftwheelspeed: 42.84765625 km/h, Rearaxlerightwheelspeed: 17.87109375 km/h)
 (1667769210.134684)  vcan0  18FE68FE   [8]  3D 54 F7 0C 81 4B C5 19 :: VF(HydraulicTemperature: 21 degC, HdrlOlFltrRstrtnSwth: 0, WinchOilPressureSwitch: 1, HydraulicOilLevel: 98.80000000000001 %)
 (1667769211.135202)  vcan0  0C1BFEFE   [8]  26 AF 27 16 09 2B 63 3A :: HVES1C1(HVES1HghVltgBsCnntCmmnd: 2, HVES1PowerDownCommand: 1, HVES1HghVltgBsAtvIsltnTstCmmnd: 2, HVES1HghVltgBsPssvIsltnTstCmmnd: 0, HVES1CellBalancingCommand: 3, HVES1EnlIntrnlChrgrCmmnd: 3, HVES1OperationConsent: 2, HVES1HVtBsHSdRsstCtRqst: 2, HVES1HghVltgBsLwSdRsstrCnntRqst: 3)
 (1667769346.191620)  vcan0  04F031FE   [8]  6E 02 6D 37 AF 7E D9 2E :: WAND(WandAngle: -62.756 deg, WandSensorFigureofMerit: 1)
 (1667769347.191783)  vcan0  18FE8DFE   [8]  82 19 46 65 B2 54 5D 7F :: VEP2(BatteryPotentialPowerInput2: 326.5 V, ECUPowerOutputSupplyVoltage1: 1296.3000000000002 V, ECUPowerOutputSupplyVoltage2: 1084.1000000000001 V, ECUPowerOutputSupplyVoltage3: 1630.25 V)
 (1667769348.192035)  vcan0  0C1DFEFE   [8]  AF 39 3F 5C 02 4C 7E 6B :: EIC(EngineTimingAdvance: -84.6328125 deg)
 (1667769349.192197)  vcan0  18FEBDFE   [8]  42 88 91 64 28 66 6F 16 :: FD1(EngineFan1EstimatedPercentSpeed: 26.400000000000002 %, FanDriveState: 8, FanSpeed: 3218.125 rpm, HydraulicFanMotorPressure: 13076.0 kPa, FanDriveBypassCommandStatus: 44.400000000000006 %)
 (1667769350.192514)  vcan0  18FE9DFE   [8]  8E AD 89 23 5F DC F9 29 :: MBT2(EngineMainBearing5Temperature: 1115.4375 degC, EngineMainBearing6Temperature: 11.28125 degC, EngineMainBearing7Temperature: 1489.96875 degC, EngineMainBearing8Temperature: 62.78125 degC)
 (1667769351.192762)  vcan0  18FE94FE   [8]  D9 39 11 32 D1 5D DC 65 :: EAC(EngineAuxiliaryCoolantPressure: 868 kPa, EngnAxlrClntTmprtr: 17 degC, SeaWaterPumpOutletPressure: 34 kPa, EngnClntPrssr1ExtnddRng: 200 kPa, EngnClntPrssr2ExtnddRng: 836 kPa, EngnClntPmpClntOtltPrssr: 186 kPa)
 (1667769352.192964)  vcan0  18FE55FE   [8]  A9 55 E0 5B 3A 25 D5 05 :: GFD(SpecificHeatRatio: 21.929000000000002 Ratio, ReferenceEngineGasMassFlowRate: 1176.0 kg/h, Fuelenergycontent: 37.2265625 MJ/(Nm*Nm*Nm))
 (1667769353.193137)  vcan0  18FE67FE   [8]  80 2C 67 46 17 D3 DD 46 :: CCC(AxlrHtrMxmmOtptPwr: 22784 W)
 (1667769354.193516)  vcan0  0C0AFEFE   [8]  78 8C 79 15 25 FA CA 24 :: CCVS2(CruiseControlDisableCommand: 0, CruiseControlResumeCommand: 2, CruiseControlPauseCommand: 3, CruiseControlSetCommand: 1, IdleSpeedRequest: 3889.5 rpm, IdleControlEnableState: 1, IdleControlRequestActivation: 1, RemoteRoadSpeedLimitRequest: 37 km/h)
 (1667769355.193846)  vcan0  18FEC1FE   [8]  58 CF B6 15 F0 E4 9C 13 :: VDHR(TtlVhlDstnHghRsltn: 1821510840 m, TripDistanceHighResolution: 1645246640 m)
 (1667769356.194088)  vcan0  18FEBDFE   [8]  59 1D 65 55 5E E7 09 4B :: FD1(EngineFan1EstimatedPercentSpeed: 35.6 %, FanDriveState: 13, FanSpeed: 2732.625 rpm, HydraulicFanMotorPressure: 29615.0 kPa, FanDriveBypassCommandStatus: 3.6 %)
 (1667769357.194444)  vcan0  0CF004FE   [8]  42 32 8E 5D E1 00 50 30 :: EEC1(EngineTorqueMode: 2, AtlEngnPrntTrqFrtnl: 0.5 %, DrvrsDmndEngnPrntTrq: -75 %, ActualEnginePercentTorque: 17 %, EngineSpeed: 7211.625 rpm, SrAddrssfCntrllngDvfrEngnCntrl: 0 SA, EngineStarterMode: 0, EngineDemandPercentTorque: -77 %)
 (1667769358.192043)  vcan0  18FE90FE   [8]  54 04 5B 57 90 3A 8F 0C :: unpack requires at least 264 bits to unpack (got 64)
 (1667769359.192672)  vcan0  18FEC1FE   [8]  3E 6E 11 6A D2 C2 20 71 :: VDHR(TtlVhlDstnHghRsltn: 8897636150 m, TripDistanceHighResolution: 9489862170 m)
 (1667769360.193325)  vcan0  18FE4EFE   [8]  E1 FD B3 0C 60 70 AA 14 :: DC1(Positionofdoors: 1, RampWheelChairLiftPosition: 2, Status2ofdoors: 3)
 (1667769361.193911)  vcan0  18FE69FE   [8]  DD E5 2C 3C 39 AA BB 46 :: ET3(EngnIntkMnfld1TmprtrHghRsltn: 1565.90625 degC, EngnClntTmprtrHghRsltn: 208.375 degC, EngnIntkVlvAttnSstmOlTmprtr: 1088.78125 degC, EngnChrgArClr1OtltTmprtr: 292.84375 degC)
 (1667769362.194131)  vcan0  18FE4FFE   [8]  49 43 70 35 E3 FF 9B 22 :: VDC1(VDCInformationSignal: 1, VDCFullyOperational: 2, VDCbrakelightrequest: 0, ROPEngineControlactive: 3, ROPBrakeControlactive: 0, YCEngineControlactive: 0, YCBrakeControlactive: 1, TrailerVDCActive: 0)
 (1667769363.194518)  vcan0  0C1BFEFE   [8]  BC 3E A3 0A 63 2C 03 69 :: HVES1C1(HVES1HghVltgBsCnntCmmnd: 0, HVES1PowerDownCommand: 3, HVES1HghVltgBsAtvIsltnTstCmmnd: 3, HVES1HghVltgBsPssvIsltnTstCmmnd: 2, HVES1CellBalancingCommand: 2, HVES1EnlIntrnlChrgrCmmnd: 3, HVES1OperationConsent: 3, HVES1HVtBsHSdRsstCtRqst: 0, HVES1HghVltgBsLwSdRsstrCnntRqst: 3)
 (1667769364.194875)  vcan0  0CF002FE   [8]  19 68 82 2F DB B8 7C 7E :: ETC1(TransmissionDrivelineEngaged: 1, TrnsmssnTrqCnvrtrLkpEnggd: 2, TransmissionShiftInProcess: 1, TrnsmssnTrqCnvrtrLkpTrnstnnPrss: 0, Transmission1OutputShaftSpeed: 4173.0 rpm, PercentClutchSlip: 18.8 %, EngineMomentaryOverspeedEnable: 3, ProgressiveShiftDisable: 2, MmntrEngnMxmmPwrEnl: 1, Transmission1InputShaftSpeed: 3991.0 rpm, SAddssCtDvTsssCt: 126 SA)
 (1667769365.195427)  vcan0  0CF00DFE   [8]  46 C8 98 21 33 88 33 14 :: LOI(BladeControlModeSwitch: 6, DesiredGradeOffsetSwitch: 4, BladeAutoModeCommand: 8, LftBldCntrlMdOprtrCntrl: 12, RghtBldCntrlMdOprtrCntrl: 8, LftDsrdBldOffstOprtrCntrl: 9, RghtDsrdBldOffstOprtrCntrl: 1, SdshftBldCntrlMdOprtrCntrl: 2, SdshftDsrdBldOffstOprtrCntrl: 3, StElvtnSnsr1RfrnElvtn: 3, StElvtnSnsr2RfrnElvtn: 0)
 (1667769366.195887)  vcan0  18FEC0FE   [8]  C0 50 08 1A 8C A5 98 69 :: SERV(ServiceComponentIdentificationA: 192 ID, ServiceDistance: -149995 km, ServiceComponentIdentificationB: 26 ID, ServiceDelayCalendarTimeBased: 15 weeks, ServiceComponentIdentificationC: 165 ID, SrvDlOprtnlTmBsd: -5095 h)
 (1667769367.196183)  vcan0  18FE53FE   [8]  E9 57 51 41 CE D7 26 47 :: RTC1(LwLmtThrshldfrMxmmRPMfrmRtrdr: 7456 rpm, HLtTsdMCtsRPMRtd: 2784 rpm, LwLmtThrshldfrMxmmTrqfrmRtrdr: -44 %, HLtTsdMCtsTqRtd: -60 %, MaximumContinuousRetarderSpeed: 6592 rpm, MinimumContinuousRetarderSpeed: 6880 rpm, MaximumContinuousRetarderTorque: -87 %, MinimumContinuousRetarderTorque: -54 %)
 (1667769368.196488)  vcan0  18FEBFFE   [8]  C4 B3 F7 67 22 DC 81 1E :: EBC2(FrontAxleSpeed: 179.765625 km/h, RelativeSpeedFrontAxleLeftWheel: 7.625 km/h, RltvSpdFrntAxlRghtWhl: -1.375 km/h, RelativeSpeedRearAxle1LeftWheel: -5.6875 km/h, RltvSpdRrAxl1RghtWhl: 5.9375 km/h, RelativeSpeedRearAxle2LeftWheel: 0.25 km/h, RltvSpdRrAxl2RghtWhl: -5.9375 km/h)
 (1667769369.196875)  vcan0  0CF00CFE   [8]  A1 5B 1C 7A 60 4A 93 08 :: ETC8(TrnsmssnTrqCnvrtrRt: 23.457 Ratio, TrnsmssnClthCnvrtrInptSpd: 3907.5 rpm, TransmissionShiftInhibitReason: 96, TrnsmssnTrqCnvrtrLkpInhtRsn: 74, TrnsmssnTrqCnvrtrLkpInhtIndtr: 3)
 (1667769370.197494)  vcan0  0C0AFEFE   [8]  A6 69 B0 22 42 48 47 15 :: CCVS2(CruiseControlDisableCommand: 2, CruiseControlResumeCommand: 1, CruiseControlPauseCommand: 2, CruiseControlSetCommand: 2, IdleSpeedRequest: 5645.125 rpm, IdleControlEnableState: 2, IdleControlRequestActivation: 0, RemoteRoadSpeedLimitRequest: 66 km/h)
 (1667769371.197608)  vcan0  18FE97FE   [8]  0B 54 3E 75 1F 2E 74 51 :: TCI5(EngnTrhrgr1TrnOtltTmprtr: 399.34375 degC, EngnTrhrgr2TrnOtltTmprtr: 664.9375 degC, EngnTrhrgr3TrnOtltTmprtr: 95.96875 degC, EngnTrhrgr4TrnOtltTmprtr: 378.625 degC)
 (1667769372.197922)  vcan0  0CF002FE   [8]  41 9C A8 2D 69 71 E4 06 :: ETC1(TransmissionDrivelineEngaged: 1, TrnsmssnTrqCnvrtrLkpEnggd: 0, TransmissionShiftInProcess: 0, TrnsmssnTrqCnvrtrLkpTrnstnnPrss: 1, Transmission1OutputShaftSpeed: 5395.5 rpm, PercentClutchSlip: 18.0 %, EngineMomentaryOverspeedEnable: 1, ProgressiveShiftDisable: 2, MmntrEngnMxmmPwrEnl: 2, Transmission1InputShaftSpeed: 7310.125 rpm, SAddssCtDvTsssCt: 6 SA)
 (1667769373.198212)  vcan0  18FEBDFE   [8]  B1 09 E8 6B 25 B0 87 11 :: FD1(EngineFan1EstimatedPercentSpeed: 70.8 %, FanDriveState: 9, FanSpeed: 3453.0 rpm, HydraulicFanMotorPressure: 22546.5 kPa, FanDriveBypassCommandStatus: 54.0 %)
 (1667769374.198538)  vcan0  18FED5FE   [8]  38 4A 05 71 3E 18 0A 41 :: AS(AlternatorSpeed: 9500.0 rpm, Alternator1Status: 1, Alternator2Status: 1, Alternator3Status: 0, Alternator4Status: 0)
 (1667769375.198826)  vcan0  18FEAEFE   [8]  E4 84 ED 1A 84 E0 A2 62 :: AIR1(PneumaticSupplyPressure: 1824 kPa, ParkingandorTrailerAirPressure: 1056 kPa, ServiceBrakeCircuit1AirPressure: 1896 kPa, ServiceBrakeCircuit2AirPressure: 208 kPa, AxlrEqpmntSpplPrssr: 1056 kPa, AirSuspensionSupplyPressure: 1792 kPa, AirCompressorStatus: 2, PwrtrnCrtArSpplPrssr: 784 kPa)
 (1667769376.199153)  vcan0  18FEC1FE   [8]  80 A4 72 58 45 31 AB 7C :: VDHR(TtlVhlDstnHghRsltn: 7419541120 m, TripDistanceHighResolution: 10457970265 m)
 (1667769351.192762)  vcan0  18FE94FE   [8]  D9 39 11 32 D1 5D DC 65 :: EAC(EngineAuxiliaryCoolantPressure: 868 kPa, EngnAxlrClntTmprtr: 17 degC, SeaWaterPumpOutletPressure: 34 kPa, EngnClntPrssr1ExtnddRng: 200 kPa, EngnClntPrssr2ExtnddRng: 836 kPa, EngnClntPmpClntOtltPrssr: 186 kPa)
 (1667769352.192964)  vcan0  18FE55FE   [8]  A9 55 E0 5B 3A 25 D5 05 :: GFD(SpecificHeatRatio: 21.929000000000002 Ratio, ReferenceEngineGasMassFlowRate: 1176.0 kg/h, Fuelenergycontent: 37.2265625 MJ/(Nm*Nm*Nm))
 (1667769353.193137)  vcan0  18FE67FE   [8]  80 2C 67 46 17 D3 DD 46 :: CCC(AxlrHtrMxmmOtptPwr: 22784 W)
 (1667769354.193516)  vcan0  0C0AFEFE   [8]  78 8C 79 15 25 FA CA 24 :: CCVS2(CruiseControlDisableCommand: 0, CruiseControlResumeCommand: 2, CruiseControlPauseCommand: 3, CruiseControlSetCommand: 1, IdleSpeedRequest: 3889.5 rpm, IdleControlEnableState: 1, IdleControlRequestActivation: 1, RemoteRoadSpeedLimitRequest: 37 km/h)
 (1667769355.193846)  vcan0  18FEC1FE   [8]  58 CF B6 15 F0 E4 9C 13 :: VDHR(TtlVhlDstnHghRsltn: 1821510840 m, TripDistanceHighResolution: 1645246640 m)
 (1667769356.194088)  vcan0  18FEBDFE   [8]  59 1D 65 55 5E E7 09 4B :: FD1(EngineFan1EstimatedPercentSpeed: 35.6 %, FanDriveState: 13, FanSpeed: 2732.625 rpm, HydraulicFanMotorPressure: 29615.0 kPa, FanDriveBypassCommandStatus: 3.6 %)
 (1667769357.194444)  vcan0  0CF004FE   [8]  42 32 8E 5D E1 00 50 30 :: EEC1(EngineTorqueMode: 2, AtlEngnPrntTrqFrtnl: 0.5 %, DrvrsDmndEngnPrntTrq: -75 %, ActualEnginePercentTorque: 17 %, EngineSpeed: 7211.625 rpm, SrAddrssfCntrllngDvfrEngnCntrl: 0 SA, EngineStarterMode: 0, EngineDemandPercentTorque: -77 %)
 (1667769358.192043)  vcan0  18FE90FE   [8]  54 04 5B 57 90 3A 8F 0C :: unpack requires at least 264 bits to unpack (got 64)
 (1667769359.192672)  vcan0  18FEC1FE   [8]  3E 6E 11 6A D2 C2 20 71 :: VDHR(TtlVhlDstnHghRsltn: 8897636150 m, TripDistanceHighResolution: 9489862170 m)
 (1667769360.193325)  vcan0  18FE4EFE   [8]  E1 FD B3 0C 60 70 AA 14 :: DC1(Positionofdoors: 1, RampWheelChairLiftPosition: 2, Status2ofdoors: 3)
 (1667769361.193911)  vcan0  18FE69FE   [8]  DD E5 2C 3C 39 AA BB 46 :: ET3(EngnIntkMnfld1TmprtrHghRsltn: 1565.90625 degC, EngnClntTmprtrHghRsltn: 208.375 degC, EngnIntkVlvAttnSstmOlTmprtr: 1088.78125 degC, EngnChrgArClr1OtltTmprtr: 292.84375 degC)
 (1667769362.194131)  vcan0  18FE4FFE   [8]  49 43 70 35 E3 FF 9B 22 :: VDC1(VDCInformationSignal: 1, VDCFullyOperational: 2, VDCbrakelightrequest: 0, ROPEngineControlactive: 3, ROPBrakeControlactive: 0, YCEngineControlactive: 0, YCBrakeControlactive: 1, TrailerVDCActive: 0)
 (1667769363.194518)  vcan0  0C1BFEFE   [8]  BC 3E A3 0A 63 2C 03 69 :: HVES1C1(HVES1HghVltgBsCnntCmmnd: 0, HVES1PowerDownCommand: 3, HVES1HghVltgBsAtvIsltnTstCmmnd: 3, HVES1HghVltgBsPssvIsltnTstCmmnd: 2, HVES1CellBalancingCommand: 2, HVES1EnlIntrnlChrgrCmmnd: 3, HVES1OperationConsent: 3, HVES1HVtBsHSdRsstCtRqst: 0, HVES1HghVltgBsLwSdRsstrCnntRqst: 3)
 (1667769364.194875)  vcan0  0CF002FE   [8]  19 68 82 2F DB B8 7C 7E :: ETC1(TransmissionDrivelineEngaged: 1, TrnsmssnTrqCnvrtrLkpEnggd: 2, TransmissionShiftInProcess: 1, TrnsmssnTrqCnvrtrLkpTrnstnnPrss: 0, Transmission1OutputShaftSpeed: 4173.0 rpm, PercentClutchSlip: 18.8 %, EngineMomentaryOverspeedEnable: 3, ProgressiveShiftDisable: 2, MmntrEngnMxmmPwrEnl: 1, Transmission1InputShaftSpeed: 3991.0 rpm, SAddssCtDvTsssCt: 126 SA)
 (1667769365.195427)  vcan0  0CF00DFE   [8]  46 C8 98 21 33 88 33 14 :: LOI(BladeControlModeSwitch: 6, DesiredGradeOffsetSwitch: 4, BladeAutoModeCommand: 8, LftBldCntrlMdOprtrCntrl: 12, RghtBldCntrlMdOprtrCntrl: 8, LftDsrdBldOffstOprtrCntrl: 9, RghtDsrdBldOffstOprtrCntrl: 1, SdshftBldCntrlMdOprtrCntrl: 2, SdshftDsrdBldOffstOprtrCntrl: 3, StElvtnSnsr1RfrnElvtn: 3, StElvtnSnsr2RfrnElvtn: 0)
 (1667769366.195887)  vcan0  18FEC0FE   [8]  C0 50 08 1A 8C A5 98 69 :: SERV(ServiceComponentIdentificationA: 192 ID, ServiceDistance: -149995 km, ServiceComponentIdentificationB: 26 ID, ServiceDelayCalendarTimeBased: 15 weeks, ServiceComponentIdentificationC: 165 ID, SrvDlOprtnlTmBsd: -5095 h)
 (1667769367.196183)  vcan0  18FE53FE   [8]  E9 57 51 41 CE D7 26 47 :: RTC1(LwLmtThrshldfrMxmmRPMfrmRtrdr: 7456 rpm, HLtTsdMCtsRPMRtd: 2784 rpm, LwLmtThrshldfrMxmmTrqfrmRtrdr: -44 %, HLtTsdMCtsTqRtd: -60 %, MaximumContinuousRetarderSpeed: 6592 rpm, MinimumContinuousRetarderSpeed: 6880 rpm, MaximumContinuousRetarderTorque: -87 %, MinimumContinuousRetarderTorque: -54 %)
 (1667769368.196488)  vcan0  18FEBFFE   [8]  C4 B3 F7 67 22 DC 81 1E :: EBC2(FrontAxleSpeed: 179.765625 km/h, RelativeSpeedFrontAxleLeftWheel: 7.625 km/h, RltvSpdFrntAxlRghtWhl: -1.375 km/h, RelativeSpeedRearAxle1LeftWheel: -5.6875 km/h, RltvSpdRrAxl1RghtWhl: 5.9375 km/h, RelativeSpeedRearAxle2LeftWheel: 0.25 km/h, RltvSpdRrAxl2RghtWhl: -5.9375 km/h)
 (1667769369.196875)  vcan0  0CF00CFE   [8]  A1 5B 1C 7A 60 4A 93 08 :: ETC8(TrnsmssnTrqCnvrtrRt: 23.457 Ratio, TrnsmssnClthCnvrtrInptSpd: 3907.5 rpm, TransmissionShiftInhibitReason: 96, TrnsmssnTrqCnvrtrLkpInhtRsn: 74, TrnsmssnTrqCnvrtrLkpInhtIndtr: 3)
 (1667769370.197494)  vcan0  0C0AFEFE   [8]  A6 69 B0 22 42 48 47 15 :: CCVS2(CruiseControlDisableCommand: 2, CruiseControlResumeCommand: 1, CruiseControlPauseCommand: 2, CruiseControlSetCommand: 2, IdleSpeedRequest: 5645.125 rpm, IdleControlEnableState: 2, IdleControlRequestActivation: 0, RemoteRoadSpeedLimitRequest: 66 km/h)
 (1667769371.197608)  vcan0  18FE97FE   [8]  0B 54 3E 75 1F 2E 74 51 :: TCI5(EngnTrhrgr1TrnOtltTmprtr: 399.34375 degC, EngnTrhrgr2TrnOtltTmprtr: 664.9375 degC, EngnTrhrgr3TrnOtltTmprtr: 95.96875 degC, EngnTrhrgr4TrnOtltTmprtr: 378.625 degC)
 (1667769372.197922)  vcan0  0CF002FE   [8]  41 9C A8 2D 69 71 E4 06 :: ETC1(TransmissionDrivelineEngaged: 1, TrnsmssnTrqCnvrtrLkpEnggd: 0, TransmissionShiftInProcess: 0, TrnsmssnTrqCnvrtrLkpTrnstnnPrss: 1, Transmission1OutputShaftSpeed: 5395.5 rpm, PercentClutchSlip: 18.0 %, EngineMomentaryOverspeedEnable: 1, ProgressiveShiftDisable: 2, MmntrEngnMxmmPwrEnl: 2, Transmission1InputShaftSpeed: 7310.125 rpm, SAddssCtDvTsssCt: 6 SA)
 (1667769373.198212)  vcan0  18FEBDFE   [8]  B1 09 E8 6B 25 B0 87 11 :: FD1(EngineFan1EstimatedPercentSpeed: 70.8 %, FanDriveState: 9, FanSpeed: 3453.0 rpm, HydraulicFanMotorPressure: 22546.5 kPa, FanDriveBypassCommandStatus: 54.0 %)
 (1667769374.198538)  vcan0  18FED5FE   [8]  38 4A 05 71 3E 18 0A 41 :: AS(AlternatorSpeed: 9500.0 rpm, Alternator1Status: 1, Alternator2Status: 1, Alternator3Status: 0, Alternator4Status: 0)
 (1667769375.198826)  vcan0  18FEAEFE   [8]  E4 84 ED 1A 84 E0 A2 62 :: AIR1(PneumaticSupplyPressure: 1824 kPa, ParkingandorTrailerAirPressure: 1056 kPa, ServiceBrakeCircuit1AirPressure: 1896 kPa, ServiceBrakeCircuit2AirPressure: 208 kPa, AxlrEqpmntSpplPrssr: 1056 kPa, AirSuspensionSupplyPressure: 1792 kPa, AirCompressorStatus: 2, PwrtrnCrtArSpplPrssr: 784 kPa)
 (1667769376.199153)  vcan0  18FEC1FE   [8]  80 A4 72 58 45 31 AB 7C :: VDHR(TtlVhlDstnHghRsltn: 7419541120 m, TripDistanceHighResolution: 10457970265 m)
 (1667769377.199635)  vcan0  18FE52FE   [8]  7A AB 01 61 2E 89 FC 3D :: VEP3(AltrntrCrrntHghRngRsltn: 594.9000000000001 A, SLIBttr1NtCrrntHghRngRsltn: -358.3499999999999 A, SLIBattery2NetCurrent: 155.9000000000001 A)
 (1667769378.200088)  vcan0  18FEADFE   [8]  56 B3 E0 19 F3 3C F4 25 :: EBC3(BApptPssHRFtAxLtW: 430 kPa, BApptPssHRFtAxRtW: 895 kPa, BApptPssHRRAx1LtW: 1120 kPa, BApptPssHRRAx1RtW: 125 kPa, BApptPssHRRAx2LtW: 1215 kPa, BApptPssHRRAx2RtW: 300 kPa, BApptPssHRRAx3LtW: 1220 kPa, BApptPssHRRAx3RtW: 185 kPa)
 (1667769379.200435)  vcan0  0C04FEFE   [8]  C1 F5 4E 5F 94 98 10 20 :: XBR(ExternalAccelerationDemand: 15.03223828125 m/(s*s), XBREBIMode: 2, XBRPriority: 3, XBRControlMode: 0, XBRurgency: 38.0 %, XBRMessageCounter: 0 count, XBRMessageChecksum: 2 count)
 (1667769380.200748)  vcan0  18FE54FE   [8]  FF FA DD 15 3B 02 C1 42 :: ECT1(ELwLtTsdMxRPME: 8160 rpm, EHLtTsdMCtsERPM: 8000 rpm, ELwLtTsdMxTqE: 96 %, EHLtTsdMCtsTqE: -104 %, EngineMaximumContinuousRPM: 1888 rpm, EngineMinimumContinuousRPM: 64 rpm, EngineMaximumContinuousTorque: 68 %, EngineMinimumContinuousTorque: -59 %)
 (1667769571.294183)  vcan0  0C99FEFE   [8]  12 57 3D 08 50 BE D8 2E :: JLCM(Joystick1Lamp1Command: 2, Joystick1Lamp2Command: 0, Joystick1Lamp3Command: 1, Joystick1Lamp4Command: 0, Joystick1Lamp5Command: 3, Joystick1Lamp6Command: 1, Joystick1Lamp7Command: 1, Joystick1Lamp8Command: 1, Joystick1Lamp9Command: 1, Joystick1Lamp10Command: 3, Joystick2Lamp1Command: 3, Joystick2Lamp2Command: 0, Joystick2Lamp3Command: 0, Joystick2Lamp4Command: 2, Joystick2Lamp5Command: 0, Joystick2Lamp6Command: 0, Joystick2Lamp7Command: 0, Joystick2Lamp8Command: 0, Joystick2Lamp9Command: 1, Joystick2Lamp10Command: 1, Joystick3Lamp1Command: 2, Joystick3Lamp2Command: 3, Joystick3Lamp3Command: 3, Joystick3Lamp4Command: 2, Joystick3Lamp5Command: 0, Joystick3Lamp6Command: 2, Joystick3Lamp7Command: 1, Joystick3Lamp8Command: 3, Joystick3Lamp9Command: 2, Joystick3Lamp10Command: 3)
 (1667769572.294345)  vcan0  18FE4FFE   [8]  10 6F 54 3B 82 BA 9E 2C :: VDC1(VDCInformationSignal: 0, VDCFullyOperational: 0, VDCbrakelightrequest: 1, ROPEngineControlactive: 3, ROPBrakeControlactive: 3, YCEngineControlactive: 2, YCBrakeControlactive: 1, TrailerVDCActive: 0)
 (1667769573.294627)  vcan0  0C1EFEFE   [8]  BF 97 7A 08 AE 75 23 07 :: ALTC(AltrntrStpntVltgCmmnd: 38.847 V, AltrntrExttnMxmmCrrntLmt: 30.5 A, AlternatorTorqueRampTimeCommand: 0.8 s, AltrntrTrqRmpMxmmSpdCmmnd: 5568 rpm)
 (1667769574.295357)  vcan0  18FE4AFE   [8]  10 7F A4 1B CD 1D 77 07 :: ETC7(TrnsmssnCrrntRngDsplBlnkStt: 0, TransmissionServiceIndicator: 0, TrnsmssnRqstdRngDsplBlnkStt: 1, TrnsmssnRqstdRngDsplFlshStt: 0, TrnsmssnRdfrBrkRls: 3, ActiveShiftConsoleIndicator: 3, TransmissionEngineCrankEnable: 3, TrnsmssnShftInhtIndtr: 1, TransmissionMode4Indicator: 0, TransmissionMode3Indicator: 1, TransmissionMode2Indicator: 2, TransmissionMode1Indicator: 2, TrnsmssnRqstdGrFdk: -98 gear value, TransmissionMode5Indicator: 1, TransmissionMode6Indicator: 3, TransmissionMode7Indicator: 0, TransmissionMode8Indicator: 3, TrnsmssnRvrsGrShftInhtStts: 1, TransmissionWarningIndicator: 3, TransmissionMode9Indicator: 1, TransmissionMode10Indicator: 0, TrnsmssnArSpplPrssrIndtr: 7, TrnsmssnAtNtrlMnlRtrnStt: 6, TransmissionManualModeIndicator: 1)
 (1667769575.295867)  vcan0  0CF00DFE   [8]  F4 57 F2 43 3E E6 A5 5B :: LOI(BladeControlModeSwitch: 4, DesiredGradeOffsetSwitch: 15, BladeAutoModeCommand: 7, LftBldCntrlMdOprtrCntrl: 5, RghtBldCntrlMdOprtrCntrl: 2, LftDsrdBldOffstOprtrCntrl: 15, RghtDsrdBldOffstOprtrCntrl: 3, SdshftBldCntrlMdOprtrCntrl: 4, SdshftDsrdBldOffstOprtrCntrl: 14, StElvtnSnsr1RfrnElvtn: 3, StElvtnSnsr2RfrnElvtn: 0)
 (1667769576.296471)  vcan0  08FE6EFE   [8]  FE 43 DF 44 82 3F 61 12 :: HRW(FrontAxleLeftWheelSpeed: 67.9921875 km/h, Frontaxlerightwheelspeed: 68.87109375 km/h, Rearaxleleftwheelspeed: 63.5078125 km/h, Rearaxlerightwheelspeed: 18.37890625 km/h)
 (1667769577.296626)  vcan0  18FE4EFE   [8]  11 42 AB 20 74 F7 D3 5F :: DC1(Positionofdoors: 1, RampWheelChairLiftPosition: 1, Status2ofdoors: 0)
 (1667769578.296879)  vcan0  18FEADFE   [8]  87 95 F2 14 EE 28 4C 71 :: EBC3(BApptPssHRFtAxLtW: 675 kPa, BApptPssHRFtAxRtW: 745 kPa, BApptPssHRRAx1LtW: 1210 kPa, BApptPssHRRAx1RtW: 100 kPa, BApptPssHRRAx2LtW: 1190 kPa, BApptPssHRRAx2RtW: 200 kPa, BApptPssHRRAx3LtW: 380 kPa, BApptPssHRRAx3RtW: 565 kPa)
 (1667769579.297122)  vcan0  18FE52FE   [8]  65 1A 50 0C 4C 0F F9 79 :: VEP3(AltrntrCrrntHghRngRsltn: -1262.15 A, SLIBttr1NtCrrntHghRngRsltn: -1442.4 A, SLIBattery2NetCurrent: -1404.2 A)
 (1667769580.297526)  vcan0  18FED5FE   [8]  95 C8 01 0F 87 5A EA 65 :: AS(AlternatorSpeed: 25674.5 rpm, Alternator1Status: 1, Alternator2Status: 0, Alternator3Status: 0, Alternator4Status: 0)
 (1667769581.298104)  vcan0  0C99FEFE   [8]  A9 9E CC 27 99 B1 27 6E :: JLCM(Joystick1Lamp1Command: 1, Joystick1Lamp2Command: 2, Joystick1Lamp3Command: 2, Joystick1Lamp4Command: 2, Joystick1Lamp5Command: 2, Joystick1Lamp6Command: 3, Joystick1Lamp7Command: 1, Joystick1Lamp8Command: 2, Joystick1Lamp9Command: 0, Joystick1Lamp10Command: 3, Joystick2Lamp1Command: 0, Joystick2Lamp2Command: 3, Joystick2Lamp3Command: 3, Joystick2Lamp4Command: 1, Joystick2Lamp5Command: 2, Joystick2Lamp6Command: 0, Joystick2Lamp7Command: 1, Joystick2Lamp8Command: 2, Joystick2Lamp9Command: 1, Joystick2Lamp10Command: 2, Joystick3Lamp1Command: 1, Joystick3Lamp2Command: 0, Joystick3Lamp3Command: 3, Joystick3Lamp4Command: 2, Joystick3Lamp5Command: 3, Joystick3Lamp6Command: 1, Joystick3Lamp7Command: 2, Joystick3Lamp8Command: 0, Joystick3Lamp9Command: 2, Joystick3Lamp10Command: 3)
 (1667769582.298621)  vcan0  18FE6AFE   [8]  CF C6 4D 7E AA 20 7C 29 :: EFS(EngineOilLevelRemoteReservoir: 82.80000000000001 %, EngnFlSpplPmpIntkAsltPrssr: 396 kPa, EngnFlFltrstnsdDffrntlPrssr: 154 kPa, EngineWasteOilReservoirLevel: 50.400000000000006 %, EngineOilFilterOutletPressure: 680 kPa, EngineOilPrimingPumpSwitch: 0, EngineOilPrimingState: 0, EngineOilPreHeatedState: 2, EngineCoolantPreheatedState: 0, EngineVentilationStatus: 4, FuelPumpPrimerStatus: 3, EngnFlSpplPmpIntkPrssr: 82 kPa)
 (1667769583.298946)  vcan0  18FEA6FE   [8]  F2 AB EF 1B 69 B8 F6 31 :: IMT1(EngnTrhrgr1BstPrssr: 5502.25 kPa, EngnTrhrgr2BstPrssr: 893.875 kPa, EngnTrhrgr3BstPrssr: 5901.125 kPa, EngnTrhrgr4BstPrssr: 1598.75 kPa)
 (1667769584.299191)  vcan0  18FEA0FE   [8]  E4 B5 F6 49 79 37 9B 4D :: EPT4(EngnExhstGsPrt13Tmprtr: 1182.125 degC, EngnExhstGsPrt14Tmprtr: 318.6875 degC, EngnExhstGsPrt15Tmprtr: 170.78125 degC, EngnExhstGsPrt16Tmprtr: 347.84375 degC)
 (1667769585.299434)  vcan0  18FE4AFE   [8]  E1 66 4A 12 6D 8F 8D 11 :: ETC7(TrnsmssnCrrntRngDsplBlnkStt: 1, TransmissionServiceIndicator: 0, TrnsmssnRqstdRngDsplBlnkStt: 2, TrnsmssnRqstdRngDsplFlshStt: 3, TrnsmssnRdfrBrkRls: 2, ActiveShiftConsoleIndicator: 1, TransmissionEngineCrankEnable: 2, TrnsmssnShftInhtIndtr: 1, TransmissionMode4Indicator: 2, TransmissionMode3Indicator: 2, TransmissionMode2Indicator: 0, TransmissionMode1Indicator: 1, TrnsmssnRqstdGrFdk: -107 gear value, TransmissionMode5Indicator: 1, TransmissionMode6Indicator: 3, TransmissionMode7Indicator: 2, TransmissionMode8Indicator: 1, TrnsmssnRvrsGrShftInhtStts: 3, TransmissionWarningIndicator: 3, TransmissionMode9Indicator: 0, TransmissionMode10Indicator: 2, TrnsmssnArSpplPrssrIndtr: 5, TrnsmssnAtNtrlMnlRtrnStt: 1, TransmissionManualModeIndicator: 2)
 (1667769586.299580)  vcan0  18FE99FE   [8]  58 EE 57 5D 6B D3 6C 56 :: TCI3(EngnTrhrgr1CmprssrIntkPrssr: 226.6875 kPa, EngnTrhrgr2CmprssrIntkPrssr: -63.3203125 kPa, EngnTrhrgr3CmprssrIntkPrssr: 172.8359375 kPa, EngnTrhrgr4CmprssrIntkPrssr: -77.15625 kPa)
 (1667769587.299708)  vcan0  04F032FE   [8]  6D D0 E4 23 7C 15 18 77 :: LDISP(MeasuredLinearDisplacement: 5335.700000000001 mm, LnrDsplmntSnsrSnsrFgrfMrt: 0)
 (1667769588.299909)  vcan0  18FE4FFE   [8]  15 ED C6 6F 03 AB 0A 0C :: VDC1(VDCInformationSignal: 1, VDCFullyOperational: 1, VDCbrakelightrequest: 1, ROPEngineControlactive: 1, ROPBrakeControlactive: 3, YCEngineControlactive: 2, YCBrakeControlactive: 3, TrailerVDCActive: 2)
 (1667769589.300051)  vcan0  18FE6AFE   [8]  0E E7 51 4F 68 C5 5A 18 :: EFS(EngineOilLevelRemoteReservoir: 5.6000000000000005 %, EngnFlSpplPmpIntkAsltPrssr: 462 kPa, EngnFlFltrstnsdDffrntlPrssr: 162 kPa, EngineWasteOilReservoirLevel: 31.6 %, EngineOilFilterOutletPressure: 416 kPa, EngineOilPrimingPumpSwitch: 1, EngineOilPrimingState: 1, EngineOilPreHeatedState: 0, EngineCoolantPreheatedState: 3, EngineVentilationStatus: 2, FuelPumpPrimerStatus: 3, EngnFlSpplPmpIntkPrssr: 48 kPa)
 (1667769590.300246)  vcan0  04F031FE   [8]  6C DA F3 77 FD 8D 5C 27 :: WAND(WandAngle: 47.83200000000001 deg, WandSensorFigureofMerit: 3)
 (1667769591.300426)  vcan0  0C00FEFE   [8]  C1 F0 F9 04 A6 2C 29 4F :: TSC1(EngineOverrideControlMode: 1, EngnRqstdSpdCntrlCndtns: 0, OverrideControlModePriority: 0, EngineRequestedSpeedSpeedLimit: 7998.0 rpm, EngnRqstdTrqTrqLmt: -121 %, TSC1TransmissionRate: 6, TSC1ControlPurpose: 20, EngineRequestedTorqueFractional: 1.5 %, MessageCounter: 15 count, MessageChecksum: 4 count)
 (1667769592.300619)  vcan0  18FE66FE   [8]  66 C5 D8 40 75 F3 76 4D :: BM(BatteryMainSwitchHoldState: 2)
 (1667769591.300426)  vcan0  0C00FEFE   [8]  C1 F0 F9 04 A6 2C 29 4F :: TSC1(EngineOverrideControlMode: 1, EngnRqstdSpdCntrlCndtns: 0, OverrideControlModePriority: 0, EngineRequestedSpeedSpeedLimit: 7998.0 rpm, EngnRqstdTrqTrqLmt: -121 %, TSC1TransmissionRate: 6, TSC1ControlPurpose: 20, EngineRequestedTorqueFractional: 1.5 %, MessageCounter: 15 count, MessageChecksum: 4 count)
 (1667769592.300619)  vcan0  18FE66FE   [8]  66 C5 D8 40 75 F3 76 4D :: BM(BatteryMainSwitchHoldState: 2)
 (1667769593.300860)  vcan0  0C08FEFE   [8]  8D 54 56 29 67 9F 66 69 :: AUXIO5(AuxiliaryIOChannel6: 21645 count, AuxiliaryIOChannel5: 10582 count, AuxiliaryIOChannel4: 40807 count, AuxiliaryIOChannel3: 26982 count)
 (1667769594.301048)  vcan0  0C99FEFE   [8]  62 59 F7 18 4C 55 5D 33 :: JLCM(Joystick1Lamp1Command: 2, Joystick1Lamp2Command: 0, Joystick1Lamp3Command: 2, Joystick1Lamp4Command: 1, Joystick1Lamp5Command: 1, Joystick1Lamp6Command: 2, Joystick1Lamp7Command: 1, Joystick1Lamp8Command: 1, Joystick1Lamp9Command: 3, Joystick1Lamp10Command: 1, Joystick2Lamp1Command: 3, Joystick2Lamp2Command: 3, Joystick2Lamp3Command: 0, Joystick2Lamp4Command: 2, Joystick2Lamp5Command: 1, Joystick2Lamp6Command: 0, Joystick2Lamp7Command: 0, Joystick2Lamp8Command: 3, Joystick2Lamp9Command: 0, Joystick2Lamp10Command: 1, Joystick3Lamp1Command: 1, Joystick3Lamp2Command: 1, Joystick3Lamp3Command: 1, Joystick3Lamp4Command: 1, Joystick3Lamp5Command: 1, Joystick3Lamp6Command: 3, Joystick3Lamp7Command: 1, Joystick3Lamp8Command: 1, Joystick3Lamp9Command: 3, Joystick3Lamp10Command: 0)
 (1667769595.301310)  vcan0  18FE56FE   [8]  04 7C 0F 10 2D BC A7 45 :: AT1T1I1(Aftrtrtmnt1DslExhstFldTnkVlm: 1.6 %, Atttt1DsExstFdTTpt1: 84 degC, Aftrtrtmnt1DslExhstFldTnkLvl: 411.1 mm, Atttt1DsExstFdTLvVPFMI: 13 binary, AttttDsExstFdTLwLvIdt: 1, Atttt1DsExstFdT1TptPFMI: 28 binary, AftrtrtmntSCROprtrIndmntSvrt: 5, Aftrtrtmnt1DslExhstFldTnkHtr: 66.8 %, Atttt1DsExstFdT1HtPFMI: 5 binary)
 (1667769596.301518)  vcan0  0C04FEFE   [8]  E5 84 CD 62 85 AA FF 22 :: XBR(ExternalAccelerationDemand: 0.9248164062500006 m/(s*s), XBREBIMode: 1, XBRPriority: 3, XBRControlMode: 0, XBRurgency: 39.2 %, XBRMessageCounter: 2 count, XBRMessageChecksum: 2 count)
 (1667769597.301812)  vcan0  18FEA0FE   [8]  47 CD EC 47 F3 7A E4 46 :: EPT4(EngnExhstGsPrt13Tmprtr: 1369.21875 degC, EngnExhstGsPrt14Tmprtr: 302.375 degC, EngnExhstGsPrt15Tmprtr: 710.59375 degC, EngnExhstGsPrt16Tmprtr: 294.125 degC)
 (1667769598.299353)  vcan0  18FE67FE   [8]  1E 0D E0 0C 08 68 AB 36 :: CCC(AxlrHtrMxmmOtptPwr: 6716 W)
 (1667769599.300136)  vcan0  0CD1FEFE   [8]  E3 75 1F 43 17 4F FD 05 :: ASC6(LevelPresetFrontAxleLeft: -182.0999999999999 mm, LevelPresetFrontAxleRight: -1481.6999999999998 mm, LevelPresetRearAxleLeft: -1175.3 mm, LevelPresetRearAxleRight: -3046.7 mm)
 (1667769600.300814)  vcan0  18FE97FE   [8]  F4 ED 57 73 83 29 F1 7D :: TCI5(EngnTrhrgr1TrnOtltTmprtr: 1630.625 degC, EngnTrhrgr2TrnOtltTmprtr: 649.71875 degC, EngnTrhrgr3TrnOtltTmprtr: 59.09375 degC, EngnTrhrgr4TrnOtltTmprtr: 734.53125 degC)
 (1667769601.301368)  vcan0  0CF00CFE   [8]  8C C0 7A 09 44 1A EB 02 :: ETC8(TrnsmssnTrqCnvrtrRt: 49.292 Ratio, TrnsmssnClthCnvrtrInptSpd: 303.25 rpm, TransmissionShiftInhibitReason: 68, TrnsmssnTrqCnvrtrLkpInhtRsn: 26, TrnsmssnTrqCnvrtrLkpInhtIndtr: 3)
 (1667769602.301878)  vcan0  18FE67FE   [8]  BD 44 C5 0D AA DF C3 43 :: CCC(AxlrHtrMxmmOtptPwr: 35194 W)
 (1667769603.302511)  vcan0  18FE6DFE   [8]  99 E9 8B 3B 37 34 1A 6D :: HTR(AxlrHtrOtptClntTmprtr: 113 degC, AxlrHtrInptArTmprtr: 193 degC, AxlrHtrOtptPwrPrnt: 55.6 %, AuxiliaryHeaterMode: 11, AuxiliaryHeaterWaterPumpStatus: 3, CabVentilation: 1, EngineHeatingZone: 3, CabHeatingZone: 0, ADRCompliantHeaterInstallation: 0)
 (1667769604.303295)  vcan0  18FE59FE   [8]  DD 46 49 1B 99 8D 11 06 :: ASC3(RelativeLevelFrontAxleLeft: -1385.8999999999999 mm, RelativeLevelFrontAxleRight: -2501.5 mm, RelativeLevelRearAxleLeft: 424.9000000000001 mm, RelativeLevelRearAxleRight: -3044.7 mm)
 (1667769605.303872)  vcan0  18FE90FE   [8]  9B DB A1 48 9E 09 21 16 :: unpack requires at least 264 bits to unpack (got 64)
 (1667769606.304472)  vcan0  0C00FEFE   [8]  C5 FF 87 07 83 8E EE 78 :: TSC1(EngineOverrideControlMode: 1, EngnRqstdSpdCntrlCndtns: 1, OverrideControlModePriority: 0, EngineRequestedSpeedSpeedLimit: 4351.875 rpm, EngnRqstdTrqTrqLmt: -118 %, TSC1TransmissionRate: 3, TSC1ControlPurpose: 16, EngineRequestedTorqueFractional: 1.75 %, MessageCounter: 8 count, MessageChecksum: 7 count)
 (1667769607.304956)  vcan0  18FE56FE   [8]  5B F7 DA 1C CA 5B DB 40 :: AT1T1I1(Aftrtrtmnt1DslExhstFldTnkVlm: 36.4 %, Atttt1DsExstFdTTpt1: 207 degC, Aftrtrtmnt1DslExhstFldTnkLvl: 738.6 mm, Atttt1DsExstFdTLvVPFMI: 10 binary, AttttDsExstFdTLwLvIdt: 6, Atttt1DsExstFdT1TptPFMI: 27 binary, AftrtrtmntSCROprtrIndmntSvrt: 2, Aftrtrtmnt1DslExhstFldTnkHtr: 87.60000000000001 %, Atttt1DsExstFdT1HtPFMI: 0 binary)
 (1667769608.305570)  vcan0  00F02BFE   [8]  6D 04 46 29 E8 68 BB 4D :: CN(CrashType: 65 bit-mapped, CrashCounter: 13 count, CrashChecksum: 4 count)
 (1667769609.306061)  vcan0  18FEAEFE   [8]  82 BC BB 41 CB DE DA 10 :: AIR1(PneumaticSupplyPressure: 1040 kPa, ParkingandorTrailerAirPressure: 1504 kPa, ServiceBrakeCircuit1AirPressure: 1496 kPa, ServiceBrakeCircuit2AirPressure: 520 kPa, AxlrEqpmntSpplPrssr: 1624 kPa, AirSuspensionSupplyPressure: 1776 kPa, AirCompressorStatus: 2, PwrtrnCrtArSpplPrssr: 128 kPa)
 (1667769610.306927)  vcan0  18FE5BFE   [8]  00 3A 8C 72 BF CC 32 04 :: FLI2(LaneTrackingStatusRightSide: 0, LaneTrackingStatusLeftSide: 0, LnDprtrIndtnEnlStts: 0, DriverAlertnessLevel: 23.200000000000003 %, DrvrAlrtnssWrnngSstmStt: 4, LeftWheelLaneDepartureDistance: -11 cm, RightWheelLaneDepartureDistance: 66 cm, LaneDepartureWarningSystemState: 2, ForwardLaneImagerStatus: 3)
 (1667769611.307618)  vcan0  08F02CFE   [8]  7C 45 B9 4A 4B 8D AD 0D :: MSI2(MagnetForwardCurrent: 17788 A, MagnetReverseCurrent: 185 A, MaterialLiftSwitch: 2, MaterialDropSwitch: 2, GnrtrCrrntBstAtvStts: 0, MaterialLiftActiveStatus: 1, MaterialDropActiveStatus: 3, LiftRelayControl: 2, DropRelayControl: 0, MagnetGeneratorControl: 1)
 (1667769612.308326)  vcan0  18FE51FE   [8]  9E 7D 0F 72 09 D2 72 1B :: ACC2(ACCusagedemand: 2, RequestedACCDistanceMode: 4)
 (1667769613.308997)  vcan0  04F032FE   [8]  35 A9 DC 66 A2 BB FE 56 :: LDISP(MeasuredLinearDisplacement: 4331.7 mm, LnrDsplmntSnsrSnsrFgrfMrt: 0)
 (1667769614.309836)  vcan0  18FE53FE   [8]  34 74 10 45 7F 02 48 72 :: RTC1(LwLmtThrshldfrMxmmRPMfrmRtrdr: 1664 rpm, HLtTsdMCtsRPMRtd: 3712 rpm, LwLmtThrshldfrMxmmTrqfrmRtrdr: -109 %, HLtTsdMCtsTqRtd: -56 %, MaximumContinuousRetarderSpeed: 4064 rpm, MinimumContinuousRetarderSpeed: 64 rpm, MaximumContinuousRetarderTorque: -53 %, MinimumContinuousRetarderTorque: -11 %)
 (1667769615.310261)  vcan0  0C1EFEFE   [8]  7F 94 A1 56 1A DE E9 3A :: ALTC(AltrntrStpntVltgCmmnd: 38.015 V, AltrntrExttnMxmmCrrntLmt: 40.25 A, AlternatorTorqueRampTimeCommand: 8.6 s, AltrntrTrqRmpMxmmSpdCmmnd: 832 rpm)
 (1667769616.310928)  vcan0  04F031FE   [8]  F7 70 DA 2D E0 DD 71 42 :: WAND(WandAngle: -6.161999999999999 deg, WandSensorFigureofMerit: 2)
 (1667769617.311573)  vcan0  08F02DFE   [8]  F5 F7 12 28 3B D5 4C 5F :: ACCS(LtrlAlrtnExtnddRng: 314.77 m/(s*s), LngtdnlAlrtnExtnddRng: -217.42000000000002 m/(s*s), VrtlAlrtnExtnddRng: 225.87 m/(s*s), LtrlAlrtnFgrfMrtExtnddRng: 0, LngtdnlAlrtnFgrfMrtExtnddRng: 3, VrtlAlrtnFgrfMrtExtnddRng: 0, SpptVTsssRpttRtAtSs: 1)
 (1667769618.312106)  vcan0  18FE98FE   [8]  E5 F9 2F 69 A8 D9 92 08 :: TCI4(EngnTrhrgr1TrnIntkTmprtr: 1726.15625 degC, EngnTrhrgr2TrnIntkTmprtr: 568.46875 degC, EngnTrhrgr3TrnIntkTmprtr: 1468.25 degC, EngnTrhrgr4TrnIntkTmprtr: -204.4375 degC)
 (1667769619.312834)  vcan0  0CF002FE   [8]  DE 63 F8 60 2A 96 4E 4A :: ETC1(TransmissionDrivelineEngaged: 2, TrnsmssnTrqCnvrtrLkpEnggd: 3, TransmissionShiftInProcess: 1, TrnsmssnTrqCnvrtrLkpTrnstnnPrss: 3, Transmission1OutputShaftSpeed: 7948.375 rpm, PercentClutchSlip: 38.400000000000006 %, EngineMomentaryOverspeedEnable: 2, ProgressiveShiftDisable: 2, MmntrEngnMxmmPwrEnl: 2, Transmission1InputShaftSpeed: 2514.75 rpm, SAddssCtDvTsssCt: 74 SA)
 (1667769787.386264)  vcan0  0C04FEFE   [8]  32 FD 98 4E DB C1 CC 38 :: XBR(ExternalAccelerationDemand: 15.9624140625 m/(s*s), XBREBIMode: 0, XBRPriority: 2, XBRControlMode: 1, XBRurgency: 31.200000000000003 %, XBRMessageCounter: 8 count, XBRMessageChecksum: 3 count)
 (1667769788.386474)  vcan0  18FEA4FE   [8]  5E AF 98 0D 66 10 14 01 :: ET2(EngineOilTemperature2: 1129.9375 degC, EngineECUTemperature: -164.25 degC, EngnExhstGsRrltn1DffrntlPrssr: -217.203125 kPa, EngnExhstGsRrltn1Tmprtr: -264.375 degC)
 (1667769789.387180)  vcan0  18FE66FE   [8]  7F 2B 23 69 A7 4B 88 78 :: BM(BatteryMainSwitchHoldState: 3)
 (1667769790.387726)  vcan0  18FE50FE   [8]  71 2B 1D 1D 8D 2C 5F 34 :: BT1(SLIBattery1Temperature: 73 degC, SLIBattery2Temperature: 3 degC, SLIBattery3Temperature: -11 degC, SLIBattery4Temperature: -11 degC)
 (1667769791.388120)  vcan0  18FE6DFE   [8]  31 5C B2 1B 06 66 21 60 :: HTR(AxlrHtrOtptClntTmprtr: 9 degC, AxlrHtrInptArTmprtr: 52 degC, AxlrHtrOtptPwrPrnt: 71.2 %, AuxiliaryHeaterMode: 11, AuxiliaryHeaterWaterPumpStatus: 2, CabVentilation: 1, EngineHeatingZone: 0, CabHeatingZone: 0, ADRCompliantHeaterInstallation: 2)
 (1667769792.388550)  vcan0  08F02CFE   [8]  A8 FB B6 2F C2 20 30 3B :: MSI2(MagnetForwardCurrent: 64424 A, MagnetReverseCurrent: 182 A, MaterialLiftSwitch: 3, MaterialDropSwitch: 3, GnrtrCrrntBstAtvStts: 2, MaterialLiftActiveStatus: 0, MaterialDropActiveStatus: 2, LiftRelayControl: 0, DropRelayControl: 0, MagnetGeneratorControl: 3)
 (1667769793.389226)  vcan0  18FE51FE   [8]  5B 64 9C 0E 32 6D 20 57 :: ACC2(ACCusagedemand: 3, RequestedACCDistanceMode: 2)
 (1667769794.389777)  vcan0  0CD1FEFE   [8]  10 AC FD 4F 75 A9 A4 0B :: ASC6(LevelPresetFrontAxleLeft: 1204.8000000000002 mm, LevelPresetFrontAxleRight: -1152.3 mm, LevelPresetRearAxleLeft: 1138.1000000000004 mm, LevelPresetRearAxleRight: -2902.0 mm)
 (1667769795.390143)  vcan0  18FE4CFE   [8]  7C F7 FE 69 40 B9 EA 12 :: ML(RearBlackOutMarkerSelect: 0, FrontBlackOutMarkerLampSelect: 3, ConvoyLampSelect: 3, ConvoyDrivingLampSelect: 1, BlackOutBrakeStopLampSelect: 3, NightVisionIlluminatorSelect: 1, BlackOutWorkLampSelect: 1, OprtrsBlkOtIntnstSltn: 7.2 %)
 (1667769796.390387)  vcan0  18FEBFFE   [8]  12 91 B3 2C BF FA 4E 5F :: EBC2(FrontAxleSpeed: 145.0703125 km/h, RelativeSpeedFrontAxleLeftWheel: 3.375 km/h, RltvSpdFrntAxlRghtWhl: -5.0625 km/h, RelativeSpeedRearAxle1LeftWheel: 4.125 km/h, RltvSpdRrAxl1RghtWhl: 7.8125 km/h, RelativeSpeedRearAxle2LeftWheel: -2.9375 km/h, RltvSpdRrAxl2RghtWhl: -1.875 km/h)
 (1667769797.390755)  vcan0  0C0DFEFE   [8]  9C 74 5F 29 F1 F7 E7 2D :: TC2(TransmissionMode9: 0, TransmissionMode10: 3)
 (1667769798.391364)  vcan0  18FE54FE   [8]  E3 86 35 07 50 A7 80 3B :: ECT1(ELwLtTsdMxRPME: 7264 rpm, EHLtTsdMCtsERPM: 4288 rpm, ELwLtTsdMxTqE: -72 %, EHLtTsdMCtsTqE: -118 %, EngineMaximumContinuousRPM: 2560 rpm, EngineMinimumContinuousRPM: 5344 rpm, EngineMaximumContinuousTorque: 3 %, EngineMinimumContinuousTorque: -66 %)
 (1667769799.391695)  vcan0  0C1CFEFE   [8]  14 09 A5 5B CF D2 A3 24 :: TC3(TransmissionOverrideControlMode: 0, TrnsmssnOvrrdCntrlMdPrrt: 1, MessageCounter: 1 count, TrnsmssnRqstdOtptShftSpd: 2530.5 rpm, TrnsmssnRqstdTrqTrqLmt: -34 %, MessageChecksum: 36 count)
 (1667769800.392440)  vcan0  18FEADFE   [8]  6B BE AC 6E 40 FE C0 41 :: EBC3(BApptPssHRFtAxLtW: 535 kPa, BApptPssHRFtAxRtW: 950 kPa, BApptPssHRRAx1LtW: 860 kPa, BApptPssHRRAx1RtW: 550 kPa, BApptPssHRRAx2LtW: 320 kPa, BApptPssHRRAx2RtW: 1270 kPa, BApptPssHRRAx3LtW: 960 kPa, BApptPssHRRAx3RtW: 325 kPa)
 (1667769801.393065)  vcan0  0CD1FEFE   [8]  F2 AC E8 46 71 5A 73 5D :: ASC6(LevelPresetFrontAxleLeft: 1227.4000000000005 mm, LevelPresetFrontAxleRight: -1384.8 mm, LevelPresetRearAxleLeft: -884.6999999999998 mm, LevelPresetRearAxleRight: -807.6999999999998 mm)
 (1667769802.393855)  vcan0  18FEBFFE   [8]  86 AA 63 48 1A 56 2A 0D :: EBC2(FrontAxleSpeed: 170.5234375 km/h, RelativeSpeedFrontAxleLeftWheel: -1.625 km/h, RltvSpdFrntAxlRghtWhl: -3.3125 km/h, RelativeSpeedRearAxle1LeftWheel: -6.1875 km/h, RltvSpdRrAxl1RghtWhl: -2.4375 km/h, RelativeSpeedRearAxle2LeftWheel: -5.1875 km/h, RltvSpdRrAxl2RghtWhl: -7.0 km/h)
 (1667769803.394543)  vcan0  0C0BFEFE   [8]  3E 1C 5A 78 75 BA C6 1B :: AEBS2(DvtvtddAdvdEBSst: 2, AEBS2messageCounter: 11 count, AEBS2messagechecksum: 1 count)
 (1667769804.394914)  vcan0  18FE99FE   [8]  73 C8 DD 20 85 66 C4 6B :: TCI3(EngnTrhrgr1CmprssrIntkPrssr: 150.8984375 kPa, EngnTrhrgr2CmprssrIntkPrssr: -184.2734375 kPa, EngnTrhrgr3CmprssrIntkPrssr: -44.9609375 kPa, EngnTrhrgr4CmprssrIntkPrssr: -34.46875 kPa)
 (1667769805.395276)  vcan0  08F062FE   [8]  B7 23 4E 00 01 5E C3 55 :: ETC12(TrnsmssnHdrsttLp1Prssr: 9143 kPa, TrnsmssnHdrsttLp2Prssr: 78 kPa, TrnsmssnDrtnlOtptShftSpd: -8062 rpm, TrnsmssnIntrmdtShftSpd: 2744.375 rpm)
 (1667769806.395800)  vcan0  0CD1FEFE   [8]  22 DC 1F 3D 13 EF 76 02 :: ASC6(LevelPresetFrontAxleLeft: 2435.4000000000005 mm, LevelPresetFrontAxleRight: -1635.3 mm, LevelPresetRearAxleLeft: 2920.3 mm, LevelPresetRearAxleRight: -3137.0 mm)
 (1667769807.396188)  vcan0  18FE6AFE   [8]  C2 A8 05 02 B0 63 D6 2B :: EFS(EngineOilLevelRemoteReservoir: 77.60000000000001 %, EngnFlSpplPmpIntkAsltPrssr: 336 kPa, EngnFlFltrstnsdDffrntlPrssr: 10 kPa, EngineWasteOilReservoirLevel: 0.8 %, EngineOilFilterOutletPressure: 704 kPa, EngineOilPrimingPumpSwitch: 3, EngineOilPrimingState: 0, EngineOilPreHeatedState: 2, EngineCoolantPreheatedState: 1, EngineVentilationStatus: 6, FuelPumpPrimerStatus: 2, EngnFlSpplPmpIntkPrssr: 86 kPa)
 (1667769808.396435)  vcan0  0CD2FEFE   [8]  3D 37 B8 7F 93 EA 0B 33 :: ASC2(Atmttrtnhlpldtrnsfr: 1, KneelingRequestLeftSide: 3, KneelingRequestRightSide: 3, KneelingControlModeRequest: 0, NominalLevelRequestFrontAxle: 7, NominalLevelRequestRearAxle: 3, LevelControlModeRequest: 8, LiftAxle1PositionCommand: 3, LiftAxle2PositionCommand: 2, DamperStiffnessRequestFrontAxle: 50.800000000000004 %, DamperStiffnessRequestRearAxle: 58.800000000000004 %, DmprStffnssRqstLftTgAxl: 93.60000000000001 %, KneelingCommandFrontAxle: 3, KneelingCommandRearAxle: 2, Prohibitairsuspensioncontrol: 0, AllwLvlCntrlDrngBrkngCmmnd: 0, SpdDpndntLvlCntrlRqst: 3, PrhtAtmtArSspnsnCntrl: 0, Memorylevelrequest: 3)
 (1667769809.396688)  vcan0  18FE4FFE   [8]  1E D6 7E 7E A7 F3 B0 0E :: VDC1(VDCInformationSignal: 2, VDCFullyOperational: 3, VDCbrakelightrequest: 1, ROPEngineControlactive: 2, ROPBrakeControlactive: 1, YCEngineControlactive: 1, YCBrakeControlactive: 3, TrailerVDCActive: 2)
 (1667769810.396994)  vcan0  18FEA4FE   [8]  A7 C0 CD 75 12 B2 5D 7D :: ET2(EngineOilTemperature2: 1268.21875 degC, EngineECUTemperature: 669.40625 degC, EngnExhstGsRrltn1DffrntlPrssr: 106.140625 kPa, EngnExhstGsRrltn1Tmprtr: 729.90625 degC)
 (1667769811.397613)  vcan0  18FEA4FE   [8]  BC D7 7B 21 05 5F 46 44 :: ET2(EngineOilTemperature2: 1452.875 degC, EngineECUTemperature: -5.15625 degC, EngnExhstGsRrltn1DffrntlPrssr: -59.9609375 kPa, EngnExhstGsRrltn1Tmprtr: 273.1875 degC)
 (1667769812.397969)  vcan0  0CF003FE   [8]  D8 54 4B 2D 8B 09 AA 0C :: EEC2(AcceleratorPedal1LowIdleSwitch: 0, AcceleratorPedalKickdownSwitch: 2, RoadSpeedLimitStatus: 1, AcceleratorPedal2LowIdleSwitch: 3, AcceleratorPedalPosition1: 33.6 %, EnginePercentLoadAtCurrentSpeed: 75 %, RemoteAcceleratorPedalPosition: 18.0 %, AcceleratorPedal2Position: 55.6 %, VhlAlrtnRtLmtStts: 1, MmntrEngnMxmmPwrEnlFdk: 2, DPFThermalManagementActive: 0, SCRThermalManagementActive: 0, AtlMxmmAvllEngnPrntTrq: 68.0 %, EstimatedPumpingPercentTorque: -113 %)
 (1667769813.398559)  vcan0  18FE9CFE   [8]  B6 F2 4A 74 C9 25 04 05 :: MBT3(EngineMainBearing9Temperature: 1668.6875 degC, EngineMainBearing10Temperature: 657.3125 degC, EngineMainBearing11Temperature: 29.28125 degC, EngineMainBearing12Temperature: -232.875 degC)
 (1667769814.399058)  vcan0  18FE50FE   [8]  C6 FD 6A 12 3D EE E1 25 :: BT1(SLIBattery1Temperature: 158 degC, SLIBattery2Temperature: 213 degC, SLIBattery3Temperature: 66 degC, SLIBattery4Temperature: -22 degC)
 (1667769815.399818)  vcan0  18FE55FE   [8]  4C B2 2F 3C F4 11 30 26 :: GFD(SpecificHeatRatio: 45.644 Ratio, ReferenceEngineGasMassFlowRate: 770.35 kg/h, Fuelenergycontent: 17.953125 MJ/(Nm*Nm*Nm))
 (1667771747.373084)  vcan0  18FE70FE   [8]  7D C0 EC 24 B2 E7 68 68 :: CVW(PoweredVehicleWeight: 492770 kg, GrossCombinationVehicleWeight: 94520 kg)
 (1667771748.373321)  vcan0  18FE9EFE   [8]  1E 81 AF 00 5A 3E 01 64 :: MBT1(EngineMainBearing1Temperature: 759.9375 degC, EngineMainBearing2Temperature: -267.53125 degC, EngineMainBearing3Temperature: 225.8125 degC, EngineMainBearing4Temperature: 527.03125 degC)
 (1667771749.373557)  vcan0  08F02CFE   [8]  00 19 58 76 2A CE 7D 1E :: MSI2(MagnetForwardCurrent: 6400 A, MagnetReverseCurrent: 88 A, MaterialLiftSwitch: 2, MaterialDropSwitch: 1, GnrtrCrrntBstAtvStts: 3, MaterialLiftActiveStatus: 1, MaterialDropActiveStatus: 2, LiftRelayControl: 2, DropRelayControl: 2, MagnetGeneratorControl: 0)
 (1667771750.373917)  vcan0  0CD2FEFE   [8]  B5 CF CC 14 F2 4C 37 49 :: ASC2(Atmttrtnhlpldtrnsfr: 1, KneelingRequestLeftSide: 1, KneelingRequestRightSide: 3, KneelingControlModeRequest: 2, NominalLevelRequestFrontAxle: 15, NominalLevelRequestRearAxle: 12, LevelControlModeRequest: 12, LiftAxle1PositionCommand: 0, LiftAxle2PositionCommand: 3, DamperStiffnessRequestFrontAxle: 8.0 %, DamperStiffnessRequestRearAxle: 96.80000000000001 %, DmprStffnssRqstLftTgAxl: 30.400000000000002 %, KneelingCommandFrontAxle: 3, KneelingCommandRearAxle: 1, Prohibitairsuspensioncontrol: 3, AllwLvlCntrlDrngBrkngCmmnd: 0, SpdDpndntLvlCntrlRqst: 1, PrhtAtmtArSspnsnCntrl: 2, Memorylevelrequest: 4)
 (1667771751.374557)  vcan0  0C01FEFE   [8]  BB 68 C5 34 2B 63 C0 20 :: TC1(TrnsmssnGrShftInhtRqst: 3, TrnsmssnTrqCnvrtrLkpRqst: 2, DisengageDrivelineRequest: 3, TrnsmssnRvrsGrShftInhtRqst: 2, RequestedPercentClutchSlip: 41.6 %, TransmissionRequestedGear: 72 gear value, DsnggDffrntlLkRqstFrntAxl1: 0, DsnggDffrntlLkRqstFrntAxl2: 1, DsnggDffrntlLkRqstRrAxl1: 3, DsnggDffrntlLkRqstRrAxl2: 0, DsnggDffrntlLkRqstCntrl: 3, DsnggDffrntlLkRqstCntrlFrnt: 2, DsnggDffrntlLkRqstCntrlRr: 2, TrnsmssnLdRdtnInhtRqst: 0, TransmissionMode1: 3, TransmissionMode2: 0, TransmissionMode3: 2, TransmissionMode4: 1, TrnsmssnAtNtrlMnlRtrnRqst: 0, TransmissionRequestedLaunchGear: 0, TrnsmssnShftSltrDsplMdSwth: 3, TransmissionMode5: 0, TransmissionMode6: 0, TransmissionMode7: 2, TransmissionMode8: 0)
 (1667771752.375218)  vcan0  0C0BFEFE   [8]  98 CD 5F 5A 86 B9 33 46 :: AEBS2(DvtvtddAdvdEBSst: 0, AEBS2messageCounter: 6 count, AEBS2messagechecksum: 4 count)
 (1667771753.375799)  vcan0  0CF014FE   [8]  2C F1 28 50 A2 7C E6 5C :: BI(RelativeBladeHeight: 2974.0 mm, BladeRotationAngle: -39.6875 deg, RtvBdHtdBdRttAMstLt: 81.0 ms, RltvBldHghtFgrfMrt: 0, BladeRotationAngleFigureofMerit: 3)
 (1667771754.376426)  vcan0  0CF015FE   [8]  28 E5 BD 49 A1 64 72 55 :: RGTACRP(RqstdGnrtrTtlACRtvPwr: -762818264 VA, RqstdGnrtrOvrllPwrFtr: 0.57232666015625, RqstdGnrtrOvrllPwrFtrLggng: 2)
 (1667771755.377073)  vcan0  0C1EFEFE   [8]  D8 08 66 38 BF FC 53 1B :: ALTC(AltrntrStpntVltgCmmnd: 2.2640000000000002 V, AltrntrExttnMxmmCrrntLmt: 25.5 A, AlternatorTorqueRampTimeCommand: 5.6000000000000005 s, AltrntrTrqRmpMxmmSpdCmmnd: 6112 rpm)
 (1667771756.377584)  vcan0  18FE96FE   [8]  09 4E A6 09 25 67 7A 66 :: TCW(EngnTrhrgrWstgtAttr1Pstn: 3.6 %, EngnTrhrgrWstgtAttr2Pstn: 31.200000000000003 %, EngnTrhrgrWstgtAttr3Pstn: 66.4 %, EngnTrhrgrWstgtAttr4Pstn: 3.6 %, EngnTrhrgrWstgtAttrCntrlArPrssr: 148 kPa, EngnTrhrgrWstgtAttr1DsrdPstn: 41.2 %, EngnTrhrgrWstgtAttr1PrlmnrFMI: 26 binary, EngnTrhrgrWstgtAttr1TmprtrStts: 3, EngnTrhrgrWstgtAttr2DsrdPstn: 40.800000000000004 %)
 (1667771757.378282)  vcan0  18FE9DFE   [8]  A1 AA 38 65 A2 27 67 0B :: MBT2(EngineMainBearing5Temperature: 1092.03125 degC, EngineMainBearing6Temperature: 536.75 degC, EngineMainBearing7Temperature: 44.0625 degC, EngineMainBearing8Temperature: -181.78125 degC)
 (1667771758.383779)  vcan0  18FEA4FE   [8]  45 53 22 57 C0 A8 16 0C :: ET2(EngineOilTemperature2: 393.15625 degC, EngineECUTemperature: 424.0625 degC, EngnExhstGsRrltn1DffrntlPrssr: 87.5 kPa, EngnExhstGsRrltn1Tmprtr: -176.3125 degC)
 (1667771759.384325)  vcan0  00F02BFE   [8]  58 0A 0E 10 C0 C1 6E 02 :: CN(CrashType: 120 bit-mapped, CrashCounter: 2 count, CrashChecksum: 0 count)
 (1667771760.384607)  vcan0  0C08FEFE   [8]  AF 55 F9 2A 75 91 3B 17 :: AUXIO5(AuxiliaryIOChannel6: 21935 count, AuxiliaryIOChannel5: 11001 count, AuxiliaryIOChannel4: 37237 count, AuxiliaryIOChannel3: 5947 count)
 (1667771761.385150)  vcan0  18FEC1FE   [8]  B8 CC 44 7C 30 FA 00 4C :: VDHR(TtlVhlDstnHghRsltn: 10424418200 m, TripDistanceHighResolution: 6375662320 m)
 (1667771762.385407)  vcan0  0C00FEFE   [8]  F7 15 00 36 C9 C7 60 26 :: TSC1(EngineOverrideControlMode: 3, EngnRqstdSpdCntrlCndtns: 1, OverrideControlModePriority: 3, EngineRequestedSpeedSpeedLimit: 2.625 rpm, EngnRqstdTrqTrqLmt: -71 %, TSC1TransmissionRate: 1, TSC1ControlPurpose: 25, EngineRequestedTorqueFractional: 0.875 %, MessageCounter: 6 count, MessageChecksum: 2 count)
 (1667771763.385797)  vcan0  0CF014FE   [8]  B5 5B 73 69 F5 B8 89 76 :: BI(RelativeBladeHeight: -852.2999999999997 mm, BladeRotationAngle: 10.8984375 deg, RtvBdHtdBdRttAMstLt: 122.5 ms, RltvBldHghtFgrfMrt: 0, BladeRotationAngleFigureofMerit: 2)
 (1667771764.386510)  vcan0  00F02BFE   [8]  44 B6 18 0B 1E 9E 47 40 :: CN(CrashType: 20 bit-mapped, CrashCounter: 0 count, CrashChecksum: 4 count)
 (1667771765.386777)  vcan0  18FE9AFE   [8]  98 90 C2 46 F6 A6 AD 78 :: TCI2(EngnTrhrgr1CmprssrIntkTmprtr: 883.75 degC, EngnTrhrgr2CmprssrIntkTmprtr: 293.0625 degC, EngnTrhrgr3CmprssrIntkTmprtr: 1062.6875 degC, EngnTrhrgr4CmprssrIntkTmprtr: 692.40625 degC)
 (1667771766.387380)  vcan0  18FE66FE   [8]  95 E8 AB 10 FF F4 53 02 :: BM(BatteryMainSwitchHoldState: 1)
 (1667771767.387721)  vcan0  18FEA4FE   [8]  79 59 8F 26 A1 9F 8C 67 :: ET2(EngineOilTemperature2: 442.78125 degC, EngineECUTemperature: 35.46875 degC, EngnExhstGsRrltn1DffrntlPrssr: 69.2578125 kPa, EngnExhstGsRrltn1Tmprtr: 555.375 degC)
 (1667771768.387900)  vcan0  18FE51FE   [8]  0F B2 DB 24 E6 F2 AE 3E :: ACC2(ACCusagedemand: 3, RequestedACCDistanceMode: 0)
 (1667771769.388122)  vcan0  0CF003FE   [8]  FF 48 29 07 3F FD BC 4E :: EEC2(AcceleratorPedal1LowIdleSwitch: 3, AcceleratorPedalKickdownSwitch: 3, RoadSpeedLimitStatus: 3, AcceleratorPedal2LowIdleSwitch: 3, AcceleratorPedalPosition1: 28.8 %, EnginePercentLoadAtCurrentSpeed: 41 %, RemoteAcceleratorPedalPosition: 2.8000000000000003 %, AcceleratorPedal2Position: 25.200000000000003 %, VhlAlrtnRtLmtStts: 1, MmntrEngnMxmmPwrEnlFdk: 3, DPFThermalManagementActive: 3, SCRThermalManagementActive: 3, AtlMxmmAvllEngnPrntTrq: 75.2 %, EstimatedPumpingPercentTorque: -47 %)
 (1667771770.388338)  vcan0  18FE70FE   [8]  1A AE F4 07 EE 52 B6 79 :: CVW(PoweredVehicleWeight: 445700 kg, GrossCombinationVehicleWeight: 20360 kg)
 (1667771771.388635)  vcan0  18FEC1FE   [8]  28 60 F7 51 A6 1F FB 75 :: VDHR(TtlVhlDstnHghRsltn: 6875832520 m, TripDistanceHighResolution: 9896959550 m)
 (1667771772.389322)  vcan0  18FE96FE   [8]  60 75 BA 3C 9D 35 FB 2B :: TCW(EngnTrhrgrWstgtAttr1Pstn: 38.400000000000006 %, EngnTrhrgrWstgtAttr2Pstn: 46.800000000000004 %, EngnTrhrgrWstgtAttr3Pstn: 74.4 %, EngnTrhrgrWstgtAttr4Pstn: 24.0 %, EngnTrhrgrWstgtAttrCntrlArPrssr: 628 kPa, EngnTrhrgrWstgtAttr1DsrdPstn: 21.200000000000003 %, EngnTrhrgrWstgtAttr1PrlmnrFMI: 27 binary, EngnTrhrgrWstgtAttr1TmprtrStts: 7, EngnTrhrgrWstgtAttr2DsrdPstn: 17.2 %)
 (1667771773.389771)  vcan0  0CD2FEFE   [8]  1F 44 B1 6D 53 91 6E 15 :: ASC2(Atmttrtnhlpldtrnsfr: 3, KneelingRequestLeftSide: 3, KneelingRequestRightSide: 1, KneelingControlModeRequest: 0, NominalLevelRequestFrontAxle: 4, NominalLevelRequestRearAxle: 4, LevelControlModeRequest: 1, LiftAxle1PositionCommand: 3, LiftAxle2PositionCommand: 2, DamperStiffnessRequestFrontAxle: 43.6 %, DamperStiffnessRequestRearAxle: 33.2 %, DmprStffnssRqstLftTgAxl: 58.0 %, KneelingCommandFrontAxle: 2, KneelingCommandRearAxle: 3, Prohibitairsuspensioncontrol: 2, AllwLvlCntrlDrngBrkngCmmnd: 1, SpdDpndntLvlCntrlRqst: 1, PrhtAtmtArSspnsnCntrl: 1, Memorylevelrequest: 1)
 (1667771774.390007)  vcan0  0C09FEFE   [8]  7F 8F 8E 7B 97 47 87 20 :: SRASI(StaticRollAngle: 2 deg, StaticRollAngleStatus: 7)
 (1667771784.392566)  vcan0  0CF00CFE   [8]  0D DB 32 2F 8E 6C 70 4A :: ETC8(TrnsmssnTrqCnvrtrRt: 56.077 Ratio, TrnsmssnClthCnvrtrInptSpd: 1510.25 rpm, TransmissionShiftInhibitReason: 142, TrnsmssnTrqCnvrtrLkpInhtRsn: 108, TrnsmssnTrqCnvrtrLkpInhtIndtr: 0)
 (1667771785.392788)  vcan0  0C1DFEFE   [8]  97 2B AC 6E 0F AC 4E 29 :: EIC(EngineTimingAdvance: -112.8203125 deg)
 (1667771786.393385)  vcan0  0C1DFEFE   [8]  17 23 D3 26 51 98 D0 06 :: EIC(EngineTimingAdvance: -129.8203125 deg)
 (1667771787.393929)  vcan0  0CF002FE   [8]  96 0F 4E 61 79 98 70 49 :: ETC1(TransmissionDrivelineEngaged: 2, TrnsmssnTrqCnvrtrLkpEnggd: 1, TransmissionShiftInProcess: 1, TrnsmssnTrqCnvrtrLkpTrnstnnPrss: 2, Transmission1OutputShaftSpeed: 2497.875 rpm, PercentClutchSlip: 38.800000000000004 %, EngineMomentaryOverspeedEnable: 1, ProgressiveShiftDisable: 2, MmntrEngnMxmmPwrEnl: 3, Transmission1InputShaftSpeed: 3603.0 rpm, SAddssCtDvTsssCt: 73 SA)
 (1667771788.394233)  vcan0  18FEA0FE   [8]  B7 9B 55 03 29 D4 95 7C :: EPT4(EngnExhstGsPrt13Tmprtr: 972.71875 degC, EngnExhstGsPrt14Tmprtr: -246.34375 degC, EngnExhstGsPrt15Tmprtr: 1424.28125 degC, EngnExhstGsPrt16Tmprtr: 723.65625 degC)
 (1667771789.394766)  vcan0  18FE67FE   [8]  BE 1A 0C 64 21 F4 56 2C :: CCC(AxlrHtrMxmmOtptPwr: 13692 W)
 (1667771790.395219)  vcan0  18FE58FE   [8]  04 97 7F 13 21 BA 22 5B :: ASC4(BellowPressureFrontAxleLeft: 3866.0 kPa, BellowPressureFrontAxleRight: 499.1 kPa, BellowPressureRearAxleLeft: 4764.900000000001 kPa, BellowPressureRearAxleRight: 2333.0 kPa)
 (1667771791.395838)  vcan0  18FE4EFE   [8]  38 66 A9 3C 9E B7 34 20 :: DC1(Positionofdoors: 8, RampWheelChairLiftPosition: 3, Status2ofdoors: 0)
 (1667771792.396599)  vcan0  18FE4CFE   [8]  12 55 CE 5B C8 E6 8D 47 :: ML(RearBlackOutMarkerSelect: 2, FrontBlackOutMarkerLampSelect: 0, ConvoyLampSelect: 1, ConvoyDrivingLampSelect: 0, BlackOutBrakeStopLampSelect: 3, NightVisionIlluminatorSelect: 3, BlackOutWorkLampSelect: 1, OprtrsBlkOtIntnstSltn: 28.400000000000002 %)
 (1667771793.397202)  vcan0  18FE9EFE   [8]  8A 79 EE 26 69 0F 8F 77 :: MBT1(EngineMainBearing1Temperature: 699.3125 degC, EngineMainBearing2Temperature: 38.4375 degC, EngineMainBearing3Temperature: -149.71875 degC, EngineMainBearing4Temperature: 683.46875 degC)
 (1667771794.397872)  vcan0  0C1DFEFE   [8]  55 2F 7D 07 76 EA C1 26 :: EIC(EngineTimingAdvance: -105.3359375 deg)
 (1667771795.398275)  vcan0  18FE99FE   [8]  B8 2C 93 08 0D 16 6E 15 :: TCI3(EngnTrhrgr1CmprssrIntkPrssr: -160.5625 kPa, EngnTrhrgr2CmprssrIntkPrssr: -232.8515625 kPa, EngnTrhrgr3CmprssrIntkPrssr: -205.8984375 kPa, EngnTrhrgr4CmprssrIntkPrssr: -207.140625 kPa)
 (1667771796.399251)  vcan0  18FE59FE   [8]  4A 02 F3 70 24 39 41 3C :: ASC3(RelativeLevelFrontAxleLeft: -3141.4 mm, RelativeLevelFrontAxleRight: -308.5 mm, RelativeLevelRearAxleLeft: -1737.1999999999998 mm, RelativeLevelRearAxleRight: -1657.5 mm)
 (1667771797.400177)  vcan0  18FE99FE   [8]  A1 98 48 51 BB 48 8F 1D :: TCI3(EngnTrhrgr1CmprssrIntkPrssr: 55.2578125 kPa, EngnTrhrgr2CmprssrIntkPrssr: -87.4375 kPa, EngnTrhrgr3CmprssrIntkPrssr: -104.5390625 kPa, EngnTrhrgr4CmprssrIntkPrssr: -190.8828125 kPa)
 (1667771798.400699)  vcan0  18FE8DFE   [8]  36 49 23 50 72 E4 E4 20 :: VEP2(BatteryPotentialPowerInput2: 937.1 V, ECUPowerOutputSupplyVoltage1: 1025.75 V, ECUPowerOutputSupplyVoltage2: 2924.1000000000004 V, ECUPowerOutputSupplyVoltage3: 421.0 V)
 (1667771799.401304)  vcan0  18FE67FE   [8]  18 C6 5E 12 30 FF F0 04 :: CCC(AxlrHtrMxmmOtptPwr: 101424 W)
 (1667771800.402066)  vcan0  0C1EFEFE   [8]  46 58 24 1F 34 96 70 18 :: ALTC(AltrntrStpntVltgCmmnd: 22.598 V, AltrntrExttnMxmmCrrntLmt: 9.0 A, AlternatorTorqueRampTimeCommand: 3.1 s, AltrntrTrqRmpMxmmSpdCmmnd: 1664 rpm)
 (1667771801.402923)  vcan0  18FE9EFE   [8]  DC AD 68 7E 6C FC 19 55 :: MBT1(EngineMainBearing1Temperature: 1117.875 degC, EngineMainBearing2Temperature: 738.25 degC, EngineMainBearing3Temperature: 1746.375 degC, EngineMainBearing4Temperature: 407.78125 degC)
 (1667771802.403384)  vcan0  18FE67FE   [8]  00 27 23 02 7E 51 E8 30 :: CCC(AxlrHtrMxmmOtptPwr: 19968 W)
 (1667771803.404036)  vcan0  18FE54FE   [8]  14 39 0E 67 09 CB D6 57 :: ECT1(ELwLtTsdMxRPME: 640 rpm, EHLtTsdMCtsERPM: 1824 rpm, ELwLtTsdMxTqE: -111 %, EHLtTsdMCtsTqE: -22 %, EngineMaximumContinuousRPM: 288 rpm, EngineMinimumContinuousRPM: 6496 rpm, EngineMaximumContinuousTorque: 89 %, EngineMinimumContinuousTorque: -38 %)
 (1667771804.404802)  vcan0  18FE69FE   [8]  37 28 DB 1A 5E FA 53 5F :: ET3(EngnIntkMnfld1TmprtrHghRsltn: 48.71875 degC, EngnClntTmprtrHghRsltn: -58.15625 degC, EngnIntkVlvAttnSstmOlTmprtr: 1729.9375 degC, EngnChrgArClr1OtltTmprtr: 489.59375 degC)
 (1667771805.405420)  vcan0  18FE54FE   [8]  E7 83 18 19 16 27 E7 67 :: ECT1(ELwLtTsdMxRPME: 7392 rpm, EHLtTsdMCtsERPM: 4192 rpm, ELwLtTsdMxTqE: -101 %, EHLtTsdMCtsTqE: -100 %, EngineMaximumContinuousRPM: 704 rpm, EngineMinimumContinuousRPM: 1248 rpm, EngineMaximumContinuousTorque: 106 %, EngineMinimumContinuousTorque: -22 %)
 (1667771806.406012)  vcan0  0CF003FE   [8]  A7 8B A4 40 60 29 DA 58 :: EEC2(AcceleratorPedal1LowIdleSwitch: 3, AcceleratorPedalKickdownSwitch: 1, RoadSpeedLimitStatus: 2, AcceleratorPedal2LowIdleSwitch: 2, AcceleratorPedalPosition1: 55.6 %, EnginePercentLoadAtCurrentSpeed: 164 %, RemoteAcceleratorPedalPosition: 25.6 %, AcceleratorPedal2Position: 38.400000000000006 %, VhlAlrtnRtLmtStts: 1, MmntrEngnMxmmPwrEnlFdk: 2, DPFThermalManagementActive: 2, SCRThermalManagementActive: 0, AtlMxmmAvllEngnPrntTrq: 87.2 %, EstimatedPumpingPercentTorque: -37 %)
 (1667771807.406823)  vcan0  0C0AFEFE   [8]  B7 2B 01 6F 01 C2 22 2A :: CCVS2(CruiseControlDisableCommand: 3, CruiseControlResumeCommand: 1, CruiseControlPauseCommand: 3, CruiseControlSetCommand: 2, IdleSpeedRequest: 37.375 rpm, IdleControlEnableState: 3, IdleControlRequestActivation: 3, RemoteRoadSpeedLimitRequest: 1 km/h)
 (1667771808.407544)  vcan0  0CF003FE   [8]  41 64 CE 66 37 0B 46 7A :: EEC2(AcceleratorPedal1LowIdleSwitch: 1, AcceleratorPedalKickdownSwitch: 0, RoadSpeedLimitStatus: 0, AcceleratorPedal2LowIdleSwitch: 1, AcceleratorPedalPosition1: 40.0 %, EnginePercentLoadAtCurrentSpeed: 206 %, RemoteAcceleratorPedalPosition: 40.800000000000004 %, AcceleratorPedal2Position: 22.0 %, VhlAlrtnRtLmtStts: 3, MmntrEngnMxmmPwrEnlFdk: 2, DPFThermalManagementActive: 0, SCRThermalManagementActive: 0, AtlMxmmAvllEngnPrntTrq: 28.0 %, EstimatedPumpingPercentTorque: -3 %)
 (1667771809.407864)  vcan0  18FE8FFE   [8]  F3 70 31 5B 4F D1 A4 0C :: SP2(EngnExtrnlShtdwnArSpplPrssr: 14457.5 kPa)
 (1667771810.408501)  vcan0  0C04FEFE   [8]  C7 71 EB 7B 96 29 C9 2B :: XBR(ExternalAccelerationDemand: -1.4648320312499994 m/(s*s), XBREBIMode: 3, XBRPriority: 2, XBRControlMode: 2, XBRurgency: 49.2 %, XBRMessageCounter: 11 count, XBRMessageChecksum: 2 count)
 (1667771811.408844)  vcan0  18FED5FE   [8]  BB 2C C8 77 72 D7 31 2A :: AS(AlternatorSpeed: 5725.5 rpm, Alternator1Status: 0, Alternator2Status: 2, Alternator3Status: 0, Alternator4Status: 3)
 (1667771812.409213)  vcan0  0C04FEFE   [8]  4E 9F D9 13 72 FE 54 2C :: XBR(ExternalAccelerationDemand: 4.226085937500001 m/(s*s), XBREBIMode: 1, XBRPriority: 2, XBRControlMode: 1, XBRurgency: 7.6000000000000005 %, XBRMessageCounter: 12 count, XBRMessageChecksum: 2 count)
 (1667771813.409523)  vcan0  18FEADFE   [8]  A9 F8 78 77 87 37 63 13 :: EBC3(BApptPssHRFtAxLtW: 845 kPa, BApptPssHRFtAxRtW: 1240 kPa, BApptPssHRRAx1LtW: 600 kPa, BApptPssHRRAx1RtW: 595 kPa, BApptPssHRRAx2LtW: 675 kPa, BApptPssHRRAx2RtW: 275 kPa, BApptPssHRRAx3LtW: 495 kPa, BApptPssHRRAx3RtW: 95 kPa)
 (1667771814.409805)  vcan0  0C1CFEFE   [8]  6D 61 A7 52 BE 5F 3E 2E :: TC3(TransmissionOverrideControlMode: 1, TrnsmssnOvrrdCntrlMdPrrt: 3, MessageCounter: 6 count, TrnsmssnRqstdOtptShftSpd: 2680.5 rpm, TrnsmssnRqstdTrqTrqLmt: -43 %, MessageChecksum: 46 count)
 (1667771815.410260)  vcan0  00F02BFE   [8]  A8 B4 97 54 A5 E3 56 47 :: CN(CrashType: 40 bit-mapped, CrashCounter: 7 count, CrashChecksum: 4 count)
 (1667773608.401212)  vcan0  18FE9AFE   [8]  54 2C 4F 5F 22 59 BC 61 :: TCI2(EngnTrhrgr1CmprssrIntkTmprtr: 81.625 degC, EngnTrhrgr2CmprssrIntkTmprtr: 489.46875 degC, EngnTrhrgr3CmprssrIntkTmprtr: 440.0625 degC, EngnTrhrgr4CmprssrIntkTmprtr: 508.875 degC)
 (1667773609.401400)  vcan0  18FE90FE   [8]  04 EF 04 67 65 C5 AE 3D :: unpack requires at least 264 bits to unpack (got 64)
 (1667773610.401638)  vcan0  18FE94FE   [8]  25 31 C7 72 B0 1D 2A 2A :: EAC(EngineAuxiliaryCoolantPressure: 148 kPa, EngnAxlrClntTmprtr: 9 degC, SeaWaterPumpOutletPressure: 398 kPa, EngnClntPrssr1ExtnddRng: 456 kPa, EngnClntPrssr2ExtnddRng: 704 kPa, EngnClntPmpClntOtltPrssr: 58 kPa)
 (1667773611.402089)  vcan0  18FE68FE   [8]  65 F4 AB 49 C3 92 97 7F :: VF(HydraulicTemperature: 61 degC, HdrlOlFltrRstrtnSwth: 0, WinchOilPressureSwitch: 1, HydraulicOilLevel: 68.4 %)
 (1667773612.402729)  vcan0  18FE9DFE   [8]  17 08 34 54 E2 8D 36 34 :: MBT2(EngineMainBearing5Temperature: -208.28125 degC, EngineMainBearing6Temperature: 400.625 degC, EngineMainBearing7Temperature: 862.0625 degC, EngineMainBearing8Temperature: 144.6875 degC)
 (1667773613.403306)  vcan0  0CD2FEFE   [8]  F8 E3 4F 64 98 F2 14 2F :: ASC2(Atmttrtnhlpldtrnsfr: 0, KneelingRequestLeftSide: 2, KneelingRequestRightSide: 3, KneelingControlModeRequest: 3, NominalLevelRequestFrontAxle: 3, NominalLevelRequestRearAxle: 14, LevelControlModeRequest: 15, LiftAxle1PositionCommand: 0, LiftAxle2PositionCommand: 1, DamperStiffnessRequestFrontAxle: 40.0 %, DamperStiffnessRequestRearAxle: 60.800000000000004 %, DmprStffnssRqstLftTgAxl: 96.80000000000001 %, KneelingCommandFrontAxle: 0, KneelingCommandRearAxle: 1, Prohibitairsuspensioncontrol: 1, AllwLvlCntrlDrngBrkngCmmnd: 0, SpdDpndntLvlCntrlRqst: 3, PrhtAtmtArSspnsnCntrl: 3, Memorylevelrequest: 2)
 (1667773614.403769)  vcan0  0C04FEFE   [8]  C2 7C CC 47 92 3B 25 5E :: XBR(ExternalAccelerationDemand: -0.09227343749999939 m/(s*s), XBREBIMode: 0, XBRPriority: 3, XBRControlMode: 0, XBRurgency: 28.400000000000002 %, XBRMessageCounter: 14 count, XBRMessageChecksum: 5 count)
 (1667773615.404429)  vcan0  0CD1FEFE   [8]  4A F3 57 65 17 F9 1E 08 :: ASC6(LevelPresetFrontAxleLeft: 3028.2000000000007 mm, LevelPresetFrontAxleRight: -605.6999999999998 mm, LevelPresetRearAxleLeft: 3176.7000000000007 mm, LevelPresetRearAxleRight: -2992.2 mm)
 (1667773616.405008)  vcan0  0C04FEFE   [8]  B6 76 0E 25 F2 44 CC 30 :: XBR(ExternalAccelerationDemand: -0.8481328124999994 m/(s*s), XBREBIMode: 2, XBRPriority: 3, XBRControlMode: 0, XBRurgency: 14.8 %, XBRMessageCounter: 0 count, XBRMessageChecksum: 3 count)
 (1667773617.405564)  vcan0  18FE8DFE   [8]  04 9C EE 71 41 F2 57 71 :: VEP2(BatteryPotentialPowerInput2: 1997.0 V, ECUPowerOutputSupplyVoltage1: 1458.3000000000002 V, ECUPowerOutputSupplyVoltage2: 3100.8500000000004 V, ECUPowerOutputSupplyVoltage3: 1450.75 V)
 (1667773618.411580)  vcan0  18FE4BFE   [8]  E5 D8 67 32 96 1E A7 50 :: TCFG2(TransmissionTorqueLimit: 55525 Nm, TransmissionReferenceTorque: 12903 Nm, TrnsmssnCmmntnsFlrIdlTrqLmt: 25 %)
 (1667773619.411943)  vcan0  08F062FE   [8]  51 64 E8 55 9A 0D AC 37 :: ETC12(TrnsmssnHdrsttLp1Prssr: 25681 kPa, TrnsmssnHdrsttLp2Prssr: 21992 kPa, TrnsmssnDrtnlOtptShftSpd: -28645 rpm, TrnsmssnIntrmdtShftSpd: 1781.5 rpm)
 (1667773620.412231)  vcan0  0C04FEFE   [8]  1D E5 73 5F C0 3E 73 2A :: XBR(ExternalAccelerationDemand: 12.95216015625 m/(s*s), XBREBIMode: 3, XBRPriority: 0, XBRControlMode: 3, XBRurgency: 38.0 %, XBRMessageCounter: 10 count, XBRMessageChecksum: 2 count)
 (1667773621.412596)  vcan0  18FEBFFE   [8]  D0 1A 73 4D 25 33 1F 74 :: EBC2(FrontAxleSpeed: 26.8125 km/h, RelativeSpeedFrontAxleLeftWheel: -0.625 km/h, RltvSpdFrntAxlRghtWhl: -3.0 km/h, RelativeSpeedRearAxle1LeftWheel: -5.5 km/h, RltvSpdRrAxl1RghtWhl: -4.625 km/h, RelativeSpeedRearAxle2LeftWheel: -5.875 km/h, RltvSpdRrAxl2RghtWhl: -0.5625 km/h)
 (1667773622.413338)  vcan0  18FE58FE   [8]  D3 AE 6F 61 3C 3B 53 48 :: ASC4(BellowPressureFrontAxleLeft: 4475.5 kPa, BellowPressureFrontAxleRight: 2494.3 kPa, BellowPressureRearAxleLeft: 1516.4 kPa, BellowPressureRearAxleRight: 1851.5 kPa)
 (1667773623.414080)  vcan0  18FE99FE   [8]  39 79 1F 79 34 1F A3 2C :: TCI3(EngnTrhrgr1CmprssrIntkPrssr: -7.5546875 kPa, EngnTrhrgr2CmprssrIntkPrssr: -7.7578125 kPa, EngnTrhrgr3CmprssrIntkPrssr: -187.59375 kPa, EngnTrhrgr4CmprssrIntkPrssr: -160.7265625 kPa)
 (1667773624.414554)  vcan0  18FEADFE   [8]  63 63 FC 4D F6 9B 6F 74 :: EBC3(BApptPssHRFtAxLtW: 495 kPa, BApptPssHRFtAxRtW: 495 kPa, BApptPssHRRAx1LtW: 1260 kPa, BApptPssHRRAx1RtW: 385 kPa, BApptPssHRRAx2LtW: 1230 kPa, BApptPssHRRAx2RtW: 775 kPa, BApptPssHRRAx3LtW: 555 kPa, BApptPssHRRAx3RtW: 580 kPa)
 (1667773625.415270)  vcan0  18FE8FFE   [8]  69 A7 B7 72 41 8F C7 59 :: SP2(EngnExtrnlShtdwnArSpplPrssr: 21428.5 kPa)
 (1667773626.416001)  vcan0  0CF018FE   [8]  F3 17 88 75 F7 05 D6 7E :: KL2(EngineCylinder9KnockLevel: 243 %, EngineCylinder10KnockLevel: 23 %, EngineCylinder11KnockLevel: 136 %, EngineCylinder12KnockLevel: 117 %, EngineCylinder13KnockLevel: 247 %, EngineCylinder14KnockLevel: 5 %, EngineCylinder15KnockLevel: 214 %, EngineCylinder16KnockLevel: 126 %)
 (1667773627.416705)  vcan0  18FE9DFE   [8]  9D 79 96 5B FB A1 C4 70 :: MBT2(EngineMainBearing5Temperature: 699.90625 degC, EngineMainBearing6Temperature: 459.6875 degC, EngineMainBearing7Temperature: 1022.84375 degC, EngineMainBearing8Temperature: 629.125 degC)
 (1667773628.417191)  vcan0  18FE4CFE   [8]  30 3B 81 46 E0 7A 2C 23 :: ML(RearBlackOutMarkerSelect: 0, FrontBlackOutMarkerLampSelect: 0, ConvoyLampSelect: 3, ConvoyDrivingLampSelect: 0, BlackOutBrakeStopLampSelect: 2, NightVisionIlluminatorSelect: 2, BlackOutWorkLampSelect: 1, OprtrsBlkOtIntnstSltn: 14.0 %)
 (1667773629.418057)  vcan0  18FE8FFE   [8]  E5 55 28 13 31 DF 14 79 :: SP2(EngnExtrnlShtdwnArSpplPrssr: 10994.5 kPa)
 (1667773630.418737)  vcan0  08F062FE   [8]  FF 35 7E 1D 4F C4 88 58 :: ETC12(TrnsmssnHdrsttLp1Prssr: 13823 kPa, TrnsmssnHdrsttLp2Prssr: 7550 kPa, TrnsmssnDrtnlOtptShftSpd: 18128 rpm, TrnsmssnIntrmdtShftSpd: 2833.0 rpm)
 (1667773631.419496)  vcan0  0CD1FEFE   [8]  CA 33 FE 51 1F DF FB 25 :: ASC6(LevelPresetFrontAxleLeft: -1874.1999999999998 mm, LevelPresetFrontAxleRight: -1101.0 mm, LevelPresetRearAxleLeft: 2511.9000000000005 mm, LevelPresetRearAxleRight: -2227.7 mm)
 (1667773632.420132)  vcan0  18FE8FFE   [8]  58 C4 15 06 F3 8D 6B 07 :: SP2(EngnExtrnlShtdwnArSpplPrssr: 25132.0 kPa)
 (1667773633.420731)  vcan0  18FE6BFE   [8]  C8 E2 63 6E 2C 07 8B 00 :: DI(Driver1identification: 200 ASCII, Driver2identification: 226 ASCII)
 (1667773634.421190)  vcan0  18FEBDFE   [8]  D0 F3 C6 05 90 6A 87 4E :: FD1(EngineFan1EstimatedPercentSpeed: 83.2 %, FanDriveState: 3, FanSpeed: 184.75 rpm, HydraulicFanMotorPressure: 13640.0 kPa, FanDriveBypassCommandStatus: 54.0 %)
 (1667773635.421913)  vcan0  18FE99FE   [8]  6A 40 4F 7B F9 11 3F 41 :: TCI3(EngnTrhrgr1CmprssrIntkPrssr: -121.171875 kPa, EngnTrhrgr2CmprssrIntkPrssr: -3.3828125 kPa, EngnTrhrgr3CmprssrIntkPrssr: -214.0546875 kPa, EngnTrhrgr4CmprssrIntkPrssr: -119.5078125 kPa)
 (1667773636.422464)  vcan0  0C1CFEFE   [8]  1B 86 F6 78 EC 29 C7 36 :: TC3(TransmissionOverrideControlMode: 3, TrnsmssnOvrrdCntrlMdPrrt: 2, MessageCounter: 1 count, TrnsmssnRqstdOtptShftSpd: 7745.75 rpm, TrnsmssnRqstdTrqTrqLmt: -5 %, MessageChecksum: 54 count)
 (1667773637.423171)  vcan0  18FE70FE   [8]  BE 10 6A 27 89 A3 5D 12 :: CVW(PoweredVehicleWeight: 42860 kg, GrossCombinationVehicleWeight: 100900 kg)
 (1667773638.423796)  vcan0  18FE68FE   [8]  A3 8D 35 47 B9 DE DE 58 :: VF(HydraulicTemperature: 123 degC, HdrlOlFltrRstrtnSwth: 1, WinchOilPressureSwitch: 3, HydraulicOilLevel: 21.200000000000003 %)
 (1667773639.424175)  vcan0  08F02DFE   [8]  1D 29 A8 37 9E 34 07 6C :: ACCS(LtrlAlrtnExtnddRng: -214.75 m/(s*s), LngtdnlAlrtnExtnddRng: -177.52 m/(s*s), VrtlAlrtnExtnddRng: -185.3 m/(s*s), LtrlAlrtnFgrfMrtExtnddRng: 3, LngtdnlAlrtnFgrfMrtExtnddRng: 1, VrtlAlrtnFgrfMrtExtnddRng: 0, SpptVTsssRpttRtAtSs: 0)
 (1667773653.431127)  vcan0  18FE67FE   [8]  F8 28 67 50 D2 53 89 03 :: CCC(AxlrHtrMxmmOtptPwr: 20976 W)
 (1667773654.431445)  vcan0  18FE54FE   [8]  2C 04 9D 6C 73 F4 3E 47 :: ECT1(ELwLtTsdMxRPME: 1408 rpm, EHLtTsdMCtsERPM: 128 rpm, ELwLtTsdMxTqE: 32 %, EHLtTsdMCtsTqE: -17 %, EngineMaximumContinuousRPM: 3680 rpm, EngineMinimumContinuousRPM: 7808 rpm, EngineMaximumContinuousTorque: -63 %, EngineMinimumContinuousTorque: -54 %)
 (1667773655.431835)  vcan0  18FE6AFE   [8]  EF 49 5A 57 75 A6 0B 3B :: EFS(EngineOilLevelRemoteReservoir: 95.60000000000001 %, EngnFlSpplPmpIntkAsltPrssr: 146 kPa, EngnFlFltrstnsdDffrntlPrssr: 180 kPa, EngineWasteOilReservoirLevel: 34.800000000000004 %, EngineOilFilterOutletPressure: 468 kPa, EngineOilPrimingPumpSwitch: 2, EngineOilPrimingState: 1, EngineOilPreHeatedState: 2, EngineCoolantPreheatedState: 2, EngineVentilationStatus: 3, FuelPumpPrimerStatus: 1, EngnFlSpplPmpIntkPrssr: 118 kPa)
 (1667773656.432442)  vcan0  0CF00AFE   [8]  AC A1 56 03 19 F9 B6 38 :: EGF1(EngnExhstGsRrltn1MssFlwRt: 2069.4 kg/h, EngineIntakeAirMassFlowRate: 42.7 kg/h, EngnExhstGsRrltn2MssFlwRt: 3188.4500000000003 kg/h)
 (1667773657.433368)  vcan0  0C04FEFE   [8]  55 23 1A 66 55 F2 16 3F :: XBR(ExternalAccelerationDemand: -11.27049609375 m/(s*s), XBREBIMode: 2, XBRPriority: 2, XBRControlMode: 1, XBRurgency: 40.800000000000004 %, XBRMessageCounter: 15 count, XBRMessageChecksum: 3 count)
 (1667773658.433978)  vcan0  18FE51FE   [8]  87 48 3B 5B 24 34 F0 3E :: ACC2(ACCusagedemand: 3, RequestedACCDistanceMode: 4)
 (1667773659.434792)  vcan0  18FEBDFE   [8]  73 4C 3B 29 68 39 6F 5B :: FD1(EngineFan1EstimatedPercentSpeed: 46.0 %, FanDriveState: 12, FanSpeed: 1319.375 rpm, HydraulicFanMotorPressure: 7348.0 kPa, FanDriveBypassCommandStatus: 44.400000000000006 %)
 (1667773660.435494)  vcan0  18FEAEFE   [8]  FE 84 42 63 51 E1 A8 0D :: AIR1(PneumaticSupplyPressure: 2032 kPa, ParkingandorTrailerAirPressure: 1056 kPa, ServiceBrakeCircuit1AirPressure: 528 kPa, ServiceBrakeCircuit2AirPressure: 792 kPa, AxlrEqpmntSpplPrssr: 648 kPa, AirSuspensionSupplyPressure: 1800 kPa, AirCompressorStatus: 0, PwrtrnCrtArSpplPrssr: 104 kPa)
 (1667773661.436166)  vcan0  18FE53FE   [8]  26 28 CF 26 2E F0 25 2E :: RTC1(LwLmtThrshldfrMxmmRPMfrmRtrdr: 1216 rpm, HLtTsdMCtsRPMRtd: 1280 rpm, LwLmtThrshldfrMxmmTrqfrmRtrdr: 82 %, HLtTsdMCtsTqRtd: -87 %, MaximumContinuousRetarderSpeed: 1472 rpm, MinimumContinuousRetarderSpeed: 7680 rpm, MaximumContinuousRetarderTorque: -88 %, MinimumContinuousRetarderTorque: -79 %)
 (1667773662.436681)  vcan0  08F02CFE   [8]  B7 69 DF 45 20 45 E2 62 :: MSI2(MagnetForwardCurrent: 27063 A, MagnetReverseCurrent: 223 A, MaterialLiftSwitch: 1, MaterialDropSwitch: 1, GnrtrCrrntBstAtvStts: 0, MaterialLiftActiveStatus: 1, MaterialDropActiveStatus: 0, LiftRelayControl: 0, DropRelayControl: 2, MagnetGeneratorControl: 0)
 (1667773663.437319)  vcan0  18FE58FE   [8]  09 0E 89 46 18 6E 49 33 :: ASC4(BellowPressureFrontAxleLeft: 359.3 kPa, BellowPressureFrontAxleRight: 1805.7 kPa, BellowPressureRearAxleLeft: 2818.4 kPa, BellowPressureRearAxleRight: 1312.9 kPa)
 (1667773664.437971)  vcan0  18FE99FE   [8]  E5 F7 2F 17 44 72 E6 1F :: TCI3(EngnTrhrgr1CmprssrIntkPrssr: 245.7890625 kPa, EngnTrhrgr2CmprssrIntkPrssr: -203.6328125 kPa, EngnTrhrgr3CmprssrIntkPrssr: -21.46875 kPa, EngnTrhrgr4CmprssrIntkPrssr: -186.203125 kPa)
 (1667773665.438775)  vcan0  18FE68FE   [8]  1A 1B 9B 3D 34 BC 40 77 :: VF(HydraulicTemperature: -14 degC, HdrlOlFltrRstrtnSwth: 3, WinchOilPressureSwitch: 2, HydraulicOilLevel: 62.0 %)
 (1667773666.439443)  vcan0  18FE8DFE   [8]  14 B8 19 35 E0 5D 97 7A :: VEP2(BatteryPotentialPowerInput2: 2356.2000000000003 V, ECUPowerOutputSupplyVoltage1: 679.6500000000001 V, ECUPowerOutputSupplyVoltage2: 1201.6000000000001 V, ECUPowerOutputSupplyVoltage3: 1569.15 V)
 (1667773667.440316)  vcan0  18FE4AFE   [8]  EE 54 A2 76 35 81 B1 60 :: ETC7(TrnsmssnCrrntRngDsplBlnkStt: 2, TransmissionServiceIndicator: 3, TrnsmssnRqstdRngDsplBlnkStt: 2, TrnsmssnRqstdRngDsplFlshStt: 3, TrnsmssnRdfrBrkRls: 0, ActiveShiftConsoleIndicator: 1, TransmissionEngineCrankEnable: 1, TrnsmssnShftInhtIndtr: 1, TransmissionMode4Indicator: 2, TransmissionMode3Indicator: 0, TransmissionMode2Indicator: 2, TransmissionMode1Indicator: 2, TrnsmssnRqstdGrFdk: -7 gear value, TransmissionMode5Indicator: 1, TransmissionMode6Indicator: 1, TransmissionMode7Indicator: 3, TransmissionMode8Indicator: 0, TrnsmssnRvrsGrShftInhtStts: 1, TransmissionWarningIndicator: 0, TransmissionMode9Indicator: 0, TransmissionMode10Indicator: 2, TrnsmssnArSpplPrssrIndtr: 1, TrnsmssnAtNtrlMnlRtrnStt: 6, TransmissionManualModeIndicator: 2)
 (1667773668.440645)  vcan0  0CF002FE   [8]  67 02 9F 29 BC C9 EC 3B :: ETC1(TransmissionDrivelineEngaged: 3, TrnsmssnTrqCnvrtrLkpEnggd: 1, TransmissionShiftInProcess: 2, TrnsmssnTrqCnvrtrLkpTrnstnnPrss: 1, Transmission1OutputShaftSpeed: 5088.25 rpm, PercentClutchSlip: 16.400000000000002 %, EngineMomentaryOverspeedEnable: 0, ProgressiveShiftDisable: 3, MmntrEngnMxmmPwrEnl: 3, Transmission1InputShaftSpeed: 7577.125 rpm, SAddssCtDvTsssCt: 59 SA)
 (1667773669.441164)  vcan0  18FE54FE   [8]  21 4E 45 15 30 16 28 65 :: ECT1(ELwLtTsdMxRPME: 1056 rpm, EHLtTsdMCtsERPM: 2496 rpm, ELwLtTsdMxTqE: -56 %, EHLtTsdMCtsTqE: -104 %, EngineMaximumContinuousRPM: 1536 rpm, EngineMinimumContinuousRPM: 704 rpm, EngineMaximumContinuousTorque: -85 %, EngineMinimumContinuousTorque: -24 %)
 (1667773670.441879)  vcan0  08F02CFE   [8]  3A 61 3D 71 2E 9B 6A 48 :: MSI2(MagnetForwardCurrent: 24890 A, MagnetReverseCurrent: 61 A, MaterialLiftSwitch: 1, MaterialDropSwitch: 0, GnrtrCrrntBstAtvStts: 3, MaterialLiftActiveStatus: 1, MaterialDropActiveStatus: 2, LiftRelayControl: 3, DropRelayControl: 2, MagnetGeneratorControl: 0)
 (1667773671.442414)  vcan0  0C99FEFE   [8]  E4 0D 4E 1D 54 C3 39 6F :: JLCM(Joystick1Lamp1Command: 0, Joystick1Lamp2Command: 1, Joystick1Lamp3Command: 2, Joystick1Lamp4Command: 3, Joystick1Lamp5Command: 1, Joystick1Lamp6Command: 3, Joystick1Lamp7Command: 0, Joystick1Lamp8Command: 0, Joystick1Lamp9Command: 2, Joystick1Lamp10Command: 3, Joystick2Lamp1Command: 0, Joystick2Lamp2Command: 1, Joystick2Lamp3Command: 1, Joystick2Lamp4Command: 3, Joystick2Lamp5Command: 1, Joystick2Lamp6Command: 0, Joystick2Lamp7Command: 0, Joystick2Lamp8Command: 1, Joystick2Lamp9Command: 1, Joystick2Lamp10Command: 1, Joystick3Lamp1Command: 3, Joystick3Lamp2Command: 0, Joystick3Lamp3Command: 0, Joystick3Lamp4Command: 3, Joystick3Lamp5Command: 1, Joystick3Lamp6Command: 2, Joystick3Lamp7Command: 3, Joystick3Lamp8Command: 0, Joystick3Lamp9Command: 3, Joystick3Lamp10Command: 3)
 (1667773672.443300)  vcan0  18FE4BFE   [8]  28 0E D0 4B 0C 2D 19 35 :: TCFG2(TransmissionTorqueLimit: 3624 Nm, TransmissionReferenceTorque: 19408 Nm, TrnsmssnCmmntnsFlrIdlTrqLmt: -113 %)
 (1667773673.443810)  vcan0  18FE9DFE   [8]  06 37 CD 75 15 3B A2 7B :: MBT2(EngineMainBearing5Temperature: 167.1875 degC, EngineMainBearing6Temperature: 669.40625 degC, EngineMainBearing7Temperature: 199.65625 degC, EngineMainBearing8Temperature: 716.0625 degC)
 (1667773674.444420)  vcan0  0CF00CFE   [8]  B6 B3 53 23 FA 32 D2 12 :: ETC8(TrnsmssnTrqCnvrtrRt: 46.006 Ratio, TrnsmssnClthCnvrtrInptSpd: 1130.375 rpm, TransmissionShiftInhibitReason: 250, TrnsmssnTrqCnvrtrLkpInhtRsn: 50, TrnsmssnTrqCnvrtrLkpInhtIndtr: 2)
 (1667773675.444799)  vcan0  0C1BFEFE   [8]  D9 24 19 18 15 4E 6D 50 :: HVES1C1(HVES1HghVltgBsCnntCmmnd: 1, HVES1PowerDownCommand: 2, HVES1HghVltgBsAtvIsltnTstCmmnd: 1, HVES1HghVltgBsPssvIsltnTstCmmnd: 3, HVES1CellBalancingCommand: 0, HVES1EnlIntrnlChrgrCmmnd: 1, HVES1OperationConsent: 2, HVES1HVtBsHSdRsstCtRqst: 0, HVES1HghVltgBsLwSdRsstrCnntRqst: 1)
 (1667773676.445116)  vcan0  18FE4CFE   [8]  72 3C EA 47 29 06 87 05 :: ML(RearBlackOutMarkerSelect: 2, FrontBlackOutMarkerLampSelect: 0, ConvoyLampSelect: 3, ConvoyDrivingLampSelect: 1, BlackOutBrakeStopLampSelect: 3, NightVisionIlluminatorSelect: 3, BlackOutWorkLampSelect: 1, OprtrsBlkOtIntnstSltn: 2.0 %)
 (1667776906.026372)  vcan0  0C1BFEFE   [8]  D0 3A 4F 3F D5 42 C7 51 :: HVES1C1(HVES1HghVltgBsCnntCmmnd: 0, HVES1PowerDownCommand: 0, HVES1HghVltgBsAtvIsltnTstCmmnd: 1, HVES1HghVltgBsPssvIsltnTstCmmnd: 3, HVES1CellBalancingCommand: 2, HVES1EnlIntrnlChrgrCmmnd: 2, HVES1OperationConsent: 3, HVES1HVtBsHSdRsstCtRqst: 0, HVES1HghVltgBsLwSdRsstrCnntRqst: 3)
 (1667776907.026990)  vcan0  18FE56FE   [8]  51 AB A5 2B CD 19 62 51 :: AT1T1I1(Aftrtrtmnt1DslExhstFldTnkVlm: 32.4 %, Atttt1DsExstFdTTpt1: 131 degC, Aftrtrtmnt1DslExhstFldTnkLvl: 1117.3 mm, Atttt1DsExstFdTLvVPFMI: 13 binary, AttttDsExstFdTLwLvIdt: 6, Atttt1DsExstFdT1TptPFMI: 25 binary, AftrtrtmntSCROprtrIndmntSvrt: 0, Aftrtrtmnt1DslExhstFldTnkHtr: 39.2 %, Atttt1DsExstFdT1HtPFMI: 17 binary)
 (1667776908.027485)  vcan0  0CF018FE   [8]  35 6B A7 7D DF E0 5E 0A :: KL2(EngineCylinder9KnockLevel: 53 %, EngineCylinder10KnockLevel: 107 %, EngineCylinder11KnockLevel: 167 %, EngineCylinder12KnockLevel: 125 %, EngineCylinder13KnockLevel: 223 %, EngineCylinder14KnockLevel: 224 %, EngineCylinder15KnockLevel: 94 %, EngineCylinder16KnockLevel: 10 %)
 (1667776909.028154)  vcan0  18FE56FE   [8]  57 3A F7 29 BC 29 90 7C :: AT1T1I1(Aftrtrtmnt1DslExhstFldTnkVlm: 34.800000000000004 %, Atttt1DsExstFdTTpt1: 18 degC, Aftrtrtmnt1DslExhstFldTnkLvl: 1074.3 mm, Atttt1DsExstFdTLvVPFMI: 28 binary, AttttDsExstFdTLwLvIdt: 5, Atttt1DsExstFdT1TptPFMI: 9 binary, AftrtrtmntSCROprtrIndmntSvrt: 1, Aftrtrtmnt1DslExhstFldTnkHtr: 57.6 %, Atttt1DsExstFdT1HtPFMI: 28 binary)
 (1667776910.028826)  vcan0  18FE56FE   [8]  55 65 ED 6B DB 09 93 22 :: AT1T1I1(Aftrtrtmnt1DslExhstFldTnkVlm: 34.0 %, Atttt1DsExstFdTTpt1: 61 degC, Aftrtrtmnt1DslExhstFldTnkLvl: 2762.9 mm, Atttt1DsExstFdTLvVPFMI: 27 binary, AttttDsExstFdTLwLvIdt: 6, Atttt1DsExstFdT1TptPFMI: 9 binary, AftrtrtmntSCROprtrIndmntSvrt: 0, Aftrtrtmnt1DslExhstFldTnkHtr: 58.800000000000004 %, Atttt1DsExstFdT1HtPFMI: 2 binary)
 (1667776911.029082)  vcan0  18FE96FE   [8]  1C EE FC 25 E1 1B 65 0C :: TCW(EngnTrhrgrWstgtAttr1Pstn: 11.200000000000001 %, EngnTrhrgrWstgtAttr2Pstn: 95.2 %, EngnTrhrgrWstgtAttr3Pstn: 100.80000000000001 %, EngnTrhrgrWstgtAttr4Pstn: 14.8 %, EngnTrhrgrWstgtAttrCntrlArPrssr: 900 kPa, EngnTrhrgrWstgtAttr1DsrdPstn: 10.8 %, EngnTrhrgrWstgtAttr1PrlmnrFMI: 5 binary, EngnTrhrgrWstgtAttr1TmprtrStts: 3, EngnTrhrgrWstgtAttr2DsrdPstn: 4.800000000000001 %)
 (1667776912.029280)  vcan0  18FE94FE   [8]  23 61 93 5F 74 D6 3C 56 :: EAC(EngineAuxiliaryCoolantPressure: 140 kPa, EngnAxlrClntTmprtr: 57 degC, SeaWaterPumpOutletPressure: 294 kPa, EngnClntPrssr1ExtnddRng: 380 kPa, EngnClntPrssr2ExtnddRng: 464 kPa, EngnClntPmpClntOtltPrssr: 428 kPa)
 (1667776913.029514)  vcan0  18FED6FE   [8]  D1 5E AE 1A A9 F1 83 2C :: HSI1(HrdSstmPrttnOvrrdSwth: 1, HrdSstmPrplsnClntLvlSwth: 0, HrdSstmPwrEltrnsClntLvlSwth: 1, HrdSstmOffBrdChrgrCnntnStts: 3, HrdSstmRgnrtvBrkngDslSwth: 2, HrdSstmBrkPdlRgnrtvBrkngDslSwth: 3, HrdSstmPrplsnDslSwth: 1, HybridSystemShutdownSwitch: 1, HrdSstmCstngRgnrtvBrkngLvlSltr: 69.60000000000001 %, PwrEltrnsClntFllSwth: 2, PrplsnMtrClntFllSwth: 2)
 (1667776914.030170)  vcan0  0C0AFEFE   [8]  98 47 25 34 E8 60 76 7B :: CCVS2(CruiseControlDisableCommand: 0, CruiseControlResumeCommand: 2, CruiseControlPauseCommand: 1, CruiseControlSetCommand: 2, IdleSpeedRequest: 1192.875 rpm, IdleControlEnableState: 0, IdleControlRequestActivation: 1, RemoteRoadSpeedLimitRequest: 232 km/h)
 (1667776915.030438)  vcan0  0C1DFEFE   [8]  03 E3 18 14 A9 7C 84 1F :: EIC(EngineTimingAdvance: 254.0234375 deg)
 (1667776916.031113)  vcan0  0C1DFEFE   [8]  B3 C9 9B 41 79 B7 D3 5E :: EIC(EngineTimingAdvance: 203.3984375 deg)
